DIgSILENT PowerFactory,20000410,2000
3,03A,00D
1,LOHL632-633:Phase Voltage A/Terminal i,,,kV,0.00010000000,-6.537238,0.000000,20489,99998,1,1,P
2,LOHL632-633:Phase Voltage B/Terminal i,,,kV,0.00010000000,-4.849857,0.000000,8942,99998,1,1,P
3,LOHL632-633:Phase Voltage C/Terminal i,,,kV,0.00010000000,-5.691971,0.000000,7246,99998,1,1,P
50
1
15000.000000,3001
21/11/2020,12:57:58.000000
21/11/2020,12:57:58.000000
ASCII
1.000000
0000000001,0000000000,093392,016002,060389
0000000002,0000000067,093889,016410,059526
0000000003,0000000133,094372,016833,058663
0000000004,0000000200,094841,017272,057798
0000000005,0000000267,095283,017740,056932
0000000006,0000000333,095710,018222,056067
0000000007,0000000400,096123,018719,055201
0000000008,0000000467,096507,019244,054338
0000000009,0000000533,096876,019783,053476
0000000010,0000000600,097230,020335,052615
0000000011,0000000667,097555,020914,051758
0000000012,0000000733,097863,021506,050904
0000000013,0000000800,098157,022111,050053
0000000014,0000000867,098419,022741,049208
0000000015,0000000933,098666,023383,048367
0000000016,0000001000,098897,024037,047530
0000000017,0000001067,099096,024714,046701
0000000018,0000001133,099279,025402,045878
0000000019,0000001200,099447,026102,045060
0000000020,0000001267,099582,026822,044253
0000000021,0000001333,099700,027553,043452
0000000022,0000001400,099803,028294,042657
0000000023,0000001467,099873,029054,041876
0000000024,0000001533,099926,029823,041102
0000000025,0000001600,099963,030601,040335
0000000026,0000001667,099968,031396,039585
0000000027,0000001733,099956,032199,038842
0000000028,0000001800,099927,033010,038108
0000000029,0000001867,099866,033836,037392
0000000030,0000001933,099788,034668,036685
0000000031,0000002000,099694,035507,035988
0000000032,0000002067,099568,036358,035310
0000000033,0000002133,099425,037215,034643
0000000034,0000002200,099267,038078,033986
0000000035,0000002267,099076,038950,033351
0000000036,0000002333,098869,039827,032727
0000000037,0000002400,098646,040708,032115
0000000038,0000002467,098392,041596,031526
0000000039,0000002533,098122,042488,030949
0000000040,0000002600,097837,043382,030385
0000000041,0000002667,097520,044281,029846
0000000042,0000002733,097189,045182,029319
0000000043,0000002800,096843,046085,028806
0000000044,0000002867,096466,046990,028319
0000000045,0000002933,096075,047896,027846
0000000046,0000003000,095670,048802,027386
0000000047,0000003067,095236,049708,026955
0000000048,0000003133,094787,050613,026537
0000000049,0000003200,094325,051517,026134
0000000050,0000003267,093835,052419,025761
0000000051,0000003333,093332,053318,025402
0000000052,0000003400,092816,054215,025058
0000000053,0000003467,092274,055107,024744
0000000054,0000003533,091719,055996,024445
0000000055,0000003600,091151,056881,024162
0000000056,0000003667,090559,057758,023910
0000000057,0000003733,089955,058630,023673
0000000058,0000003800,089339,059498,023452
0000000059,0000003867,088701,060356,023263
0000000060,0000003933,088052,061208,023090
0000000061,0000004000,087392,062054,022933
0000000062,0000004067,086711,062887,022808
0000000063,0000004133,086020,063713,022699
0000000064,0000004200,085319,064532,022607
0000000065,0000004267,084599,065336,022546
0000000066,0000004333,083870,066132,022503
0000000067,0000004400,083132,066920,022475
0000000068,0000004467,082378,067690,022480
0000000069,0000004533,081615,068451,022502
0000000070,0000004600,080845,069202,022540
0000000071,0000004667,080060,069934,022610
0000000072,0000004733,079268,070656,022696
0000000073,0000004800,078470,071368,022799
0000000074,0000004867,077659,072057,022934
0000000075,0000004933,076842,072736,023086
0000000076,0000005000,076020,073403,023253
0000000077,0000005067,075188,074046,023452
0000000078,0000005133,074351,074677,023667
0000000079,0000005200,073510,075296,023898
0000000080,0000005267,072661,075890,024160
0000000081,0000005333,071809,076470,024437
0000000082,0000005400,070953,077038,024730
0000000083,0000005467,070093,077578,025054
0000000084,0000005533,069230,078104,025392
0000000085,0000005600,068365,078617,025745
0000000086,0000005667,067498,079101,026128
0000000087,0000005733,066630,079570,026526
0000000088,0000005800,065760,080025,026938
0000000089,0000005867,064891,080449,027378
0000000090,0000005933,064022,080859,027833
0000000091,0000006000,063153,081253,028301
0000000092,0000006067,062287,081617,028796
0000000093,0000006133,061422,081964,029305
0000000094,0000006200,060559,082296,029827
0000000095,0000006267,059700,082596,030374
0000000096,0000006333,058844,082879,030934
0000000097,0000006400,057991,083146,031506
0000000098,0000006467,057146,083381,032102
0000000099,0000006533,056304,083599,032710
0000000100,0000006600,055466,083800,033330
0000000101,0000006667,054638,083968,033972
0000000102,0000006733,053815,084119,034625
0000000103,0000006800,052997,084253,035288
0000000104,0000006867,052191,084354,035972
0000000105,0000006933,051391,084437,036665
0000000106,0000007000,050598,084503,037369
0000000107,0000007067,049819,084535,038091
0000000108,0000007133,049047,084551,038821
0000000109,0000007200,048283,084549,039561
0000000110,0000007267,047535,084513,040317
0000000111,0000007333,046796,084460,041080
0000000112,0000007400,046065,084389,041851
0000000113,0000007467,045353,084285,042637
0000000114,0000007533,044650,084164,043429
0000000115,0000007600,043957,084026,044228
0000000116,0000007667,043285,083855,045038
0000000117,0000007733,042623,083666,045854
0000000118,0000007800,041971,083461,046676
0000000119,0000007867,041342,083223,047507
0000000120,0000007933,040724,082968,048343
0000000121,0000008000,040118,082697,049182
0000000122,0000008067,039536,082394,050029
0000000123,0000008133,038966,082074,050880
0000000124,0000008200,038408,081739,051733
0000000125,0000008267,037876,081372,052591
0000000126,0000008333,037357,080990,053451
0000000127,0000008400,036852,080592,054313
0000000128,0000008467,036373,080164,055177
0000000129,0000008533,035908,079720,056042
0000000130,0000008600,035457,079262,056908
0000000131,0000008667,035035,078775,057773
0000000132,0000008733,034626,078274,058638
0000000133,0000008800,034233,077758,059503
0000000134,0000008867,033868,077215,060364
0000000135,0000008933,033519,076658,061225
0000000136,0000009000,033185,076088,062083
0000000137,0000009067,032881,075491,062936
0000000138,0000009133,032593,074882,063786
0000000139,0000009200,032320,074260,064634
0000000140,0000009267,032079,073614,065474
0000000141,0000009333,031853,072956,066309
0000000142,0000009400,031643,072287,067141
0000000143,0000009467,031465,071594,067962
0000000144,0000009533,031304,070891,068779
0000000145,0000009600,031158,070178,069590
0000000146,0000009667,031045,069443,070389
0000000147,0000009733,030948,068699,071181
0000000148,0000009800,030867,067946,071967
0000000149,0000009867,030819,067174,072738
0000000150,0000009933,030787,066393,073502
0000000151,0000010000,030772,065603,074258
0000000152,0000010067,030790,064797,074998
0000000153,0000010133,030824,063984,075729
0000000154,0000010200,030874,063164,076451
0000000155,0000010267,030957,062329,077155
0000000156,0000010333,031056,061488,077849
0000000157,0000010400,031172,060640,078533
0000000158,0000010467,031320,059782,079197
0000000159,0000010533,031484,058918,079850
0000000160,0000010600,031664,058048,080492
0000000161,0000010667,031876,057170,081112
0000000162,0000010733,032104,056288,081720
0000000163,0000010800,032348,055402,082317
0000000164,0000010867,032623,054510,082890
0000000165,0000010933,032913,053614,083450
0000000166,0000011000,033219,052717,083998
0000000167,0000011067,033556,051815,084520
0000000168,0000011133,033907,050912,085029
0000000169,0000011200,034273,050007,085525
0000000170,0000011267,034669,049101,085994
0000000171,0000011333,035079,048195,086449
0000000172,0000011400,035504,047289,086889
0000000173,0000011467,035957,046384,087302
0000000174,0000011533,036424,045480,087700
0000000175,0000011600,036905,044578,088084
0000000176,0000011667,037412,043679,088438
0000000177,0000011733,037933,042783,088777
0000000178,0000011800,038467,041889,089101
0000000179,0000011867,039026,041001,089394
0000000180,0000011933,039598,040118,089672
0000000181,0000012000,040182,039238,089935
0000000182,0000012067,040790,038366,090166
0000000183,0000012133,041409,037500,090382
0000000184,0000012200,042040,036639,090582
0000000185,0000012267,042693,035789,090750
0000000186,0000012333,043357,034945,090901
0000000187,0000012400,044031,034107,091037
0000000188,0000012467,044725,033284,091141
0000000189,0000012533,045429,032467,091228
0000000190,0000012600,046143,031658,091299
0000000191,0000012667,046875,030865,091337
0000000192,0000012733,047615,030080,091359
0000000193,0000012800,048364,029304,091365
0000000194,0000012867,049130,028546,091338
0000000195,0000012933,049902,027798,091295
0000000196,0000013000,050683,027059,091235
0000000197,0000013067,051477,026341,091143
0000000198,0000013133,052277,025633,091035
0000000199,0000013200,053084,024936,090911
0000000200,0000013267,053903,024262,090754
0000000201,0000013333,054726,023599,090582
0000000202,0000013400,055555,022947,090393
0000000203,0000013467,056394,022320,090173
0000000204,0000013533,057236,021705,089937
0000000205,0000013600,058083,021103,089685
0000000206,0000013667,058936,020527,089402
0000000207,0000013733,059792,019964,089104
0000000208,0000013800,060651,019415,088791
0000000209,0000013867,061515,018893,088447
0000000210,0000013933,062380,018385,088089
0000000211,0000014000,063246,017892,087716
0000000212,0000014067,064115,017427,087313
0000000213,0000014133,064984,016978,086897
0000000214,0000014200,065854,016543,086466
0000000215,0000014267,066723,016138,086007
0000000216,0000014333,067591,015749,085534
0000000217,0000014400,068459,015375,085048
0000000218,0000014467,069323,015033,084535
0000000219,0000014533,070185,014707,084009
0000000220,0000014600,071046,014396,083470
0000000221,0000014667,071901,014118,082906
0000000222,0000014733,072752,013856,082329
0000000223,0000014800,073601,013611,081741
0000000224,0000014867,074441,013398,081129
0000000225,0000014933,075277,013202,080506
0000000226,0000015000,076109,013023,079871
0000000227,0000015067,076930,012878,079215
0000000228,0000015133,077746,012749,078548
0000000229,0000015200,078556,012638,077871
0000000230,0000015267,079353,012560,077174
0000000231,0000015333,080144,012499,076468
0000000232,0000015400,080928,012456,075752
0000000233,0000015467,081697,012446,075018
0000000234,0000015533,082459,012454,074276
0000000235,0000015600,083212,012479,073526
0000000236,0000015667,083949,012537,072759
0000000237,0000015733,084676,012613,071986
0000000238,0000015800,085395,012706,071205
0000000239,0000015867,086094,012833,070411
0000000240,0000015933,086784,012977,069610
0000000241,0000016000,087463,013137,068803
0000000242,0000016067,088122,013331,067985
0000000243,0000016133,088770,013542,067162
0000000244,0000016200,089407,013769,066334
0000000245,0000016267,090021,014029,065497
0000000246,0000016333,090623,014305,064656
0000000247,0000016400,091213,014598,063811
0000000248,0000016467,091779,014923,062960
0000000249,0000016533,092332,015264,062106
0000000250,0000016600,092873,015620,061249
0000000251,0000016667,093388,016008,060388
0000000252,0000016733,093889,016410,059526
0000000253,0000016800,094376,016829,058662
0000000254,0000016867,094837,017277,057797
0000000255,0000016933,095283,017740,056932
0000000256,0000017000,095715,018217,056066
0000000257,0000017067,096119,018724,055201
0000000258,0000017133,096507,019244,054337
0000000259,0000017200,096882,019778,053474
0000000260,0000017267,097226,020339,052615
0000000261,0000017333,097555,020914,051758
0000000262,0000017400,097869,021502,050902
0000000263,0000017467,098152,022115,050053
0000000264,0000017533,098419,022741,049207
0000000265,0000017600,098671,023379,048365
0000000266,0000017667,098892,024041,047530
0000000267,0000017733,099096,024714,046700
0000000268,0000017800,099285,025399,045875
0000000269,0000017867,099441,026106,045061
0000000270,0000017933,099581,026823,044252
0000000271,0000018000,099706,027550,043449
0000000272,0000018067,099797,028298,042659
0000000273,0000018133,099872,029054,041875
0000000274,0000018200,099931,029821,041099
0000000275,0000018267,099957,030604,040338
0000000276,0000018333,099967,031397,039584
0000000277,0000018400,099960,032197,038839
0000000278,0000018467,099921,033013,038111
0000000279,0000018533,099865,033836,037392
0000000280,0000018600,099793,034666,036682
0000000281,0000018667,099688,035509,035991
0000000282,0000018733,099567,036359,035310
0000000283,0000018800,099430,037214,034639
0000000284,0000018867,099261,038080,033990
0000000285,0000018933,099075,038950,033351
0000000286,0000019000,098874,039826,032724
0000000287,0000019067,098641,040709,032119
0000000288,0000019133,098392,041596,031526
0000000289,0000019200,098127,042487,030945
0000000290,0000019267,097831,043383,030389
0000000291,0000019333,097521,044281,029846
0000000292,0000019400,097194,045182,029315
0000000293,0000019467,096838,046086,028810
0000000294,0000019533,096467,046990,028319
0000000295,0000019600,096081,047896,027841
0000000296,0000019667,095665,048802,027391
0000000297,0000019733,095236,049708,026955
0000000298,0000019800,094792,050613,026533
0000000299,0000019867,094321,051517,026139
0000000300,0000019933,093836,052419,025761
0000000301,0000020000,093337,053319,025397
0000000302,0000020067,092812,054215,025063
0000000303,0000020133,092274,055107,024744
0000000304,0000020200,091723,055997,024440
0000000305,0000020267,091147,056880,024167
0000000306,0000020333,090559,057758,023910
0000000307,0000020400,089959,058632,023668
0000000308,0000020467,089335,059497,023457
0000000309,0000020533,088701,060356,023263
0000000310,0000020600,088055,061210,023085
0000000311,0000020667,087388,062052,022938
0000000312,0000020733,086710,062887,022808
0000000313,0000020800,086023,063716,022694
0000000314,0000020867,085315,064530,022612
0000000315,0000020933,084599,065337,022546
0000000316,0000021000,083873,066135,022497
0000000317,0000021067,083129,066917,022480
0000000318,0000021133,082378,067690,022480
0000000319,0000021200,081618,068454,022496
0000000320,0000021267,080842,069199,022545
0000000321,0000021333,080060,069935,022610
0000000322,0000021400,079270,070660,022691
0000000323,0000021467,078468,071364,022804
0000000324,0000021533,077659,072057,022934
0000000325,0000021600,076844,072739,023080
0000000326,0000021667,076018,073399,023258
0000000327,0000021733,075188,074046,023452
0000000328,0000021800,074352,074681,023661
0000000329,0000021867,073509,075292,023903
0000000330,0000021933,072661,075890,024160
0000000331,0000022000,071810,076474,024432
0000000332,0000022067,070953,077033,024735
0000000333,0000022133,070093,077578,025053
0000000334,0000022200,069231,078109,025387
0000000335,0000022267,068365,078612,025750
0000000336,0000022333,067498,079100,026128
0000000337,0000022400,066630,079575,026521
0000000338,0000022467,065760,080019,026943
0000000339,0000022533,064891,080449,027378
0000000340,0000022600,064022,080864,027828
0000000341,0000022667,063154,081248,028305
0000000342,0000022733,062287,081617,028796
0000000343,0000022800,061421,081969,029300
0000000344,0000022867,060559,082291,029831
0000000345,0000022933,059700,082596,030374
0000000346,0000023000,058843,082885,030930
0000000347,0000023067,057992,083141,031510
0000000348,0000023133,057145,083381,032102
0000000349,0000023200,056302,083605,032707
0000000350,0000023267,055468,083795,033334
0000000351,0000023333,054638,083968,033972
0000000352,0000023400,053813,084125,034621
0000000353,0000023467,052999,084248,035291
0000000354,0000023533,052191,084354,035972
0000000355,0000023600,051389,084443,036662
0000000356,0000023667,050600,084498,037372
0000000357,0000023733,049819,084536,038091
0000000358,0000023800,049045,084557,038818
0000000359,0000023867,048286,084543,039563
0000000360,0000023933,047536,084513,040317
0000000361,0000024000,046793,084465,041078
0000000362,0000024067,046069,084384,041854
0000000363,0000024133,045353,084285,042637
0000000364,0000024200,044647,084170,043427
0000000365,0000024267,043961,084021,044230
0000000366,0000024333,043285,083855,045038
0000000367,0000024400,042619,083672,045853
0000000368,0000024467,041975,083455,046678
0000000369,0000024533,041342,083223,047507
0000000370,0000024600,040720,082974,048341
0000000371,0000024667,040122,082692,049184
0000000372,0000024733,039536,082394,050029
0000000373,0000024800,038962,082080,050879
0000000374,0000024867,038412,081734,051734
0000000375,0000024933,037876,081372,052591
0000000376,0000025000,037353,080995,053451
0000000377,0000025067,036856,080587,054313
0000000378,0000025133,036373,080164,055177
0000000379,0000025200,035903,079725,056042
0000000380,0000025267,035462,079257,056908
0000000381,0000025333,035034,078775,057773
0000000382,0000025400,034621,078278,058639
0000000383,0000025467,034237,077753,059502
0000000384,0000025533,033868,077215,060364
0000000385,0000025600,033514,076662,061225
0000000386,0000025667,033190,076083,062082
0000000387,0000025733,032881,075491,062936
0000000388,0000025800,032588,074886,063787
0000000389,0000025867,032325,074256,064632
0000000390,0000025933,032079,073614,065473
0000000391,0000026000,031848,072960,066311
0000000392,0000026067,031648,072283,067139
0000000393,0000026133,031465,071594,067962
0000000394,0000026200,031298,070895,068781
0000000395,0000026267,031163,070174,069588
0000000396,0000026333,031045,069444,070388
0000000397,0000026400,030942,068703,071183
0000000398,0000026467,030872,067943,071964
0000000399,0000026533,030819,067174,072738
0000000400,0000026600,030782,066396,073504
0000000401,0000026667,030778,065600,074255
0000000402,0000026733,030790,064798,074998
0000000403,0000026800,030818,063987,075732
0000000404,0000026867,030879,063161,076448
0000000405,0000026933,030957,062329,077155
0000000406,0000027000,031051,061490,077852
0000000407,0000027067,031177,060639,078529
0000000408,0000027133,031320,059782,079197
0000000409,0000027200,031479,058919,079853
0000000410,0000027267,031669,058047,080488
0000000411,0000027333,031876,057170,081112
0000000412,0000027400,032099,056289,081724
0000000413,0000027467,032353,055401,082313
0000000414,0000027533,032623,054510,082890
0000000415,0000027600,032908,053615,083454
0000000416,0000027667,033224,052716,083994
0000000417,0000027733,033556,051815,084520
0000000418,0000027800,033902,050912,085034
0000000419,0000027867,034278,050007,085521
0000000420,0000027933,034669,049101,085994
0000000421,0000028000,035075,048195,086453
0000000422,0000028067,035509,047289,086885
0000000423,0000028133,035957,046384,087302
0000000424,0000028200,036419,045480,087705
0000000425,0000028267,036909,044578,088079
0000000426,0000028333,037412,043679,088438
0000000427,0000028400,037929,042782,088782
0000000428,0000028467,038471,041890,089096
0000000429,0000028533,039026,041001,089394
0000000430,0000028600,039594,040116,089678
0000000431,0000028667,040186,039239,089930
0000000432,0000028733,040790,038366,090166
0000000433,0000028800,041405,037498,090387
0000000434,0000028867,042044,036641,090576
0000000435,0000028933,042693,035789,090750
0000000436,0000029000,043353,034943,090907
0000000437,0000029067,044034,034110,091032
0000000438,0000029133,044725,033284,091141
0000000439,0000029200,045426,032464,091233
0000000440,0000029267,046146,031661,091293
0000000441,0000029333,046875,030865,091337
0000000442,0000029400,047613,030077,091364
0000000443,0000029467,048367,029307,091359
0000000444,0000029533,049130,028546,091338
