DIgSILENT PowerFactory,20000410,2000
3,03A,00D
1,LOHL671-680:Phase Voltage A/Terminal i,,,kV,0.00010000000,-6.219200,0.000000,9689,99998,1,1,P
2,LOHL671-680:Phase Voltage B/Terminal i,,,kV,0.00010000000,-5.634446,0.000000,11520,99998,1,1,P
3,LOHL671-680:Phase Voltage C/Terminal i,,,kV,0.00010000000,-5.112466,0.000000,16877,99998,1,1,P
50
1
15000.000000,3001
21/11/2020,12:18:25.000000
21/11/2020,12:18:25.000000
ASCII
1.000000
0000000001,0000000000,088375,023351,055516
0000000002,0000000067,088889,023754,054689
0000000003,0000000133,089391,024173,053861
0000000004,0000000200,089880,024607,053031
0000000005,0000000267,090343,025071,052199
0000000006,0000000333,090792,025549,051367
0000000007,0000000400,091228,026043,050535
0000000008,0000000467,091636,026565,049703
0000000009,0000000533,092031,027101,048872
0000000010,0000000600,092411,027651,048042
0000000011,0000000667,092763,028228,047214
0000000012,0000000733,093100,028818,046389
0000000013,0000000800,093422,029421,045566
0000000014,0000000867,093716,030050,044748
0000000015,0000000933,093994,030691,043934
0000000016,0000001000,094257,031345,043122
0000000017,0000001067,094490,032022,042318
0000000018,0000001133,094707,032711,041519
0000000019,0000001200,094909,033411,040724
0000000020,0000001267,095080,034132,039938
0000000021,0000001333,095236,034864,039158
0000000022,0000001400,095375,035607,038384
0000000023,0000001467,095484,036369,037622
0000000024,0000001533,095576,037140,036866
0000000025,0000001600,095653,037921,036117
0000000026,0000001667,095698,038719,035382
0000000027,0000001733,095727,039525,034654
0000000028,0000001800,095740,040339,033935
0000000029,0000001867,095722,041169,033231
0000000030,0000001933,095687,042006,032537
0000000031,0000002000,095637,042849,031850
0000000032,0000002067,095555,043706,031183
0000000033,0000002133,095457,044568,030524
0000000034,0000002200,095343,045436,029876
0000000035,0000002267,095198,046314,029247
0000000036,0000002333,095038,047197,028629
0000000037,0000002400,094861,048084,028022
0000000038,0000002467,094654,048980,027436
0000000039,0000002533,094432,049878,026862
0000000040,0000002600,094194,050780,026299
0000000041,0000002667,093925,051687,025760
0000000042,0000002733,093642,052596,025233
0000000043,0000002800,093344,053507,024718
0000000044,0000002867,093017,054420,024228
0000000045,0000002933,092674,055335,023750
0000000046,0000003000,092318,056250,023286
0000000047,0000003067,091933,057165,022848
0000000048,0000003133,091534,058079,022424
0000000049,0000003200,091120,058993,022013
0000000050,0000003267,090680,059905,021630
0000000051,0000003333,090226,060814,021260
0000000052,0000003400,089759,061721,020905
0000000053,0000003467,089265,062624,020579
0000000054,0000003533,088759,063523,020267
0000000055,0000003600,088241,064419,019969
0000000056,0000003667,087697,065308,019701
0000000057,0000003733,087142,066192,019448
0000000058,0000003800,086574,067071,019210
0000000059,0000003867,085984,067940,019002
0000000060,0000003933,085382,068804,018810
0000000061,0000004000,084770,069662,018633
0000000062,0000004067,084136,070508,018486
0000000063,0000004133,083491,071346,018355
0000000064,0000004200,082837,072178,018240
0000000065,0000004267,082162,072994,018155
0000000066,0000004333,081479,073803,018086
0000000067,0000004400,080786,074603,018033
0000000068,0000004467,080075,075386,018012
0000000069,0000004533,079357,076160,018006
0000000070,0000004600,078630,076925,018015
0000000071,0000004667,077887,077671,018056
0000000072,0000004733,077137,078406,018113
0000000073,0000004800,076380,079130,018185
0000000074,0000004867,075609,079833,018289
0000000075,0000004933,074832,080525,018408
0000000076,0000005000,074049,081206,018542
0000000077,0000005067,073255,081863,018707
0000000078,0000005133,072456,082508,018888
0000000079,0000005200,071652,083140,019084
0000000080,0000005267,070838,083747,019311
0000000081,0000005333,070021,084341,019552
0000000082,0000005400,069200,084922,019808
0000000083,0000005467,068373,085476,020095
0000000084,0000005533,067542,086015,020395
0000000085,0000005600,066709,086541,020711
0000000086,0000005667,065872,087038,021055
0000000087,0000005733,065033,087521,021413
0000000088,0000005800,064192,087989,021786
0000000089,0000005867,063350,088427,022186
0000000090,0000005933,062507,088849,022600
0000000091,0000006000,061664,089257,023027
0000000092,0000006067,060822,089633,023482
0000000093,0000006133,059980,089993,023949
0000000094,0000006200,059139,090337,024429
0000000095,0000006267,058301,090650,024934
0000000096,0000006333,057465,090946,025452
0000000097,0000006400,056631,091225,025982
0000000098,0000006467,055803,091472,026536
0000000099,0000006533,054977,091701,027101
0000000100,0000006600,054155,091915,027678
0000000101,0000006667,053340,092094,028277
0000000102,0000006733,052530,092257,028887
0000000103,0000006800,051724,092402,029507
0000000104,0000006867,050928,092513,030148
0000000105,0000006933,050138,092608,030799
0000000106,0000007000,049353,092685,031459
0000000107,0000007067,048580,092727,032138
0000000108,0000007133,047814,092753,032826
0000000109,0000007200,047055,092761,033523
0000000110,0000007267,046309,092735,034236
0000000111,0000007333,045572,092691,034958
0000000112,0000007400,044842,092630,035687
0000000113,0000007467,044129,092535,036431
0000000114,0000007533,043425,092423,037181
0000000115,0000007600,042729,092294,037938
0000000116,0000007667,042051,092130,038708
0000000117,0000007733,041384,091950,039484
0000000118,0000007800,040726,091753,040265
0000000119,0000007867,040088,091522,041056
0000000120,0000007933,039461,091274,041852
0000000121,0000008000,038845,091010,042653
0000000122,0000008067,038251,090713,043462
0000000123,0000008133,037668,090400,044274
0000000124,0000008200,037097,090071,045089
0000000125,0000008267,036549,089710,045910
0000000126,0000008333,036014,089332,046734
0000000127,0000008400,035491,088940,047560
0000000128,0000008467,034993,088516,048389
0000000129,0000008533,034509,088077,049219
0000000130,0000008600,034037,087623,050051
0000000131,0000008667,033592,087140,050883
0000000132,0000008733,033161,086642,051715
0000000133,0000008800,032743,086129,052548
0000000134,0000008867,032353,085589,053379
0000000135,0000008933,031978,085034,054208
0000000136,0000009000,031616,084466,055037
0000000137,0000009067,031284,083871,055861
0000000138,0000009133,030966,083263,056683
0000000139,0000009200,030663,082643,057503
0000000140,0000009267,030390,081997,058317
0000000141,0000009333,030132,081340,059127
0000000142,0000009400,029889,080670,059934
0000000143,0000009467,029677,079978,060732
0000000144,0000009533,029480,079274,061525
0000000145,0000009600,029299,078560,062314
0000000146,0000009667,029149,077824,063092
0000000147,0000009733,029014,077078,063864
0000000148,0000009800,028895,076323,064631
0000000149,0000009867,028808,075548,065384
0000000150,0000009933,028737,074765,066131
0000000151,0000010000,028681,073972,066871
0000000152,0000010067,028657,073163,067596
0000000153,0000010133,028649,072346,068312
0000000154,0000010200,028657,071522,069021
0000000155,0000010267,028697,070683,069713
0000000156,0000010333,028753,069837,070396
0000000157,0000010400,028824,068985,071070
0000000158,0000010467,028927,068121,071725
0000000159,0000010533,029046,067251,072370
0000000160,0000010600,029181,066376,073005
0000000161,0000010667,029347,065492,073620
0000000162,0000010733,029528,064603,074224
0000000163,0000010800,029725,063711,074817
0000000164,0000010867,029952,062811,075387
0000000165,0000010933,030195,061908,075946
0000000166,0000011000,030453,061003,076493
0000000167,0000011067,030741,060093,077016
0000000168,0000011133,031044,059182,077527
0000000169,0000011200,031362,058269,078026
0000000170,0000011267,031709,057354,078499
0000000171,0000011333,032070,056439,078958
0000000172,0000011400,032446,055524,079405
0000000173,0000011467,032850,054610,079825
0000000174,0000011533,033268,053696,080231
0000000175,0000011600,033699,052784,080624
0000000176,0000011667,034158,051875,080989
0000000177,0000011733,034629,050968,081339
0000000178,0000011800,035114,050064,081675
0000000179,0000011867,035624,049165,081983
0000000180,0000011933,036147,048271,082275
0000000181,0000012000,036683,047379,082553
0000000182,0000012067,037242,046497,082801
0000000183,0000012133,037813,045619,083034
0000000184,0000012200,038396,044746,083252
0000000185,0000012267,039002,043884,083440
0000000186,0000012333,039618,043028,083612
0000000187,0000012400,040245,042179,083769
0000000188,0000012467,040893,041342,083895
0000000189,0000012533,041551,040513,084005
0000000190,0000012600,042219,039692,084100
0000000191,0000012667,042906,038886,084163
0000000192,0000012733,043601,038088,084211
0000000193,0000012800,044306,037299,084243
0000000194,0000012867,045028,036528,084244
0000000195,0000012933,045757,035767,084229
0000000196,0000013000,046495,035015,084199
0000000197,0000013067,047247,034283,084137
0000000198,0000013133,048007,033562,084059
0000000199,0000013200,048773,032852,083966
0000000200,0000013267,049552,032164,083842
0000000201,0000013333,050336,031487,083702
0000000202,0000013400,051127,030823,083547
0000000203,0000013467,051928,030182,083361
0000000204,0000013533,052734,029554,083160
0000000205,0000013600,053544,028938,082944
0000000206,0000013667,054363,028348,082697
0000000207,0000013733,055185,027772,082436
0000000208,0000013800,056010,027209,082160
0000000209,0000013867,056842,026674,081854
0000000210,0000013933,057676,026153,081534
0000000211,0000014000,058512,025646,081199
0000000212,0000014067,059351,025168,080836
0000000213,0000014133,060192,024705,080459
0000000214,0000014200,061034,024257,080068
0000000215,0000014267,061877,023840,079649
0000000216,0000014333,062720,023438,079217
0000000217,0000014400,063563,023051,078772
0000000218,0000014467,064404,022696,078300
0000000219,0000014533,065245,022357,077816
0000000220,0000014600,066084,022034,077319
0000000221,0000014667,066919,021743,076797
0000000222,0000014733,067752,021469,076263
0000000223,0000014800,068583,021211,075717
0000000224,0000014867,069407,020987,075148
0000000225,0000014933,070228,020779,074568
0000000226,0000015000,071045,020589,073976
0000000227,0000015067,071854,020432,073363
0000000228,0000015133,072658,020292,072739
0000000229,0000015200,073457,020169,072105
0000000230,0000015267,074246,020081,071451
0000000231,0000015333,075029,020009,070787
0000000232,0000015400,075806,019955,070114
0000000233,0000015467,076570,019936,069423
0000000234,0000015533,077327,019933,068724
0000000235,0000015600,078077,019948,068016
0000000236,0000015667,078812,019997,067292
0000000237,0000015733,079539,020064,066560
0000000238,0000015800,080257,020148,065821
0000000239,0000015867,080959,020266,065068
0000000240,0000015933,081652,020401,064309
0000000241,0000016000,082336,020553,063543
0000000242,0000016067,083000,020739,062766
0000000243,0000016133,083655,020942,061983
0000000244,0000016200,084299,021162,061195
0000000245,0000016267,084923,021415,060397
0000000246,0000016333,085535,021684,059595
0000000247,0000016400,086137,021970,058789
0000000248,0000016467,086716,022289,057976
0000000249,0000016533,087283,022624,057159
0000000250,0000016600,087839,022974,056340
0000000251,0000016667,088370,023357,055515
0000000252,0000016733,088889,023755,054689
0000000253,0000016800,089395,024168,053861
0000000254,0000016867,089876,024612,053030
0000000255,0000016933,090343,025071,052198
0000000256,0000017000,090797,025544,051366
0000000257,0000017067,091224,026047,050534
0000000258,0000017133,091637,026564,049702
0000000259,0000017200,092036,027096,048870
0000000260,0000017267,092407,027655,048041
0000000261,0000017333,092763,028227,047213
0000000262,0000017400,093105,028813,046387
0000000263,0000017467,093418,029425,045566
0000000264,0000017533,093716,030050,044747
0000000265,0000017600,093999,030687,043931
0000000266,0000017667,094252,031349,043122
0000000267,0000017733,094490,032022,042317
0000000268,0000017800,094712,032707,041516
0000000269,0000017867,094904,033415,040724
0000000270,0000017933,095080,034133,039937
0000000271,0000018000,095240,034861,039155
0000000272,0000018067,095370,035610,038385
0000000273,0000018133,095483,036369,037621
0000000274,0000018200,095581,037137,036863
0000000275,0000018267,095647,037924,036118
0000000276,0000018333,095697,038719,035381
0000000277,0000018400,095732,039523,034651
0000000278,0000018467,095734,040342,033937
0000000279,0000018533,095721,041169,033231
0000000280,0000018600,095692,042004,032533
0000000281,0000018667,095631,042852,031853
0000000282,0000018733,095554,043706,031182
0000000283,0000018800,095462,044566,030521
0000000284,0000018867,095338,045438,029879
0000000285,0000018933,095198,046314,029247
0000000286,0000019000,095043,047196,028626
0000000287,0000019067,094856,048086,028025
0000000288,0000019133,094654,048979,027436
0000000289,0000019200,094437,049877,026858
0000000290,0000019267,094189,050780,026303
0000000291,0000019333,093926,051687,025760
0000000292,0000019400,093648,052595,025229
0000000293,0000019467,093340,053507,024722
0000000294,0000019533,093017,054420,024228
0000000295,0000019600,092680,055334,023746
0000000296,0000019667,092314,056250,023291
0000000297,0000019733,091933,057165,022848
0000000298,0000019800,091539,058080,022420
0000000299,0000019867,091116,058993,022018
0000000300,0000019933,090680,059905,021630
0000000301,0000020000,090231,060815,021256
0000000302,0000020067,089755,061721,020910
0000000303,0000020133,089266,062624,020579
0000000304,0000020200,088764,063525,020262
0000000305,0000020267,088237,064418,019974
0000000306,0000020333,087697,065308,019701
0000000307,0000020400,087146,066194,019443
0000000308,0000020467,086571,067070,019215
0000000309,0000020533,085984,067941,019002
0000000310,0000020600,085386,068807,018805
0000000311,0000020667,084766,069661,018638
0000000312,0000020733,084135,070508,018486
0000000313,0000020800,083494,071349,018350
0000000314,0000020867,082833,072176,018245
0000000315,0000020933,082162,072995,018155
0000000316,0000021000,081481,073806,018081
0000000317,0000021067,080783,074601,018038
0000000318,0000021133,080075,075387,018011
0000000319,0000021200,079359,076164,018000
0000000320,0000021267,078627,076922,018020
0000000321,0000021333,077887,077671,018056
0000000322,0000021400,077139,078409,018107
0000000323,0000021467,076377,079127,018190
0000000324,0000021533,075609,079833,018288
0000000325,0000021600,074834,080529,018402
0000000326,0000021667,074048,081202,018547
0000000327,0000021733,073255,081862,018707
0000000328,0000021800,072458,082511,018883
0000000329,0000021867,071650,083135,019089
0000000330,0000021933,070839,083747,019310
0000000331,0000022000,070023,084345,019547
0000000332,0000022067,069199,084917,019813
0000000333,0000022133,068373,085475,020094
0000000334,0000022200,067543,086020,020390
0000000335,0000022267,066708,086536,020715
0000000336,0000022333,065872,087038,021055
0000000337,0000022400,065033,087526,021408
0000000338,0000022467,064192,087984,021790
0000000339,0000022533,063350,088427,022186
0000000340,0000022600,062507,088854,022595
0000000341,0000022667,061664,089251,023032
0000000342,0000022733,060822,089633,023482
0000000343,0000022800,059979,089998,023944
0000000344,0000022867,059139,090332,024433
0000000345,0000022933,058301,090650,024934
0000000346,0000023000,057464,090951,025448
0000000347,0000023067,056632,091220,025986
0000000348,0000023133,055802,091472,026536
0000000349,0000023200,054976,091707,027097
0000000350,0000023267,054156,091909,027682
0000000351,0000023333,053340,092095,028277
0000000352,0000023400,052528,092263,028883
0000000353,0000023467,051726,092397,029511
0000000354,0000023533,050928,092514,030148
0000000355,0000023600,050136,092614,030796
0000000356,0000023667,049355,092679,031462
0000000357,0000023733,048580,092728,032138
0000000358,0000023800,047812,092759,032823
0000000359,0000023867,047057,092756,033526
0000000360,0000023933,046310,092735,034236
0000000361,0000024000,045570,092697,034955
0000000362,0000024067,044845,092625,035689
0000000363,0000024133,044129,092535,036431
0000000364,0000024200,043422,092429,037179
0000000365,0000024267,042732,092288,037940
0000000366,0000024333,042052,092130,038708
0000000367,0000024400,041381,091955,039482
0000000368,0000024467,040729,091747,040267
0000000369,0000024533,040088,091522,041056
0000000370,0000024600,039458,091280,041851
0000000371,0000024667,038849,091004,042654
0000000372,0000024733,038251,090713,043462
0000000373,0000024800,037664,090405,044273
0000000374,0000024867,037101,090065,045090
0000000375,0000024933,036549,089709,045910
0000000376,0000025000,036010,089337,046733
0000000377,0000025067,035495,088934,047560
0000000378,0000025133,034993,088516,048389
0000000379,0000025200,034504,088082,049219
0000000380,0000025267,034041,087618,050051
0000000381,0000025333,033592,087140,050883
0000000382,0000025400,033156,086646,051716
0000000383,0000025467,032747,086125,052547
0000000384,0000025533,032353,085589,053378
0000000385,0000025600,031973,085039,054209
0000000386,0000025667,031621,084462,055036
0000000387,0000025733,031284,083871,055861
0000000388,0000025800,030961,083268,056684
0000000389,0000025867,030668,082639,057502
0000000390,0000025933,030390,081998,058317
0000000391,0000026000,030127,081344,059128
0000000392,0000026067,029894,080667,059932
0000000393,0000026133,029677,079978,060732
0000000394,0000026200,029475,079278,061527
0000000395,0000026267,029304,078556,062312
0000000396,0000026333,029149,077824,063092
0000000397,0000026400,029009,077082,063866
0000000398,0000026467,028901,076320,064629
0000000399,0000026533,028808,075548,065384
0000000400,0000026600,028732,074768,066133
0000000401,0000026667,028687,073970,066868
0000000402,0000026733,028658,073163,067595
0000000403,0000026800,028644,072349,068315
0000000404,0000026867,028663,071519,069018
0000000405,0000026933,028697,070683,069713
0000000406,0000027000,028748,069839,070399
0000000407,0000027067,028830,068983,071067
0000000408,0000027133,028927,068121,071725
0000000409,0000027200,029041,067253,072374
0000000410,0000027267,029186,066375,073002
0000000411,0000027333,029347,065492,073620
0000000412,0000027400,029523,064605,074228
0000000413,0000027467,029730,063709,074813
0000000414,0000027533,029952,062811,075387
0000000415,0000027600,030190,061909,075950
0000000416,0000027667,030458,061002,076489
0000000417,0000027733,030741,060093,077016
0000000418,0000027800,031039,059182,077532
0000000419,0000027867,031367,058269,078022
0000000420,0000027933,031709,057354,078499
0000000421,0000028000,032066,056439,078963
0000000422,0000028067,032451,055524,079401
0000000423,0000028133,032850,054610,079825
0000000424,0000028200,033263,053696,080236
0000000425,0000028267,033704,052784,080620
0000000426,0000028333,034157,051875,080989
0000000427,0000028400,034625,050967,081344
0000000428,0000028467,035118,050065,081671
0000000429,0000028533,035624,049166,081983
0000000430,0000028600,036143,048269,082280
0000000431,0000028667,036687,047381,082548
0000000432,0000028733,037242,046497,082801
0000000433,0000028800,037810,045617,083039
0000000434,0000028867,038400,044748,083247
0000000435,0000028933,039002,043884,083440
0000000436,0000029000,039615,043026,083617
0000000437,0000029067,040249,042181,083763
0000000438,0000029133,040893,041342,083894
0000000439,0000029200,041548,040511,084010
0000000440,0000029267,042222,039694,084094
0000000441,0000029333,042906,038886,084163
0000000442,0000029400,043598,038085,084216
0000000443,0000029467,044309,037302,084238
0000000444,0000029533,045028,036528,084244
