DIgSILENT PowerFactory,20000410,2000
2,02A,00D
1,LC684-652A:Phase Voltage A/Terminal i,,,kV,0.00010000000,-5.673738,0.000000,22395,99998,1,1,P
2,LC684-652A:Phase Voltage C/Terminal i,,,kV,0.00010000000,-5.975219,0.000000,17627,99998,1,1,P
50
1
15000.000000,3001
21/11/2020,12:03:40.000000
21/11/2020,12:03:40.000000
ASCII
1.000000
0000000001,0000000000,082864,064196
0000000002,0000000067,083377,063371
0000000003,0000000133,083878,062544
0000000004,0000000200,084367,061716
0000000005,0000000267,084829,060886
0000000006,0000000333,085278,060056
0000000007,0000000400,085713,059225
0000000008,0000000467,086121,058395
0000000009,0000000533,086515,057566
0000000010,0000000600,086895,056738
0000000011,0000000667,087246,055912
0000000012,0000000733,087583,055088
0000000013,0000000800,087906,054267
0000000014,0000000867,088199,053450
0000000015,0000000933,088477,052637
0000000016,0000001000,088740,051827
0000000017,0000001067,088972,051025
0000000018,0000001133,089190,050226
0000000019,0000001200,089392,049433
0000000020,0000001267,089563,048648
0000000021,0000001333,089718,047870
0000000022,0000001400,089858,047096
0000000023,0000001467,089967,046335
0000000024,0000001533,090059,045580
0000000025,0000001600,090136,044832
0000000026,0000001667,090182,044098
0000000027,0000001733,090211,043371
0000000028,0000001800,090225,042652
0000000029,0000001867,090206,041950
0000000030,0000001933,090172,041256
0000000031,0000002000,090122,040570
0000000032,0000002067,090041,039903
0000000033,0000002133,089944,039245
0000000034,0000002200,089830,038597
0000000035,0000002267,089686,037969
0000000036,0000002333,089526,037351
0000000037,0000002400,089350,036744
0000000038,0000002467,089144,036158
0000000039,0000002533,088922,035584
0000000040,0000002600,088685,035021
0000000041,0000002667,088417,034482
0000000042,0000002733,088135,033955
0000000043,0000002800,087838,033440
0000000044,0000002867,087511,032949
0000000045,0000002933,087170,032472
0000000046,0000003000,086814,032007
0000000047,0000003067,086430,031569
0000000048,0000003133,086032,031144
0000000049,0000003200,085620,030733
0000000050,0000003267,085181,030349
0000000051,0000003333,084728,029979
0000000052,0000003400,084262,029623
0000000053,0000003467,083770,029296
0000000054,0000003533,083265,028983
0000000055,0000003600,082747,028685
0000000056,0000003667,082205,028416
0000000057,0000003733,081651,028162
0000000058,0000003800,081085,027923
0000000059,0000003867,080496,027714
0000000060,0000003933,079896,027521
0000000061,0000004000,079284,027342
0000000062,0000004067,078651,027195
0000000063,0000004133,078009,027062
0000000064,0000004200,077355,026945
0000000065,0000004267,076683,026860
0000000066,0000004333,076000,026790
0000000067,0000004400,075309,026735
0000000068,0000004467,074600,026712
0000000069,0000004533,073883,026704
0000000070,0000004600,073157,026712
0000000071,0000004667,072416,026752
0000000072,0000004733,071668,026806
0000000073,0000004800,070912,026877
0000000074,0000004867,070143,026979
0000000075,0000004933,069368,027096
0000000076,0000005000,068586,027229
0000000077,0000005067,067794,027392
0000000078,0000005133,066996,027571
0000000079,0000005200,066193,027765
0000000080,0000005267,065382,027990
0000000081,0000005333,064566,028229
0000000082,0000005400,063747,028483
0000000083,0000005467,062921,028767
0000000084,0000005533,062092,029066
0000000085,0000005600,061260,029379
0000000086,0000005667,060424,029721
0000000087,0000005733,059587,030077
0000000088,0000005800,058748,030448
0000000089,0000005867,057907,030846
0000000090,0000005933,057066,031257
0000000091,0000006000,056225,031683
0000000092,0000006067,055384,032135
0000000093,0000006133,054543,032599
0000000094,0000006200,053704,033077
0000000095,0000006267,052868,033580
0000000096,0000006333,052033,034096
0000000097,0000006400,051201,034623
0000000098,0000006467,050373,035175
0000000099,0000006533,049549,035738
0000000100,0000006600,048729,036312
0000000101,0000006667,047915,036909
0000000102,0000006733,047107,037516
0000000103,0000006800,046302,038134
0000000104,0000006867,045508,038773
0000000105,0000006933,044718,039421
0000000106,0000007000,043935,040079
0000000107,0000007067,043163,040756
0000000108,0000007133,042398,041441
0000000109,0000007200,041640,042136
0000000110,0000007267,040896,042847
0000000111,0000007333,040160,043566
0000000112,0000007400,039431,044293
0000000113,0000007467,038719,045034
0000000114,0000007533,038016,045782
0000000115,0000007600,037321,046537
0000000116,0000007667,036645,047305
0000000117,0000007733,035978,048078
0000000118,0000007800,035321,048857
0000000119,0000007867,034685,049646
0000000120,0000007933,034058,050440
0000000121,0000008000,033443,051239
0000000122,0000008067,032850,052045
0000000123,0000008133,032268,052855
0000000124,0000008200,031697,053669
0000000125,0000008267,031150,054488
0000000126,0000008333,030616,055309
0000000127,0000008400,030094,056133
0000000128,0000008467,029597,056961
0000000129,0000008533,029113,057789
0000000130,0000008600,028642,058618
0000000131,0000008667,028197,059449
0000000132,0000008733,027766,060280
0000000133,0000008800,027349,061110
0000000134,0000008867,026960,061939
0000000135,0000008933,026584,062767
0000000136,0000009000,026223,063594
0000000137,0000009067,025891,064417
0000000138,0000009133,025574,065238
0000000139,0000009200,025271,066056
0000000140,0000009267,024998,066868
0000000141,0000009333,024740,067677
0000000142,0000009400,024498,068482
0000000143,0000009467,024285,069279
0000000144,0000009533,024089,070071
0000000145,0000009600,023907,070859
0000000146,0000009667,023757,071636
0000000147,0000009733,023622,072407
0000000148,0000009800,023503,073172
0000000149,0000009867,023416,073925
0000000150,0000009933,023344,074671
0000000151,0000010000,023288,075410
0000000152,0000010067,023264,076134
0000000153,0000010133,023256,076850
0000000154,0000010200,023264,077558
0000000155,0000010267,023303,078249
0000000156,0000010333,023358,078932
0000000157,0000010400,023429,079605
0000000158,0000010467,023532,080260
0000000159,0000010533,023650,080904
0000000160,0000010600,023784,081539
0000000161,0000010667,023949,082153
0000000162,0000010733,024130,082757
0000000163,0000010800,024326,083350
0000000164,0000010867,024553,083920
0000000165,0000010933,024795,084479
0000000166,0000011000,025052,085026
0000000167,0000011067,025339,085549
0000000168,0000011133,025641,086060
0000000169,0000011200,025958,086559
0000000170,0000011267,026304,087032
0000000171,0000011333,026665,087492
0000000172,0000011400,027039,087939
0000000173,0000011467,027442,088360
0000000174,0000011533,027859,088767
0000000175,0000011600,028289,089160
0000000176,0000011667,028746,089525
0000000177,0000011733,029217,089876
0000000178,0000011800,029701,090213
0000000179,0000011867,030210,090521
0000000180,0000011933,030731,090814
0000000181,0000012000,031266,091093
0000000182,0000012067,031824,091342
0000000183,0000012133,032394,091576
0000000184,0000012200,032975,091795
0000000185,0000012267,033579,091984
0000000186,0000012333,034194,092157
0000000187,0000012400,034820,092315
0000000188,0000012467,035467,092443
0000000189,0000012533,036123,092554
0000000190,0000012600,036789,092650
0000000191,0000012667,037475,092715
0000000192,0000012733,038169,092765
0000000193,0000012800,038872,092798
0000000194,0000012867,039592,092801
0000000195,0000012933,040320,092787
0000000196,0000013000,041056,092759
0000000197,0000013067,041807,092698
0000000198,0000013133,042565,092623
0000000199,0000013200,043330,092531
0000000200,0000013267,044107,092409
0000000201,0000013333,044890,092271
0000000202,0000013400,045679,092118
0000000203,0000013467,046479,091934
0000000204,0000013533,047283,091734
0000000205,0000013600,048092,091520
0000000206,0000013667,048909,091276
0000000207,0000013733,049729,091016
0000000208,0000013800,050553,090742
0000000209,0000013867,051383,090438
0000000210,0000013933,052215,090120
0000000211,0000014000,053050,089788
0000000212,0000014067,053888,089427
0000000213,0000014133,054727,089052
0000000214,0000014200,055567,088663
0000000215,0000014267,056409,088247
0000000216,0000014333,057250,087817
0000000217,0000014400,058091,087374
0000000218,0000014467,058932,086905
0000000219,0000014533,059770,086423
0000000220,0000014600,060608,085928
0000000221,0000014667,061442,085409
0000000222,0000014733,062273,084877
0000000223,0000014800,063102,084333
0000000224,0000014867,063925,083767
0000000225,0000014933,064745,083188
0000000226,0000015000,065561,082599
0000000227,0000015067,066368,081988
0000000228,0000015133,067171,081367
0000000229,0000015200,067969,080735
0000000230,0000015267,068756,080083
0000000231,0000015333,069538,079422
0000000232,0000015400,070313,078752
0000000233,0000015467,071076,078063
0000000234,0000015533,071832,077366
0000000235,0000015600,072581,076660
0000000236,0000015667,073314,075938
0000000237,0000015733,074040,075209
0000000238,0000015800,074758,074473
0000000239,0000015867,075459,073722
0000000240,0000015933,076150,072965
0000000241,0000016000,076833,072202
0000000242,0000016067,077496,071426
0000000243,0000016133,078150,070646
0000000244,0000016200,078794,069860
0000000245,0000016267,079416,069064
0000000246,0000016333,080028,068264
0000000247,0000016400,080629,067460
0000000248,0000016467,081207,066649
0000000249,0000016533,081774,065835
0000000250,0000016600,082328,065017
0000000251,0000016667,082859,064195
0000000252,0000016733,083377,063371
0000000253,0000016800,083883,062544
0000000254,0000016867,084362,061715
0000000255,0000016933,084829,060886
0000000256,0000017000,085282,060055
0000000257,0000017067,085709,059225
0000000258,0000017133,086121,058395
0000000259,0000017200,086520,057565
0000000260,0000017267,086891,056737
0000000261,0000017333,087247,055911
0000000262,0000017400,087589,055087
0000000263,0000017467,087901,054267
0000000264,0000017533,088199,053449
0000000265,0000017600,088482,052635
0000000266,0000017667,088735,051827
0000000267,0000017733,088972,051024
0000000268,0000017800,089195,050224
0000000269,0000017867,089386,049433
0000000270,0000017933,089562,048647
0000000271,0000018000,089723,047867
0000000272,0000018067,089852,047097
0000000273,0000018133,089966,046334
0000000274,0000018200,090064,045577
0000000275,0000018267,090130,044834
0000000276,0000018333,090181,044097
0000000277,0000018400,090215,043368
0000000278,0000018467,090218,042655
0000000279,0000018533,090206,041949
0000000280,0000018600,090177,041252
0000000281,0000018667,090116,040573
0000000282,0000018733,090040,039903
0000000283,0000018800,089948,039242
0000000284,0000018867,089825,038600
0000000285,0000018933,089686,037969
0000000286,0000019000,089531,037347
0000000287,0000019067,089345,036747
0000000288,0000019133,089144,036158
0000000289,0000019200,088927,035580
0000000290,0000019267,088680,035025
0000000291,0000019333,088418,034482
0000000292,0000019400,088140,033951
0000000293,0000019467,087833,033444
0000000294,0000019533,087512,032950
0000000295,0000019600,087175,032468
0000000296,0000019667,086810,032012
0000000297,0000019733,086431,031569
0000000298,0000019800,086037,031140
0000000299,0000019867,085616,030738
0000000300,0000019933,085181,030349
0000000301,0000020000,084733,029975
0000000302,0000020067,084258,029628
0000000303,0000020133,083770,029296
0000000304,0000020200,083269,028978
0000000305,0000020267,082743,028690
0000000306,0000020333,082205,028416
0000000307,0000020400,081655,028157
0000000308,0000020467,081081,027928
0000000309,0000020533,080496,027714
0000000310,0000020600,079899,027515
0000000311,0000020667,079280,027347
0000000312,0000020733,078651,027194
0000000313,0000020800,078012,027057
0000000314,0000020867,077352,026950
0000000315,0000020933,076682,026859
0000000316,0000021000,076003,026784
0000000317,0000021067,075306,026740
0000000318,0000021133,074600,026711
0000000319,0000021200,073885,026699
0000000320,0000021267,073154,026717
0000000321,0000021333,072416,026751
0000000322,0000021400,071670,026801
0000000323,0000021467,070910,026882
0000000324,0000021533,070143,026979
0000000325,0000021600,069370,027091
0000000326,0000021667,068584,027234
0000000327,0000021733,067794,027392
0000000328,0000021800,066998,027566
0000000329,0000021867,066192,027770
0000000330,0000021933,065382,027989
0000000331,0000022000,064567,028224
0000000332,0000022067,063746,028488
0000000333,0000022133,062921,028767
0000000334,0000022200,062093,029061
0000000335,0000022267,061260,029384
0000000336,0000022333,060425,029721
0000000337,0000022400,059588,030073
0000000338,0000022467,058748,030452
0000000339,0000022533,057907,030846
0000000340,0000022600,057066,031253
0000000341,0000022667,056225,031687
0000000342,0000022733,055384,032134
0000000343,0000022800,054543,032595
0000000344,0000022867,053704,033081
0000000345,0000022933,052867,033580
0000000346,0000023000,052032,034092
0000000347,0000023067,051201,034627
0000000348,0000023133,050373,035175
0000000349,0000023200,049548,035734
0000000350,0000023267,048730,036316
0000000351,0000023333,047915,036909
0000000352,0000023400,047105,037513
0000000353,0000023467,046304,038138
0000000354,0000023533,045508,038773
0000000355,0000023600,044716,039418
0000000356,0000023667,043937,040082
0000000357,0000023733,043163,040756
0000000358,0000023800,042396,041439
0000000359,0000023867,041643,042139
0000000360,0000023933,040897,042847
0000000361,0000024000,040158,043563
0000000362,0000024067,039434,044295
0000000363,0000024133,038720,045034
0000000364,0000024200,038013,045780
0000000365,0000024267,037324,046539
0000000366,0000024333,036645,047305
0000000367,0000024400,035975,048076
0000000368,0000024467,035325,048859
0000000369,0000024533,034685,049646
0000000370,0000024600,034055,050439
0000000371,0000024667,033447,051240
0000000372,0000024733,032850,052045
0000000373,0000024800,032264,052854
0000000374,0000024867,031701,053670
0000000375,0000024933,031150,054488
0000000376,0000025000,030612,055309
0000000377,0000025067,030098,056134
0000000378,0000025133,029597,056961
0000000379,0000025200,029108,057789
0000000380,0000025267,028646,058619
0000000381,0000025333,028197,059449
0000000382,0000025400,027761,060280
0000000383,0000025467,027353,061110
0000000384,0000025533,026959,061939
0000000385,0000025600,026579,062768
0000000386,0000025667,026228,063593
0000000387,0000025733,025891,064417
0000000388,0000025800,025569,065239
0000000389,0000025867,025276,066055
0000000390,0000025933,024998,066868
0000000391,0000026000,024735,067678
0000000392,0000026067,024503,068481
0000000393,0000026133,024285,069279
0000000394,0000026200,024083,070073
0000000395,0000026267,023912,070857
0000000396,0000026333,023757,071636
0000000397,0000026400,023617,072409
0000000398,0000026467,023509,073170
0000000399,0000026533,023416,073925
0000000400,0000026600,023339,074673
0000000401,0000026667,023294,075407
0000000402,0000026733,023265,076134
0000000403,0000026800,023251,076852
0000000404,0000026867,023269,077555
0000000405,0000026933,023303,078249
0000000406,0000027000,023353,078935
0000000407,0000027067,023435,079602
0000000408,0000027133,023532,080260
0000000409,0000027200,023645,080908
0000000410,0000027267,023789,081536
0000000411,0000027333,023949,082154
0000000412,0000027400,024125,082761
0000000413,0000027467,024331,083346
0000000414,0000027533,024553,083920
0000000415,0000027600,024790,084483
0000000416,0000027667,025057,085022
0000000417,0000027733,025339,085549
0000000418,0000027800,025636,086065
0000000419,0000027867,025963,086555
0000000420,0000027933,026304,087032
0000000421,0000028000,026660,087497
0000000422,0000028067,027044,087935
0000000423,0000028133,027442,088360
0000000424,0000028200,027854,088771
0000000425,0000028267,028294,089155
0000000426,0000028333,028746,089525
0000000427,0000028400,029212,089881
0000000428,0000028467,029705,090208
0000000429,0000028533,030210,090521
0000000430,0000028600,030727,090819
0000000431,0000028667,031270,091088
0000000432,0000028733,031824,091342
0000000433,0000028800,032390,091581
0000000434,0000028867,032979,091790
0000000435,0000028933,033579,091984
0000000436,0000029000,034191,092162
0000000437,0000029067,034824,092310
0000000438,0000029133,035467,092442
0000000439,0000029200,036120,092559
0000000440,0000029267,036793,092645
0000000441,0000029333,037475,092715
0000000442,0000029400,038166,092770
0000000443,0000029467,038875,092793
0000000444,0000029533,039592,092801
0000000445,0000029600,040318,092793
0000000446,0000029667,041059,092753
0000000447,0000029733,041807,092698
0000000448,0000029800,042563,092628
0000000449,0000029867,043332,092526
0000000450,0000029933,044107,092409
0000000451,0000030000,044888,092276
0000000452,0000030067,045681,092112
0000000453,0000030133,046479,091934
0000000454,0000030200,047281,091739
0000000455,0000030267,048093,091515
0000000456,0000030333,048909,091276
0000000457,0000030400,049728,091021
0000000458,0000030467,050554,090737
0000000459,0000030533,051383,090439
0000000460,0000030600,052214,090125
0000000461,0000030667,053050,089783
0000000462,0000030733,053888,089427
0000000463,0000030800,054727,089057
0000000464,0000030867,055567,088659
0000000465,0000030933,056409,088247
0000000466,0000031000,057250,087822
0000000467,0000031067,058091,087370
0000000468,0000031133,058931,086905
0000000469,0000031200,059771,086427
0000000470,0000031267,060607,085924
0000000471,0000031333,061442,085409
0000000472,0000031400,062274,084881
0000000473,0000031467,063102,084330
0000000474,0000031533,063926,083767
0000000475,0000031600,064746,083192
0000000476,0000031667,065559,082596
0000000477,0000031733,066368,081988
0000000478,0000031800,067173,081370
0000000479,0000031867,067967,080732
0000000480,0000031933,068756,080083
0000000481,0000032000,069540,079425
0000000482,0000032067,070311,078748
0000000483,0000032133,071076,078063
0000000484,0000032200,071834,077369
0000000485,0000032267,072578,076657
0000000486,0000032333,073314,075938
0000000487,0000032400,074043,075212
0000000488,0000032467,074755,074470
0000000489,0000032533,075459,073722
0000000490,0000032600,076153,072967
0000000491,0000032667,076830,072200
0000000492,0000032733,077496,071426
0000000493,0000032800,078153,070647
0000000494,0000032867,078790,069858
0000000495,0000032933,079416,069064
0000000496,0000033000,080032,068266
0000000497,0000033067,080625,067459
0000000498,0000033133,081207,066649
0000000499,0000033200,081778,065836
0000000500,0000033267,082324,065016
0000000501,0000033333,082859,064195
0000000502,0000033400,083381,063371
0000000503,0000033467,083878,062544
0000000504,0000033533,084362,061715
0000000505,0000033600,084833,060886
0000000506,0000033667,085278,060055
0000000507,0000033733,085709,059225
0000000508,0000033800,086126,058394
0000000509,0000033867,086515,057565
0000000510,0000033933,086891,056737
0000000511,0000034000,087252,055910
0000000512,0000034067,087584,055087
0000000513,0000034133,087901,054267
0000000514,0000034200,088204,053448
0000000515,0000034267,088477,052636
0000000516,0000034333,088735,051827
0000000517,0000034400,088977,051022
0000000518,0000034467,089189,050225
0000000519,0000034533,089386,049433
0000000520,0000034600,089568,048646
0000000521,0000034667,089718,047869
0000000522,0000034733,089852,047097
0000000523,0000034800,089971,046332
0000000524,0000034867,090059,045579
0000000525,0000034933,090130,044834
0000000526,0000035000,090186,044095
0000000527,0000035067,090210,043371
0000000528,0000035133,090218,042655
0000000529,0000035200,090211,041947
0000000530,0000035267,090172,041255
0000000531,0000035333,090116,040573
