DIgSILENT PowerFactory,20000410,2000
2,02A,00D
1,LOHL684-611:Phase Voltage A/Terminal i,,,kV,0.00010000000,-6.058069,0.000000,20260,99998,1,1,P
2,LOHL684-611:Phase Voltage C/Terminal i,,,kV,0.00010000000,-6.401462,0.000000,17198,99998,1,1,P
50
1
15000.000000,3001
21/11/2020,11:57:14.000000
21/11/2020,11:57:14.000000
ASCII
1.000000
0000000001,0000000000,086707,068458
0000000002,0000000067,087221,067633
0000000003,0000000133,087722,066807
0000000004,0000000200,088210,065979
0000000005,0000000267,088672,065149
0000000006,0000000333,089121,064318
0000000007,0000000400,089556,063488
0000000008,0000000467,089964,062658
0000000009,0000000533,090358,061828
0000000010,0000000600,090738,061000
0000000011,0000000667,091090,060174
0000000012,0000000733,091427,059351
0000000013,0000000800,091749,058529
0000000014,0000000867,092042,057713
0000000015,0000000933,092320,056900
0000000016,0000001000,092583,056090
0000000017,0000001067,092815,055287
0000000018,0000001133,093033,054489
0000000019,0000001200,093235,053695
0000000020,0000001267,093406,052911
0000000021,0000001333,093561,052132
0000000022,0000001400,093701,051359
0000000023,0000001467,093810,050597
0000000024,0000001533,093903,049843
0000000025,0000001600,093980,049094
0000000026,0000001667,094025,048360
0000000027,0000001733,094054,047634
0000000028,0000001800,094068,046915
0000000029,0000001867,094050,046212
0000000030,0000001933,094016,045518
0000000031,0000002000,093966,044832
0000000032,0000002067,093884,044165
0000000033,0000002133,093787,043507
0000000034,0000002200,093674,042859
0000000035,0000002267,093529,042231
0000000036,0000002333,093369,041613
0000000037,0000002400,093194,041006
0000000038,0000002467,092987,040421
0000000039,0000002533,092765,039846
0000000040,0000002600,092528,039284
0000000041,0000002667,092261,038744
0000000042,0000002733,091978,038217
0000000043,0000002800,091681,037702
0000000044,0000002867,091355,037212
0000000045,0000002933,091013,036734
0000000046,0000003000,090658,036270
0000000047,0000003067,090274,035832
0000000048,0000003133,089875,035407
0000000049,0000003200,089463,034995
0000000050,0000003267,089024,034611
0000000051,0000003333,088571,034242
0000000052,0000003400,088105,033886
0000000053,0000003467,087613,033559
0000000054,0000003533,087108,033246
0000000055,0000003600,086591,032947
0000000056,0000003667,086048,032679
0000000057,0000003733,085494,032425
0000000058,0000003800,084928,032186
0000000059,0000003867,084339,031977
0000000060,0000003933,083739,031783
0000000061,0000004000,083128,031605
0000000062,0000004067,082495,031457
0000000063,0000004133,081852,031325
0000000064,0000004200,081199,031208
0000000065,0000004267,080526,031122
0000000066,0000004333,079844,031052
0000000067,0000004400,079152,030997
0000000068,0000004467,078443,030974
0000000069,0000004533,077726,030967
0000000070,0000004600,077001,030975
0000000071,0000004667,076259,031014
0000000072,0000004733,075511,031069
0000000073,0000004800,074755,031139
0000000074,0000004867,073986,031241
0000000075,0000004933,073211,031358
0000000076,0000005000,072430,031491
0000000077,0000005067,071637,031655
0000000078,0000005133,070839,031833
0000000079,0000005200,070037,032028
0000000080,0000005267,069225,032252
0000000081,0000005333,068409,032491
0000000082,0000005400,067590,032746
0000000083,0000005467,066764,033030
0000000084,0000005533,065935,033328
0000000085,0000005600,065104,033642
0000000086,0000005667,064268,033984
0000000087,0000005733,063430,034340
0000000088,0000005800,062591,034710
0000000089,0000005867,061751,035108
0000000090,0000005933,060909,035520
0000000091,0000006000,060068,035945
0000000092,0000006067,059227,036397
0000000093,0000006133,058387,036862
0000000094,0000006200,057547,037340
0000000095,0000006267,056711,037843
0000000096,0000006333,055876,038358
0000000097,0000006400,055044,038886
0000000098,0000006467,054217,039437
0000000099,0000006533,053393,040000
0000000100,0000006600,052572,040575
0000000101,0000006667,051759,041171
0000000102,0000006733,050950,041779
0000000103,0000006800,050145,042397
0000000104,0000006867,049351,043035
0000000105,0000006933,048562,043684
0000000106,0000007000,047778,044342
0000000107,0000007067,047007,045018
0000000108,0000007133,046242,045704
0000000109,0000007200,045484,046398
0000000110,0000007267,044740,047109
0000000111,0000007333,044003,047828
0000000112,0000007400,043275,048555
0000000113,0000007467,042563,049297
0000000114,0000007533,041859,050045
0000000115,0000007600,041164,050800
0000000116,0000007667,040488,051567
0000000117,0000007733,039821,052341
0000000118,0000007800,039164,053119
0000000119,0000007867,038528,053909
0000000120,0000007933,037902,054703
0000000121,0000008000,037286,055501
0000000122,0000008067,036693,056308
0000000123,0000008133,036111,057118
0000000124,0000008200,035541,057931
0000000125,0000008267,034994,058750
0000000126,0000008333,034459,059572
0000000127,0000008400,033937,060396
0000000128,0000008467,033440,061223
0000000129,0000008533,032956,062051
0000000130,0000008600,032485,062881
0000000131,0000008667,032040,063711
0000000132,0000008733,031610,064542
0000000133,0000008800,031192,065373
0000000134,0000008867,030803,066202
0000000135,0000008933,030428,067030
0000000136,0000009000,030067,067856
0000000137,0000009067,029735,068680
0000000138,0000009133,029417,069500
0000000139,0000009200,029114,070319
0000000140,0000009267,028842,071131
0000000141,0000009333,028584,071940
0000000142,0000009400,028341,072745
0000000143,0000009467,028129,073542
0000000144,0000009533,027932,074334
0000000145,0000009600,027751,075121
0000000146,0000009667,027600,075898
0000000147,0000009733,027466,076670
0000000148,0000009800,027347,077435
0000000149,0000009867,027259,078188
0000000150,0000009933,027188,078933
0000000151,0000010000,027132,079672
0000000152,0000010067,027108,080396
0000000153,0000010133,027099,081112
0000000154,0000010200,027107,081820
0000000155,0000010267,027146,082512
0000000156,0000010333,027201,083194
0000000157,0000010400,027272,083867
0000000158,0000010467,027375,084522
0000000159,0000010533,027493,085167
0000000160,0000010600,027627,085802
0000000161,0000010667,027792,086416
0000000162,0000010733,027973,087019
0000000163,0000010800,028169,087612
0000000164,0000010867,028396,088182
0000000165,0000010933,028638,088741
0000000166,0000011000,028895,089288
0000000167,0000011067,029183,089812
0000000168,0000011133,029485,090323
0000000169,0000011200,029802,090821
0000000170,0000011267,030148,091294
0000000171,0000011333,030508,091755
0000000172,0000011400,030883,092202
0000000173,0000011467,031285,092622
0000000174,0000011533,031702,093029
0000000175,0000011600,032132,093422
0000000176,0000011667,032590,093787
0000000177,0000011733,033060,094139
0000000178,0000011800,033544,094475
0000000179,0000011867,034053,094783
0000000180,0000011933,034575,095077
0000000181,0000012000,035109,095356
0000000182,0000012067,035667,095605
0000000183,0000012133,036237,095839
0000000184,0000012200,036819,096058
0000000185,0000012267,037423,096246
0000000186,0000012333,038038,096420
0000000187,0000012400,038663,096578
0000000188,0000012467,039310,096705
0000000189,0000012533,039966,096817
0000000190,0000012600,040633,096913
0000000191,0000012667,041318,096978
0000000192,0000012733,042012,097027
0000000193,0000012800,042715,097061
0000000194,0000012867,043436,097063
0000000195,0000012933,044164,097050
0000000196,0000013000,044900,097021
0000000197,0000013067,045651,096961
0000000198,0000013133,046408,096885
0000000199,0000013200,047173,096794
0000000200,0000013267,047950,096671
0000000201,0000013333,048734,096533
0000000202,0000013400,049523,096380
0000000203,0000013467,050322,096196
0000000204,0000013533,051126,095997
0000000205,0000013600,051935,095782
0000000206,0000013667,052752,095538
0000000207,0000013733,053572,095279
0000000208,0000013800,054396,095004
0000000209,0000013867,055226,094701
0000000210,0000013933,056059,094383
0000000211,0000014000,056893,094050
0000000212,0000014067,057731,093689
0000000213,0000014133,058570,093314
0000000214,0000014200,059411,092926
0000000215,0000014267,060252,092509
0000000216,0000014333,061093,092080
0000000217,0000014400,061935,091637
0000000218,0000014467,062775,091167
0000000219,0000014533,063614,090685
0000000220,0000014600,064451,090191
0000000221,0000014667,065285,089671
0000000222,0000014733,066117,089140
0000000223,0000014800,066946,088596
0000000224,0000014867,067769,088029
0000000225,0000014933,068588,087451
0000000226,0000015000,069404,086862
0000000227,0000015067,070212,086251
0000000228,0000015133,071014,085629
0000000229,0000015200,071812,084997
0000000230,0000015267,072600,084346
0000000231,0000015333,073381,083685
0000000232,0000015400,074157,083014
0000000233,0000015467,074919,082325
0000000234,0000015533,075675,081628
0000000235,0000015600,076424,080923
0000000236,0000015667,077158,080201
0000000237,0000015733,077884,079472
0000000238,0000015800,078601,078735
0000000239,0000015867,079302,077984
0000000240,0000015933,079994,077227
0000000241,0000016000,080676,076464
0000000242,0000016067,081340,075689
0000000243,0000016133,081993,074908
0000000244,0000016200,082637,074122
0000000245,0000016267,083260,073327
0000000246,0000016333,083871,072527
0000000247,0000016400,084472,071723
0000000248,0000016467,085050,070912
0000000249,0000016533,085617,070097
0000000250,0000016600,086172,069280
0000000251,0000016667,086702,068457
0000000252,0000016733,087220,067633
0000000253,0000016800,087726,066807
0000000254,0000016867,088206,065978
0000000255,0000016933,088672,065148
0000000256,0000017000,089126,064318
0000000257,0000017067,089552,063487
0000000258,0000017133,089965,062657
0000000259,0000017200,090363,061827
0000000260,0000017267,090734,061000
0000000261,0000017333,091090,060174
0000000262,0000017400,091432,059349
0000000263,0000017467,091744,058529
0000000264,0000017533,092042,057712
0000000265,0000017600,092325,056897
0000000266,0000017667,092578,056090
0000000267,0000017733,092815,055286
0000000268,0000017800,093038,054486
0000000269,0000017867,093230,053695
0000000270,0000017933,093406,052910
0000000271,0000018000,093566,052129
0000000272,0000018067,093696,051360
0000000273,0000018133,093809,050597
0000000274,0000018200,093907,049840
0000000275,0000018267,093974,049096
0000000276,0000018333,094024,048360
0000000277,0000018400,094059,047631
0000000278,0000018467,094062,046917
0000000279,0000018533,094049,046212
0000000280,0000018600,094020,045515
0000000281,0000018667,093960,044835
0000000282,0000018733,093883,044165
0000000283,0000018800,093791,043504
0000000284,0000018867,093668,042862
0000000285,0000018933,093529,042231
0000000286,0000019000,093374,041610
0000000287,0000019067,093188,041010
0000000288,0000019133,092987,040421
0000000289,0000019200,092770,039843
0000000290,0000019267,092523,039288
0000000291,0000019333,092261,038745
0000000292,0000019400,091984,038213
0000000293,0000019467,091677,037706
0000000294,0000019533,091355,037212
0000000295,0000019600,091019,036730
0000000296,0000019667,090653,036274
0000000297,0000019733,090274,035832
0000000298,0000019800,089881,035402
0000000299,0000019867,089459,035000
0000000300,0000019933,089025,034612
0000000301,0000020000,088576,034237
0000000302,0000020067,088101,033891
0000000303,0000020133,087613,033559
0000000304,0000020200,087113,033241
0000000305,0000020267,086587,032952
0000000306,0000020333,086049,032679
0000000307,0000020400,085498,032420
0000000308,0000020467,084924,032191
0000000309,0000020533,084339,031977
0000000310,0000020600,083742,031778
0000000311,0000020667,083124,031610
0000000312,0000020733,082495,031457
0000000313,0000020800,081855,031319
0000000314,0000020867,081195,031213
0000000315,0000020933,080525,031122
0000000316,0000021000,079846,031047
0000000317,0000021067,079149,031002
0000000318,0000021133,078443,030974
0000000319,0000021200,077729,030961
0000000320,0000021267,076998,030980
0000000321,0000021333,076259,031014
0000000322,0000021400,075513,031063
0000000323,0000021467,074753,031144
0000000324,0000021533,073986,031241
0000000325,0000021600,073213,031353
0000000326,0000021667,072428,031496
0000000327,0000021733,071637,031654
0000000328,0000021800,070841,031828
0000000329,0000021867,070035,032032
0000000330,0000021933,069225,032252
0000000331,0000022000,068411,032486
0000000332,0000022067,067589,032751
0000000333,0000022133,066764,033030
0000000334,0000022200,065936,033323
0000000335,0000022267,065103,033646
0000000336,0000022333,064268,033984
0000000337,0000022400,063431,034335
0000000338,0000022467,062591,034715
0000000339,0000022533,061751,035108
0000000340,0000022600,060909,035515
0000000341,0000022667,060068,035950
0000000342,0000022733,059227,036397
0000000343,0000022800,058386,036858
0000000344,0000022867,057548,037344
0000000345,0000022933,056711,037843
0000000346,0000023000,055875,038354
0000000347,0000023067,055045,038890
0000000348,0000023133,054217,039437
0000000349,0000023200,053391,039996
0000000350,0000023267,052573,040578
0000000351,0000023333,051759,041171
0000000352,0000023400,050948,041775
0000000353,0000023467,050147,042400
0000000354,0000023533,049351,043035
0000000355,0000023600,048560,043680
0000000356,0000023667,047780,044345
0000000357,0000023733,047007,045018
0000000358,0000023800,046240,045701
0000000359,0000023867,045486,046401
0000000360,0000023933,044740,047109
0000000361,0000024000,044001,047826
0000000362,0000024067,043278,048558
0000000363,0000024133,042563,049297
0000000364,0000024200,041857,050043
0000000365,0000024267,041168,050802
0000000366,0000024333,040488,051567
0000000367,0000024400,039818,052339
0000000368,0000024467,039168,053121
0000000369,0000024533,038528,053909
0000000370,0000024600,037898,054701
0000000371,0000024667,037290,055503
0000000372,0000024733,036693,056308
0000000373,0000024800,036107,057117
0000000374,0000024867,035544,057932
0000000375,0000024933,034994,058750
0000000376,0000025000,034455,059571
0000000377,0000025067,033941,060396
0000000378,0000025133,033440,061223
0000000379,0000025200,032951,062051
0000000380,0000025267,032489,062881
0000000381,0000025333,032040,063711
0000000382,0000025400,031605,064542
0000000383,0000025467,031197,065372
0000000384,0000025533,030803,066202
0000000385,0000025600,030423,067030
0000000386,0000025667,030071,067856
0000000387,0000025733,029734,068679
0000000388,0000025800,029412,069501
0000000389,0000025867,029119,070317
0000000390,0000025933,028841,071131
0000000391,0000026000,028578,071941
0000000392,0000026067,028346,072743
0000000393,0000026133,028129,073541
0000000394,0000026200,027927,074335
0000000395,0000026267,027756,075120
0000000396,0000026333,027600,075898
0000000397,0000026400,027461,076671
0000000398,0000026467,027352,077433
0000000399,0000026533,027259,078187
0000000400,0000026600,027183,078936
0000000401,0000026667,027137,079670
0000000402,0000026733,027108,080396
0000000403,0000026800,027094,081115
0000000404,0000026867,027112,081818
0000000405,0000026933,027146,082512
0000000406,0000027000,027196,083197
0000000407,0000027067,027278,083864
0000000408,0000027133,027375,084522
0000000409,0000027200,027488,085170
0000000410,0000027267,027633,085798
0000000411,0000027333,027792,086416
0000000412,0000027400,027968,087023
0000000413,0000027467,028174,087609
0000000414,0000027533,028396,088183
0000000415,0000027600,028633,088745
0000000416,0000027667,028900,089285
0000000417,0000027733,029183,089812
0000000418,0000027800,029480,090327
0000000419,0000027867,029806,090817
0000000420,0000027933,030147,091295
0000000421,0000028000,030503,091759
0000000422,0000028067,030887,092197
0000000423,0000028133,031285,092622
0000000424,0000028200,031697,093034
0000000425,0000028267,032137,093418
0000000426,0000028333,032590,093787
0000000427,0000028400,033056,094143
0000000428,0000028467,033548,094471
0000000429,0000028533,034053,094783
0000000430,0000028600,034571,095082
0000000431,0000028667,035113,095351
0000000432,0000028733,035667,095605
0000000433,0000028800,036233,095844
0000000434,0000028867,036822,096053
0000000435,0000028933,037423,096246
0000000436,0000029000,038034,096425
0000000437,0000029067,038667,096572
0000000438,0000029133,039310,096705
0000000439,0000029200,039963,096822
0000000440,0000029267,040636,096907
0000000441,0000029333,041318,096978
0000000442,0000029400,042009,097032
0000000443,0000029467,042718,097055
0000000444,0000029533,043436,097063
0000000445,0000029600,044161,097055
0000000446,0000029667,044902,097016
0000000447,0000029733,045651,096961
0000000448,0000029800,046406,096890
0000000449,0000029867,047175,096788
0000000450,0000029933,047950,096671
0000000451,0000030000,048732,096538
0000000452,0000030067,049524,096375
0000000453,0000030133,050322,096196
0000000454,0000030200,051125,096002
0000000455,0000030267,051936,095777
0000000456,0000030333,052752,095538
0000000457,0000030400,053571,095284
0000000458,0000030467,054397,095000
0000000459,0000030533,055226,094701
0000000460,0000030600,056058,094388
0000000461,0000030667,056894,094046
0000000462,0000030733,057731,093689
0000000463,0000030800,058570,093319
0000000464,0000030867,059411,092921
0000000465,0000030933,060252,092509
0000000466,0000031000,061093,092084
0000000467,0000031067,061935,091632
0000000468,0000031133,062775,091167
0000000469,0000031200,063614,090690
0000000470,0000031267,064451,090187
0000000471,0000031333,065285,089671
0000000472,0000031400,066118,089143
0000000473,0000031467,066945,088592
0000000474,0000031533,067769,088029
0000000475,0000031600,068590,087455
0000000476,0000031667,069403,086858
0000000477,0000031733,070212,086251
0000000478,0000031800,071016,085633
0000000479,0000031867,071811,084994
0000000480,0000031933,072600,084346
0000000481,0000032000,073383,083688
0000000482,0000032067,074155,083011
0000000483,0000032133,074919,082325
0000000484,0000032200,075678,081631
0000000485,0000032267,076422,080920
0000000486,0000032333,077158,080201
0000000487,0000032400,077886,079474
0000000488,0000032467,078598,078733
0000000489,0000032533,079302,077984
0000000490,0000032600,079997,077229
0000000491,0000032667,080673,076462
0000000492,0000032733,081340,075689
0000000493,0000032800,081997,074910
0000000494,0000032867,082633,074120
0000000495,0000032933,083259,073327
0000000496,0000033000,083875,072528
0000000497,0000033067,084468,071722
0000000498,0000033133,085050,070912
0000000499,0000033200,085621,070098
0000000500,0000033267,086168,069279
0000000501,0000033333,086702,068457
0000000502,0000033400,087224,067633
0000000503,0000033467,087722,066806
0000000504,0000033533,088206,065978
0000000505,0000033600,088677,065148
0000000506,0000033667,089121,064318
0000000507,0000033733,089552,063487
0000000508,0000033800,089969,062657
0000000509,0000033867,090359,061828
0000000510,0000033933,090734,061000
0000000511,0000034000,091095,060173
0000000512,0000034067,091427,059350
0000000513,0000034133,091744,058529
0000000514,0000034200,092047,057711
0000000515,0000034267,092320,056899
0000000516,0000034333,092578,056090
0000000517,0000034400,092821,055285
0000000518,0000034467,093033,054488
0000000519,0000034533,093230,053695
0000000520,0000034600,093411,052908
0000000521,0000034667,093561,052131
0000000522,0000034733,093696,051360
0000000523,0000034800,093815,050594
0000000524,0000034867,093902,049842
0000000525,0000034933,093974,049096
0000000526,0000035000,094029,048357
0000000527,0000035067,094054,047633
0000000528,0000035133,094062,046917
0000000529,0000035200,094054,046209
0000000530,0000035267,094015,045518
0000000531,0000035333,093960,044835
