DIgSILENT PowerFactory,20000410,2000
3,03A,00D
1,LOHL671-680:Phase Voltage A/Terminal i,,,kV,0.00010000000,-6.208511,0.000000,16030,99998,1,1,P
2,LOHL671-680:Phase Voltage B/Terminal i,,,kV,0.00010000000,-5.089510,0.000000,11697,99998,1,1,P
3,LOHL671-680:Phase Voltage C/Terminal i,,,kV,0.00010000000,-6.202614,0.000000,28342,99998,1,1,P
50
1
15000.000000,3001
21/11/2020,12:14:43.000000
21/11/2020,12:14:43.000000
ASCII
1.000000
0000000001,0000000000,088268,017902,066418
0000000002,0000000067,088782,018305,065591
0000000003,0000000133,089284,018724,064762
0000000004,0000000200,089773,019158,063932
0000000005,0000000267,090236,019621,063100
0000000006,0000000333,090685,020100,062268
0000000007,0000000400,091121,020593,061436
0000000008,0000000467,091529,021115,060604
0000000009,0000000533,091924,021651,059773
0000000010,0000000600,092304,022201,058943
0000000011,0000000667,092656,022778,058116
0000000012,0000000733,092993,023368,057291
0000000013,0000000800,093316,023972,056468
0000000014,0000000867,093609,024601,055650
0000000015,0000000933,093887,025242,054835
0000000016,0000001000,094150,025896,054024
0000000017,0000001067,094383,026573,053220
0000000018,0000001133,094600,027261,052420
0000000019,0000001200,094802,027961,051625
0000000020,0000001267,094973,028683,050840
0000000021,0000001333,095129,029415,050060
0000000022,0000001400,095269,030157,049285
0000000023,0000001467,095377,030919,048523
0000000024,0000001533,095469,031691,047767
0000000025,0000001600,095546,032471,047018
0000000026,0000001667,095591,033269,046283
0000000027,0000001733,095620,034076,045556
0000000028,0000001800,095634,034890,044836
0000000029,0000001867,095615,035720,044133
0000000030,0000001933,095581,036556,043438
0000000031,0000002000,095530,037400,042752
0000000032,0000002067,095448,038256,042084
0000000033,0000002133,095350,039118,041426
0000000034,0000002200,095237,039986,040777
0000000035,0000002267,095091,040865,040149
0000000036,0000002333,094931,041748,039531
0000000037,0000002400,094754,042635,038923
0000000038,0000002467,094547,043530,038338
0000000039,0000002533,094325,044429,037763
0000000040,0000002600,094087,045330,037201
0000000041,0000002667,093819,046237,036661
0000000042,0000002733,093535,047146,036134
0000000043,0000002800,093237,048057,035619
0000000044,0000002867,092910,048971,035129
0000000045,0000002933,092568,049885,034652
0000000046,0000003000,092211,050800,034188
0000000047,0000003067,091826,051715,033750
0000000048,0000003133,091427,052630,033325
0000000049,0000003200,091014,053544,032914
0000000050,0000003267,090573,054455,032531
0000000051,0000003333,090119,055365,032162
0000000052,0000003400,089652,056272,031807
0000000053,0000003467,089159,057175,031480
0000000054,0000003533,088653,058074,031168
0000000055,0000003600,088134,058970,030871
0000000056,0000003667,087590,059858,030603
0000000057,0000003733,087035,060742,030350
0000000058,0000003800,086468,061622,030112
0000000059,0000003867,085877,062491,029904
0000000060,0000003933,085276,063355,029711
0000000061,0000004000,084663,064213,029534
0000000062,0000004067,084029,065058,029388
0000000063,0000004133,083384,065897,029257
0000000064,0000004200,082730,066728,029141
0000000065,0000004267,082055,067545,029057
0000000066,0000004333,081372,068353,028988
0000000067,0000004400,080679,069154,028935
0000000068,0000004467,079969,069937,028913
0000000069,0000004533,079250,070711,028907
0000000070,0000004600,078523,071476,028917
0000000071,0000004667,077780,072221,028958
0000000072,0000004733,077030,072956,029014
0000000073,0000004800,076273,073681,029087
0000000074,0000004867,075502,074384,029190
0000000075,0000004933,074725,075076,029309
0000000076,0000005000,073943,075756,029444
0000000077,0000005067,073148,076413,029609
0000000078,0000005133,072349,077058,029790
0000000079,0000005200,071545,077691,029986
0000000080,0000005267,070732,078298,030212
0000000081,0000005333,069914,078892,030454
0000000082,0000005400,069093,079473,030710
0000000083,0000005467,068266,080026,030996
0000000084,0000005533,067435,080566,031297
0000000085,0000005600,066602,081092,031612
0000000086,0000005667,065765,081589,031956
0000000087,0000005733,064926,082072,032315
0000000088,0000005800,064085,082540,032687
0000000089,0000005867,063243,082977,033087
0000000090,0000005933,062400,083400,033501
0000000091,0000006000,061557,083807,033929
0000000092,0000006067,060715,084183,034383
0000000093,0000006133,059873,084544,034850
0000000094,0000006200,059032,084888,035330
0000000095,0000006267,058194,085200,035836
0000000096,0000006333,057358,085496,036353
0000000097,0000006400,056524,085776,036883
0000000098,0000006467,055696,086022,037437
0000000099,0000006533,054870,086252,038003
0000000100,0000006600,054048,086465,038579
0000000101,0000006667,053233,086645,039178
0000000102,0000006733,052423,086807,039788
0000000103,0000006800,051617,086953,040409
0000000104,0000006867,050821,087064,041050
0000000105,0000006933,050031,087158,041700
0000000106,0000007000,049246,087235,042361
0000000107,0000007067,048473,087278,043040
0000000108,0000007133,047707,087304,043728
0000000109,0000007200,046948,087312,044425
0000000110,0000007267,046203,087285,045138
0000000111,0000007333,045465,087242,045859
0000000112,0000007400,044735,087181,046588
0000000113,0000007467,044022,087086,047332
0000000114,0000007533,043318,086974,048083
0000000115,0000007600,042622,086844,048840
0000000116,0000007667,041944,086681,049610
0000000117,0000007733,041277,086500,050385
0000000118,0000007800,040619,086303,051166
0000000119,0000007867,039981,086072,051958
0000000120,0000007933,039354,085825,052754
0000000121,0000008000,038738,085561,053554
0000000122,0000008067,038144,085264,054363
0000000123,0000008133,037561,084951,055175
0000000124,0000008200,036990,084621,055991
0000000125,0000008267,036442,084260,056812
0000000126,0000008333,035907,083883,057635
0000000127,0000008400,035384,083490,058461
0000000128,0000008467,034886,083067,059290
0000000129,0000008533,034402,082628,060121
0000000130,0000008600,033930,082174,060952
0000000131,0000008667,033485,081690,061785
0000000132,0000008733,033054,081192,062617
0000000133,0000008800,032636,080680,063449
0000000134,0000008867,032246,080139,064280
0000000135,0000008933,031871,079585,065110
0000000136,0000009000,031509,079017,065938
0000000137,0000009067,031177,078422,066763
0000000138,0000009133,030859,077814,067585
0000000139,0000009200,030556,077194,068405
0000000140,0000009267,030283,076548,069218
0000000141,0000009333,030025,075891,070029
0000000142,0000009400,029782,075221,070835
0000000143,0000009467,029570,074529,071633
0000000144,0000009533,029373,073825,072427
0000000145,0000009600,029192,073110,073216
0000000146,0000009667,029042,072375,073994
0000000147,0000009733,028907,071629,074766
0000000148,0000009800,028789,070873,075532
0000000149,0000009867,028701,070099,076286
0000000150,0000009933,028630,069315,077033
0000000151,0000010000,028574,068523,077772
0000000152,0000010067,028550,067714,078497
0000000153,0000010133,028543,066897,079214
0000000154,0000010200,028551,066072,079923
0000000155,0000010267,028590,065233,080615
0000000156,0000010333,028646,064388,081298
0000000157,0000010400,028717,063536,081972
0000000158,0000010467,028820,062671,082627
0000000159,0000010533,028939,061802,083272
0000000160,0000010600,029074,060927,083907
0000000161,0000010667,029240,060043,084521
0000000162,0000010733,029421,059154,085125
0000000163,0000010800,029618,058261,085718
0000000164,0000010867,029845,057362,086289
0000000165,0000010933,030088,056459,086847
0000000166,0000011000,030346,055554,087395
0000000167,0000011067,030635,054644,087918
0000000168,0000011133,030937,053733,088429
0000000169,0000011200,031255,052820,088927
0000000170,0000011267,031602,051905,089400
0000000171,0000011333,031964,050990,089860
0000000172,0000011400,032339,050075,090307
0000000173,0000011467,032743,049160,090727
0000000174,0000011533,033161,048247,091133
0000000175,0000011600,033592,047334,091526
0000000176,0000011667,034051,046425,091890
0000000177,0000011733,034522,045519,092241
0000000178,0000011800,035007,044614,092577
0000000179,0000011867,035518,043716,092884
0000000180,0000011933,036040,042821,093177
0000000181,0000012000,036576,041930,093455
0000000182,0000012067,037135,041047,093703
0000000183,0000012133,037707,040170,093936
0000000184,0000012200,038289,039297,094154
0000000185,0000012267,038895,038435,094341
0000000186,0000012333,039511,037579,094513
0000000187,0000012400,040138,036729,094670
0000000188,0000012467,040786,035893,094796
0000000189,0000012533,041444,035064,094906
0000000190,0000012600,042112,034242,095001
0000000191,0000012667,042799,033436,095065
0000000192,0000012733,043494,032639,095113
0000000193,0000012800,044199,031850,095145
0000000194,0000012867,044921,031079,095146
0000000195,0000012933,045650,030317,095131
0000000196,0000013000,046388,029566,095100
0000000197,0000013067,047140,028834,095038
0000000198,0000013133,047900,028113,094961
0000000199,0000013200,048666,027403,094868
0000000200,0000013267,049445,026715,094744
0000000201,0000013333,050230,026038,094604
0000000202,0000013400,051020,025373,094449
0000000203,0000013467,051821,024732,094263
0000000204,0000013533,052627,024104,094062
0000000205,0000013600,053437,023489,093845
0000000206,0000013667,054256,022899,093599
0000000207,0000013733,055078,022323,093337
0000000208,0000013800,055903,021760,093061
0000000209,0000013867,056735,021225,092755
0000000210,0000013933,057569,020704,092435
0000000211,0000014000,058405,020197,092101
0000000212,0000014067,059244,019719,091738
0000000213,0000014133,060085,019256,091360
0000000214,0000014200,060927,018808,090969
0000000215,0000014267,061770,018390,090551
0000000216,0000014333,062613,017988,090119
0000000217,0000014400,063456,017602,089673
0000000218,0000014467,064297,017246,089202
0000000219,0000014533,065138,016907,088718
0000000220,0000014600,065977,016584,088221
0000000221,0000014667,066812,016294,087699
0000000222,0000014733,067645,016020,087165
0000000223,0000014800,068476,015762,086619
0000000224,0000014867,069300,015538,086050
0000000225,0000014933,070121,015330,085469
0000000226,0000015000,070938,015139,084877
0000000227,0000015067,071747,014982,084264
0000000228,0000015133,072551,014843,083640
0000000229,0000015200,073351,014720,083006
0000000230,0000015267,074139,014631,082352
0000000231,0000015333,074922,014560,081689
0000000232,0000015400,075699,014506,081016
0000000233,0000015467,076463,014486,080325
0000000234,0000015533,077220,014484,079625
0000000235,0000015600,077970,014499,078917
0000000236,0000015667,078705,014548,078193
0000000237,0000015733,079432,014615,077462
0000000238,0000015800,080151,014698,076723
0000000239,0000015867,080852,014816,075970
0000000240,0000015933,081545,014952,075210
0000000241,0000016000,082229,015104,074445
0000000242,0000016067,082893,015290,073667
0000000243,0000016133,083548,015493,072884
0000000244,0000016200,084192,015712,072096
0000000245,0000016267,084816,015966,071298
0000000246,0000016333,085429,016235,070497
0000000247,0000016400,086030,016521,069690
0000000248,0000016467,086609,016840,068877
0000000249,0000016533,087177,017174,068061
0000000250,0000016600,087732,017525,067241
0000000251,0000016667,088263,017907,066417
0000000252,0000016733,088782,018305,065590
0000000253,0000016800,089288,018719,064762
0000000254,0000016867,089769,019163,063931
0000000255,0000016933,090236,019621,063100
0000000256,0000017000,090690,020095,062268
0000000257,0000017067,091117,020598,061435
0000000258,0000017133,091530,021115,060603
0000000259,0000017200,091929,021646,059772
0000000260,0000017267,092300,022206,058943
0000000261,0000017333,092656,022778,058115
0000000262,0000017400,092998,023364,057289
0000000263,0000017467,093311,023976,056467
0000000264,0000017533,093609,024601,055649
0000000265,0000017600,093892,025238,054833
0000000266,0000017667,094145,025900,054024
0000000267,0000017733,094383,026573,053219
0000000268,0000017800,094605,027258,052418
0000000269,0000017867,094797,027965,051626
0000000270,0000017933,094973,028683,050839
0000000271,0000018000,095133,029412,050057
0000000272,0000018067,095263,030161,049287
0000000273,0000018133,095376,030920,048522
0000000274,0000018200,095474,031688,047764
0000000275,0000018267,095540,032475,047020
0000000276,0000018333,095590,033270,046283
0000000277,0000018400,095625,034073,045553
0000000278,0000018467,095627,034893,044838
0000000279,0000018533,095614,035720,044132
0000000280,0000018600,095585,036554,043435
0000000281,0000018667,095524,037402,042755
0000000282,0000018733,095447,038256,042084
0000000283,0000018800,095355,039117,041422
0000000284,0000018867,095231,039988,040780
0000000285,0000018933,095091,040865,040149
0000000286,0000019000,094936,041746,039527
0000000287,0000019067,094749,042636,038927
0000000288,0000019133,094547,043530,038338
0000000289,0000019200,094330,044428,037760
0000000290,0000019267,094082,045331,037205
0000000291,0000019333,093819,046237,036661
0000000292,0000019400,093541,047146,036130
0000000293,0000019467,093233,048058,035623
0000000294,0000019533,092910,048971,035129
0000000295,0000019600,092573,049885,034648
0000000296,0000019667,092207,050800,034192
0000000297,0000019733,091826,051715,033750
0000000298,0000019800,091432,052630,033321
0000000299,0000019867,091010,053543,032919
0000000300,0000019933,090574,054455,032531
0000000301,0000020000,090124,055365,032157
0000000302,0000020067,089648,056271,031812
0000000303,0000020133,089159,057175,031480
0000000304,0000020200,088657,058075,031163
0000000305,0000020267,088130,058969,030876
0000000306,0000020333,087590,059859,030603
0000000307,0000020400,087039,060744,030345
0000000308,0000020467,086464,061621,030117
0000000309,0000020533,085877,062492,029904
0000000310,0000020600,085279,063357,029706
0000000311,0000020667,084659,064211,029539
0000000312,0000020733,084028,065059,029387
0000000313,0000020800,083387,065900,029251
0000000314,0000020867,082726,066726,029146
0000000315,0000020933,082055,067545,029056
0000000316,0000021000,081375,068357,028982
0000000317,0000021067,080676,069151,028940
0000000318,0000021133,079968,069937,028913
0000000319,0000021200,079252,070714,028901
0000000320,0000021267,078520,071473,028922
0000000321,0000021333,077780,072221,028957
0000000322,0000021400,077032,072960,029009
0000000323,0000021467,076271,073677,029091
0000000324,0000021533,075502,074384,029190
0000000325,0000021600,074727,075079,029304
0000000326,0000021667,073941,075752,029448
0000000327,0000021733,073148,076413,029609
0000000328,0000021800,072351,077062,029784
0000000329,0000021867,071543,077686,029991
0000000330,0000021933,070732,078297,030212
0000000331,0000022000,069916,078896,030448
0000000332,0000022067,069092,079467,030715
0000000333,0000022133,068266,080026,030996
0000000334,0000022200,067436,080570,031292
0000000335,0000022267,066602,081087,031617
0000000336,0000022333,065765,081589,031956
0000000337,0000022400,064926,082076,032310
0000000338,0000022467,064085,082534,032692
0000000339,0000022533,063243,082977,033087
0000000340,0000022600,062400,083405,033497
0000000341,0000022667,061557,083802,033933
0000000342,0000022733,060715,084183,034383
0000000343,0000022800,059873,084549,034846
0000000344,0000022867,059032,084883,035335
0000000345,0000022933,058194,085200,035836
0000000346,0000023000,057357,085502,036349
0000000347,0000023067,056525,085771,036887
0000000348,0000023133,055696,086023,037437
0000000349,0000023200,054869,086258,037999
0000000350,0000023267,054049,086460,038583
0000000351,0000023333,053233,086645,039178
0000000352,0000023400,052421,086813,039785
0000000353,0000023467,051619,086948,040412
0000000354,0000023533,050821,087065,041050
0000000355,0000023600,050029,087165,041697
0000000356,0000023667,049248,087230,042364
0000000357,0000023733,048473,087278,043040
0000000358,0000023800,047705,087310,043725
0000000359,0000023867,046950,087306,044427
0000000360,0000023933,046203,087286,045138
0000000361,0000024000,045463,087248,045857
0000000362,0000024067,044738,087175,046591
0000000363,0000024133,044022,087086,047332
0000000364,0000024200,043315,086979,048080
0000000365,0000024267,042625,086839,048842
0000000366,0000024333,041945,086681,049610
0000000367,0000024400,041274,086506,050383
0000000368,0000024467,040622,086297,051168
0000000369,0000024533,039982,086072,051958
0000000370,0000024600,039351,085830,052752
0000000371,0000024667,038742,085555,053556
0000000372,0000024733,038144,085264,054363
0000000373,0000024800,037557,084956,055174
0000000374,0000024867,036994,084616,055992
0000000375,0000024933,036442,084260,056812
0000000376,0000025000,035903,083888,057635
0000000377,0000025067,035388,083485,058462
0000000378,0000025133,034886,083067,059290
0000000379,0000025200,034397,082633,060121
0000000380,0000025267,033934,082169,060952
0000000381,0000025333,033485,081690,061785
0000000382,0000025400,033049,081197,062617
0000000383,0000025467,032641,080675,063449
0000000384,0000025533,032246,080139,064280
0000000385,0000025600,031866,079589,065110
0000000386,0000025667,031514,079012,065937
0000000387,0000025733,031177,078422,066763
0000000388,0000025800,030854,077818,067586
0000000389,0000025867,030561,077189,068404
0000000390,0000025933,030283,076548,069218
0000000391,0000026000,030020,075895,070030
0000000392,0000026067,029787,075217,070834
0000000393,0000026133,029570,074529,071633
0000000394,0000026200,029368,073829,072428
0000000395,0000026267,029197,073107,073214
0000000396,0000026333,029042,072375,073993
0000000397,0000026400,028902,071632,074768
0000000398,0000026467,028794,070870,075530
0000000399,0000026533,028701,070099,076286
0000000400,0000026600,028625,069318,077035
0000000401,0000026667,028580,068520,077770
0000000402,0000026733,028551,067714,078497
0000000403,0000026800,028537,066900,079217
0000000404,0000026867,028556,066070,079920
0000000405,0000026933,028590,065234,080615
0000000406,0000027000,028641,064390,081301
0000000407,0000027067,028723,063534,081968
0000000408,0000027133,028821,062671,082627
0000000409,0000027200,028934,061804,083275
0000000410,0000027267,029079,060925,083904
0000000411,0000027333,029240,060043,084522
0000000412,0000027400,029416,059155,085129
0000000413,0000027467,029623,058260,085715
0000000414,0000027533,029845,057362,086289
0000000415,0000027600,030083,056460,086852
0000000416,0000027667,030351,055553,087391
0000000417,0000027733,030634,054644,087918
0000000418,0000027800,030932,053733,088433
0000000419,0000027867,031260,052819,088923
0000000420,0000027933,031602,051905,089400
0000000421,0000028000,031959,050990,089864
0000000422,0000028067,032344,050075,090302
0000000423,0000028133,032743,049160,090727
0000000424,0000028200,033156,048246,091138
0000000425,0000028267,033597,047335,091521
0000000426,0000028333,034051,046426,091890
0000000427,0000028400,034518,045518,092245
0000000428,0000028467,035011,044615,092572
0000000429,0000028533,035517,043716,092884
0000000430,0000028600,036036,042820,093182
0000000431,0000028667,036580,041932,093450
0000000432,0000028733,037135,041048,093703
0000000433,0000028800,037703,040168,093941
0000000434,0000028867,038293,039299,094149
0000000435,0000028933,038895,038435,094341
0000000436,0000029000,039508,037577,094518
0000000437,0000029067,040142,036731,094665
0000000438,0000029133,040786,035893,094796
0000000439,0000029200,041441,035061,094912
0000000440,0000029267,042115,034245,094996
0000000441,0000029333,042799,033436,095065
0000000442,0000029400,043492,032636,095118
0000000443,0000029467,044202,031853,095140
0000000444,0000029533,044921,031079,095146
