DIgSILENT PowerFactory,20000410,2000
2,02A,00D
1,LOHL684-611:Phase Voltage A/Terminal i,,,kV,0.00010000000,-6.046126,0.000000,19267,99998,1,1,P
2,LOHL684-611:Phase Voltage C/Terminal i,,,kV,0.00010000000,-6.377532,0.000000,16824,99998,1,1,P
50
1
15000.000000,3001
21/11/2020,11:53:05.000000
21/11/2020,11:53:05.000000
ASCII
1.000000
0000000001,0000000000,086587,068219
0000000002,0000000067,087101,067394
0000000003,0000000133,087602,066567
0000000004,0000000200,088091,065739
0000000005,0000000267,088553,064909
0000000006,0000000333,089002,064079
0000000007,0000000400,089437,063249
0000000008,0000000467,089845,062418
0000000009,0000000533,090239,061589
0000000010,0000000600,090619,060761
0000000011,0000000667,090970,059935
0000000012,0000000733,091307,059112
0000000013,0000000800,091630,058290
0000000014,0000000867,091922,057474
0000000015,0000000933,092200,056660
0000000016,0000001000,092463,055850
0000000017,0000001067,092696,055048
0000000018,0000001133,092913,054250
0000000019,0000001200,093115,053456
0000000020,0000001267,093287,052671
0000000021,0000001333,093442,051893
0000000022,0000001400,093582,051119
0000000023,0000001467,093690,050358
0000000024,0000001533,093783,049603
0000000025,0000001600,093860,048855
0000000026,0000001667,093905,048121
0000000027,0000001733,093935,047395
0000000028,0000001800,093948,046676
0000000029,0000001867,093930,045973
0000000030,0000001933,093896,045279
0000000031,0000002000,093846,044593
0000000032,0000002067,093765,043926
0000000033,0000002133,093667,043268
0000000034,0000002200,093554,042620
0000000035,0000002267,093410,041992
0000000036,0000002333,093250,041374
0000000037,0000002400,093074,040767
0000000038,0000002467,092868,040181
0000000039,0000002533,092646,039607
0000000040,0000002600,092409,039044
0000000041,0000002667,092141,038505
0000000042,0000002733,091859,037978
0000000043,0000002800,091562,037463
0000000044,0000002867,091235,036972
0000000045,0000002933,090894,036495
0000000046,0000003000,090538,036031
0000000047,0000003067,090154,035592
0000000048,0000003133,089756,035167
0000000049,0000003200,089344,034756
0000000050,0000003267,088905,034372
0000000051,0000003333,088452,034002
0000000052,0000003400,087986,033647
0000000053,0000003467,087494,033319
0000000054,0000003533,086989,033006
0000000055,0000003600,086471,032708
0000000056,0000003667,085929,032439
0000000057,0000003733,085375,032185
0000000058,0000003800,084809,031946
0000000059,0000003867,084220,031738
0000000060,0000003933,083619,031544
0000000061,0000004000,083008,031365
0000000062,0000004067,082375,031218
0000000063,0000004133,081732,031085
0000000064,0000004200,081079,030969
0000000065,0000004267,080406,030883
0000000066,0000004333,079724,030813
0000000067,0000004400,079033,030758
0000000068,0000004467,078324,030735
0000000069,0000004533,077607,030727
0000000070,0000004600,076881,030735
0000000071,0000004667,076140,030775
0000000072,0000004733,075392,030830
0000000073,0000004800,074636,030900
0000000074,0000004867,073867,031002
0000000075,0000004933,073092,031119
0000000076,0000005000,072310,031252
0000000077,0000005067,071518,031415
0000000078,0000005133,070720,031594
0000000079,0000005200,069917,031788
0000000080,0000005267,069106,032013
0000000081,0000005333,068290,032252
0000000082,0000005400,067471,032506
0000000083,0000005467,066644,032790
0000000084,0000005533,065816,033089
0000000085,0000005600,064984,033402
0000000086,0000005667,064148,033744
0000000087,0000005733,063311,034100
0000000088,0000005800,062472,034471
0000000089,0000005867,061631,034869
0000000090,0000005933,060790,035281
0000000091,0000006000,059949,035706
0000000092,0000006067,059108,036158
0000000093,0000006133,058267,036622
0000000094,0000006200,057428,037100
0000000095,0000006267,056591,037603
0000000096,0000006333,055757,038119
0000000097,0000006400,054925,038646
0000000098,0000006467,054097,039198
0000000099,0000006533,053273,039761
0000000100,0000006600,052453,040335
0000000101,0000006667,051639,040932
0000000102,0000006733,050830,041539
0000000103,0000006800,050026,042157
0000000104,0000006867,049231,042796
0000000105,0000006933,048442,043444
0000000106,0000007000,047659,044102
0000000107,0000007067,046887,044779
0000000108,0000007133,046122,045465
0000000109,0000007200,045364,046159
0000000110,0000007267,044620,046870
0000000111,0000007333,043884,047589
0000000112,0000007400,043155,048316
0000000113,0000007467,042443,049057
0000000114,0000007533,041740,049805
0000000115,0000007600,041045,050560
0000000116,0000007667,040369,051328
0000000117,0000007733,039702,052101
0000000118,0000007800,039045,052880
0000000119,0000007867,038408,053669
0000000120,0000007933,037782,054463
0000000121,0000008000,037167,055262
0000000122,0000008067,036573,056068
0000000123,0000008133,035992,056878
0000000124,0000008200,035421,057692
0000000125,0000008267,034874,058511
0000000126,0000008333,034340,059333
0000000127,0000008400,033818,060156
0000000128,0000008467,033321,060984
0000000129,0000008533,032837,061812
0000000130,0000008600,032365,062642
0000000131,0000008667,031921,063472
0000000132,0000008733,031490,064303
0000000133,0000008800,031073,065133
0000000134,0000008867,030684,065962
0000000135,0000008933,030308,066790
0000000136,0000009000,029947,067617
0000000137,0000009067,029615,068440
0000000138,0000009133,029298,069261
0000000139,0000009200,028995,070079
0000000140,0000009267,028722,070892
0000000141,0000009333,028464,071700
0000000142,0000009400,028221,072505
0000000143,0000009467,028009,073302
0000000144,0000009533,027812,074095
0000000145,0000009600,027631,074882
0000000146,0000009667,027481,075659
0000000147,0000009733,027346,076430
0000000148,0000009800,027227,077196
0000000149,0000009867,027140,077948
0000000150,0000009933,027068,078694
0000000151,0000010000,027012,079433
0000000152,0000010067,026988,080157
0000000153,0000010133,026980,080873
0000000154,0000010200,026988,081581
0000000155,0000010267,027027,082272
0000000156,0000010333,027082,082955
0000000157,0000010400,027153,083628
0000000158,0000010467,027256,084283
0000000159,0000010533,027374,084927
0000000160,0000010600,027508,085562
0000000161,0000010667,027673,086177
0000000162,0000010733,027854,086780
0000000163,0000010800,028050,087373
0000000164,0000010867,028277,087943
0000000165,0000010933,028519,088502
0000000166,0000011000,028776,089049
0000000167,0000011067,029063,089572
0000000168,0000011133,029365,090083
0000000169,0000011200,029682,090582
0000000170,0000011267,030028,091055
0000000171,0000011333,030389,091515
0000000172,0000011400,030763,091962
0000000173,0000011467,031166,092383
0000000174,0000011533,031583,092790
0000000175,0000011600,032013,093183
0000000176,0000011667,032470,093548
0000000177,0000011733,032941,093899
0000000178,0000011800,033424,094236
0000000179,0000011867,033934,094544
0000000180,0000011933,034455,094838
0000000181,0000012000,034989,095116
0000000182,0000012067,035548,095365
0000000183,0000012133,036118,095599
0000000184,0000012200,036699,095818
0000000185,0000012267,037303,096007
0000000186,0000012333,037918,096180
0000000187,0000012400,038544,096338
0000000188,0000012467,039190,096466
0000000189,0000012533,039847,096577
0000000190,0000012600,040513,096673
0000000191,0000012667,041199,096738
0000000192,0000012733,041893,096788
0000000193,0000012800,042596,096821
0000000194,0000012867,043316,096824
0000000195,0000012933,044044,096811
0000000196,0000013000,044780,096782
0000000197,0000013067,045531,096721
0000000198,0000013133,046289,096646
0000000199,0000013200,047054,096554
0000000200,0000013267,047831,096432
0000000201,0000013333,048614,096294
0000000202,0000013400,049403,096141
0000000203,0000013467,050203,095957
0000000204,0000013533,051007,095758
0000000205,0000013600,051816,095543
0000000206,0000013667,052633,095299
0000000207,0000013733,053453,095039
0000000208,0000013800,054277,094765
0000000209,0000013867,055107,094462
0000000210,0000013933,055939,094144
0000000211,0000014000,056774,093811
0000000212,0000014067,057612,093450
0000000213,0000014133,058451,093075
0000000214,0000014200,059291,092686
0000000215,0000014267,060133,092270
0000000216,0000014333,060974,091840
0000000217,0000014400,061815,091397
0000000218,0000014467,062655,090928
0000000219,0000014533,063494,090446
0000000220,0000014600,064332,089951
0000000221,0000014667,065166,089432
0000000222,0000014733,065997,088900
0000000223,0000014800,066826,088357
0000000224,0000014867,067649,087790
0000000225,0000014933,068469,087212
0000000226,0000015000,069285,086622
0000000227,0000015067,070092,086011
0000000228,0000015133,070895,085390
0000000229,0000015200,071693,084758
0000000230,0000015267,072480,084106
0000000231,0000015333,073262,083445
0000000232,0000015400,074037,082775
0000000233,0000015467,074800,082086
0000000234,0000015533,075556,081389
0000000235,0000015600,076305,080683
0000000236,0000015667,077038,079962
0000000237,0000015733,077764,079232
0000000238,0000015800,078482,078496
0000000239,0000015867,079183,077745
0000000240,0000015933,079874,076988
0000000241,0000016000,080557,076225
0000000242,0000016067,081220,075449
0000000243,0000016133,081874,074669
0000000244,0000016200,082517,073883
0000000245,0000016267,083140,073087
0000000246,0000016333,083752,072287
0000000247,0000016400,084353,071484
0000000248,0000016467,084931,070672
0000000249,0000016533,085498,069858
0000000250,0000016600,086052,069040
0000000251,0000016667,086583,068218
0000000252,0000016733,087101,067394
0000000253,0000016800,087606,066567
0000000254,0000016867,088086,065739
0000000255,0000016933,088553,064909
0000000256,0000017000,089006,064079
0000000257,0000017067,089433,063248
0000000258,0000017133,089845,062418
0000000259,0000017200,090244,061588
0000000260,0000017267,090615,060760
0000000261,0000017333,090971,059934
0000000262,0000017400,091312,059110
0000000263,0000017467,091625,058290
0000000264,0000017533,091923,057473
0000000265,0000017600,092206,056658
0000000266,0000017667,092458,055850
0000000267,0000017733,092696,055047
0000000268,0000017800,092918,054247
0000000269,0000017867,093110,053456
0000000270,0000017933,093286,052670
0000000271,0000018000,093447,051890
0000000272,0000018067,093576,051121
0000000273,0000018133,093690,050357
0000000274,0000018200,093788,049600
0000000275,0000018267,093854,048857
0000000276,0000018333,093905,048120
0000000277,0000018400,093939,047391
0000000278,0000018467,093942,046678
0000000279,0000018533,093929,045972
0000000280,0000018600,093901,045275
0000000281,0000018667,093840,044596
0000000282,0000018733,093764,043926
0000000283,0000018800,093672,043265
0000000284,0000018867,093549,042623
0000000285,0000018933,093409,041992
0000000286,0000019000,093255,041370
0000000287,0000019067,093069,040770
0000000288,0000019133,092868,040181
0000000289,0000019200,092651,039603
0000000290,0000019267,092404,039048
0000000291,0000019333,092142,038505
0000000292,0000019400,091864,037974
0000000293,0000019467,091557,037467
0000000294,0000019533,091236,036973
0000000295,0000019600,090899,036491
0000000296,0000019667,090534,036035
0000000297,0000019733,090155,035592
0000000298,0000019800,089761,035163
0000000299,0000019867,089340,034761
0000000300,0000019933,088905,034372
0000000301,0000020000,088457,033998
0000000302,0000020067,087982,033651
0000000303,0000020133,087494,033319
0000000304,0000020200,086993,033002
0000000305,0000020267,086467,032713
0000000306,0000020333,085929,032439
0000000307,0000020400,085379,032180
0000000308,0000020467,084805,031951
0000000309,0000020533,084220,031737
0000000310,0000020600,083623,031539
0000000311,0000020667,083004,031370
0000000312,0000020733,082375,031217
0000000313,0000020800,081735,031080
0000000314,0000020867,081076,030974
0000000315,0000020933,080406,030883
0000000316,0000021000,079727,030807
0000000317,0000021067,079030,030763
0000000318,0000021133,078324,030735
0000000319,0000021200,077609,030722
0000000320,0000021267,076878,030740
0000000321,0000021333,076140,030774
0000000322,0000021400,075394,030824
0000000323,0000021467,074634,030905
0000000324,0000021533,073867,031002
0000000325,0000021600,073094,031114
0000000326,0000021667,072308,031257
0000000327,0000021733,071518,031415
0000000328,0000021800,070722,031589
0000000329,0000021867,069916,031793
0000000330,0000021933,069106,032012
0000000331,0000022000,068291,032247
0000000332,0000022067,067470,032511
0000000333,0000022133,066645,032790
0000000334,0000022200,065817,033084
0000000335,0000022267,064983,033407
0000000336,0000022333,064148,033744
0000000337,0000022400,063311,034096
0000000338,0000022467,062472,034475
0000000339,0000022533,061631,034869
0000000340,0000022600,060790,035276
0000000341,0000022667,059949,035710
0000000342,0000022733,059107,036158
0000000343,0000022800,058267,036618
0000000344,0000022867,057428,037105
0000000345,0000022933,056591,037603
0000000346,0000023000,055756,038115
0000000347,0000023067,054925,038650
0000000348,0000023133,054097,039198
0000000349,0000023200,053272,039757
0000000350,0000023267,052454,040339
0000000351,0000023333,051639,040932
0000000352,0000023400,050829,041536
0000000353,0000023467,050028,042161
0000000354,0000023533,049231,042796
0000000355,0000023600,048440,043441
0000000356,0000023667,047661,044105
0000000357,0000023733,046887,044779
0000000358,0000023800,046120,045462
0000000359,0000023867,045367,046162
0000000360,0000023933,044620,046870
0000000361,0000024000,043882,047587
0000000362,0000024067,043158,048318
0000000363,0000024133,042444,049057
0000000364,0000024200,041737,049803
0000000365,0000024267,041048,050563
0000000366,0000024333,040369,051328
0000000367,0000024400,039699,052099
0000000368,0000024467,039049,052882
0000000369,0000024533,038409,053669
0000000370,0000024600,037779,054462
0000000371,0000024667,037171,055263
0000000372,0000024733,036574,056068
0000000373,0000024800,035988,056877
0000000374,0000024867,035425,057693
0000000375,0000024933,034874,058511
0000000376,0000025000,034336,059332
0000000377,0000025067,033822,060157
0000000378,0000025133,033320,060984
0000000379,0000025200,032832,061812
0000000380,0000025267,032370,062642
0000000381,0000025333,031921,063472
0000000382,0000025400,031485,064303
0000000383,0000025467,031077,065133
0000000384,0000025533,030683,065962
0000000385,0000025600,030303,066791
0000000386,0000025667,029952,067616
0000000387,0000025733,029615,068440
0000000388,0000025800,029293,069262
0000000389,0000025867,029000,070078
0000000390,0000025933,028722,070891
0000000391,0000026000,028459,071701
0000000392,0000026067,028226,072504
0000000393,0000026133,028009,073302
0000000394,0000026200,027807,074096
0000000395,0000026267,027636,074880
0000000396,0000026333,027481,075659
0000000397,0000026400,027341,076432
0000000398,0000026467,027233,077193
0000000399,0000026533,027140,077948
0000000400,0000026600,027063,078696
0000000401,0000026667,027018,079430
0000000402,0000026733,026988,080157
0000000403,0000026800,026975,080876
0000000404,0000026867,026993,081578
0000000405,0000026933,027027,082272
0000000406,0000027000,027077,082958
0000000407,0000027067,027158,083625
0000000408,0000027133,027256,084283
0000000409,0000027200,027369,084931
0000000410,0000027267,027513,085559
0000000411,0000027333,027673,086177
0000000412,0000027400,027849,086784
0000000413,0000027467,028055,087369
0000000414,0000027533,028277,087943
0000000415,0000027600,028514,088506
0000000416,0000027667,028781,089045
0000000417,0000027733,029063,089573
0000000418,0000027800,029360,090088
0000000419,0000027867,029687,090578
0000000420,0000027933,030028,091055
0000000421,0000028000,030384,091520
0000000422,0000028067,030768,091958
0000000423,0000028133,031166,092383
0000000424,0000028200,031578,092794
0000000425,0000028267,032017,093178
0000000426,0000028333,032470,093548
0000000427,0000028400,032936,093904
0000000428,0000028467,033429,094231
0000000429,0000028533,033934,094544
0000000430,0000028600,034451,094842
0000000431,0000028667,034993,095111
0000000432,0000028733,035548,095365
0000000433,0000028800,036114,095604
0000000434,0000028867,036703,095813
0000000435,0000028933,037303,096007
0000000436,0000029000,037915,096185
0000000437,0000029067,038547,096333
0000000438,0000029133,039190,096465
0000000439,0000029200,039844,096582
0000000440,0000029267,040517,096668
0000000441,0000029333,041199,096738
0000000442,0000029400,041890,096793
0000000443,0000029467,042599,096816
0000000444,0000029533,043316,096824
0000000445,0000029600,044042,096816
0000000446,0000029667,044783,096776
0000000447,0000029733,045531,096721
0000000448,0000029800,046287,096651
0000000449,0000029867,047056,096549
0000000450,0000029933,047831,096432
0000000451,0000030000,048612,096299
0000000452,0000030067,049405,096136
0000000453,0000030133,050203,095957
0000000454,0000030200,051005,095763
0000000455,0000030267,051817,095538
0000000456,0000030333,052632,095299
0000000457,0000030400,053452,095044
0000000458,0000030467,054278,094760
0000000459,0000030533,055107,094462
0000000460,0000030600,055938,094148
0000000461,0000030667,056774,093806
0000000462,0000030733,057612,093450
0000000463,0000030800,058450,093080
0000000464,0000030867,059291,092682
0000000465,0000030933,060133,092270
0000000466,0000031000,060974,091845
0000000467,0000031067,061815,091393
0000000468,0000031133,062655,090928
0000000469,0000031200,063495,090450
0000000470,0000031267,064331,089947
0000000471,0000031333,065166,089432
0000000472,0000031400,065998,088904
0000000473,0000031467,066825,088353
0000000474,0000031533,067649,087790
0000000475,0000031600,068470,087215
0000000476,0000031667,069283,086619
0000000477,0000031733,070092,086011
0000000478,0000031800,070897,085393
0000000479,0000031867,071691,084755
0000000480,0000031933,072480,084106
0000000481,0000032000,073264,083448
0000000482,0000032067,074035,082772
0000000483,0000032133,074800,082086
0000000484,0000032200,075558,081392
0000000485,0000032267,076302,080681
0000000486,0000032333,077038,079962
0000000487,0000032400,077767,079235
0000000488,0000032467,078479,078493
0000000489,0000032533,079182,077745
0000000490,0000032600,079877,076990
0000000491,0000032667,080554,076223
0000000492,0000032733,081220,075449
0000000493,0000032800,081877,074670
0000000494,0000032867,082514,073881
0000000495,0000032933,083140,073087
0000000496,0000033000,083755,072289
0000000497,0000033067,084349,071482
0000000498,0000033133,084931,070672
0000000499,0000033200,085501,069859
0000000500,0000033267,086048,069040
0000000501,0000033333,086583,068218
0000000502,0000033400,087105,067394
0000000503,0000033467,087602,066567
0000000504,0000033533,088086,065739
0000000505,0000033600,088557,064909
0000000506,0000033667,089002,064078
0000000507,0000033733,089433,063248
0000000508,0000033800,089850,062417
0000000509,0000033867,090239,061588
0000000510,0000033933,090615,060760
0000000511,0000034000,090976,059934
0000000512,0000034067,091308,059110
0000000513,0000034133,091625,058290
0000000514,0000034200,091928,057472
0000000515,0000034267,092201,056659
0000000516,0000034333,092458,055850
0000000517,0000034400,092701,055045
0000000518,0000034467,092913,054248
0000000519,0000034533,093110,053456
0000000520,0000034600,093291,052669
0000000521,0000034667,093442,051892
0000000522,0000034733,093576,051121
0000000523,0000034800,093695,050355
0000000524,0000034867,093783,049603
0000000525,0000034933,093854,048857
0000000526,0000035000,093910,048118
0000000527,0000035067,093934,047394
0000000528,0000035133,093942,046678
0000000529,0000035200,093935,045970
0000000530,0000035267,093895,045278
0000000531,0000035333,093840,044596
