DIgSILENT PowerFactory,20000410,2000
3,03A,00D
1,LC692-675:Phase Voltage A/Terminal i,,,kV,0.00010000000,-5.511706,0.000000,20392,99998,1,1,P
2,LC692-675:Phase Voltage B/Terminal i,,,kV,0.00010000000,-5.627284,0.000000,13352,99998,1,1,P
3,LC692-675:Phase Voltage C/Terminal i,,,kV,0.00010000000,-5.992475,0.000000,16882,99998,1,1,P
50
1
15000.000000,3001
21/11/2020,12:29:10.000000
21/11/2020,12:29:10.000000
ASCII
1.000000
0000000001,0000000000,081300,023280,064316
0000000002,0000000067,081814,023683,063489
0000000003,0000000133,082316,024101,062661
0000000004,0000000200,082805,024535,061831
0000000005,0000000267,083268,024999,060999
0000000006,0000000333,083717,025478,060167
0000000007,0000000400,084153,025971,059334
0000000008,0000000467,084561,026493,058503
0000000009,0000000533,084956,027029,057672
0000000010,0000000600,085336,027579,056842
0000000011,0000000667,085688,028156,056014
0000000012,0000000733,086025,028746,055189
0000000013,0000000800,086348,029350,054366
0000000014,0000000867,086641,029979,053548
0000000015,0000000933,086919,030620,052734
0000000016,0000001000,087182,031273,051922
0000000017,0000001067,087415,031950,051118
0000000018,0000001133,087632,032639,050319
0000000019,0000001200,087834,033339,049524
0000000020,0000001267,088005,034061,048738
0000000021,0000001333,088161,034793,047958
0000000022,0000001400,088300,035535,047184
0000000023,0000001467,088409,036297,046422
0000000024,0000001533,088501,037068,045666
0000000025,0000001600,088578,037849,044917
0000000026,0000001667,088623,038647,044182
0000000027,0000001733,088652,039453,043455
0000000028,0000001800,088666,040268,042735
0000000029,0000001867,088647,041097,042031
0000000030,0000001933,088612,041934,041337
0000000031,0000002000,088562,042778,040650
0000000032,0000002067,088480,043634,039983
0000000033,0000002133,088382,044496,039324
0000000034,0000002200,088269,045364,038676
0000000035,0000002267,088123,046242,038047
0000000036,0000002333,087963,047125,037429
0000000037,0000002400,087786,048013,036822
0000000038,0000002467,087579,048908,036236
0000000039,0000002533,087357,049806,035662
0000000040,0000002600,087119,050708,035099
0000000041,0000002667,086851,051615,034560
0000000042,0000002733,086567,052524,034033
0000000043,0000002800,086269,053435,033518
0000000044,0000002867,085942,054349,033028
0000000045,0000002933,085600,055263,032551
0000000046,0000003000,085243,056178,032086
0000000047,0000003067,084858,057093,031648
0000000048,0000003133,084459,058008,031224
0000000049,0000003200,084046,058922,030813
0000000050,0000003267,083605,059833,030430
0000000051,0000003333,083151,060742,030061
0000000052,0000003400,082684,061650,029705
0000000053,0000003467,082191,062552,029379
0000000054,0000003533,081684,063452,029067
0000000055,0000003600,081166,064348,028769
0000000056,0000003667,080622,065236,028501
0000000057,0000003733,080067,066120,028248
0000000058,0000003800,079500,066999,028010
0000000059,0000003867,078909,067869,027803
0000000060,0000003933,078307,068733,027610
0000000061,0000004000,077695,069591,027433
0000000062,0000004067,077061,070436,027286
0000000063,0000004133,076416,071274,027155
0000000064,0000004200,075762,072106,027040
0000000065,0000004267,075087,072923,026955
0000000066,0000004333,074404,073731,026887
0000000067,0000004400,073711,074532,026833
0000000068,0000004467,073000,075315,026812
0000000069,0000004533,072282,076089,026806
0000000070,0000004600,071555,076854,026815
0000000071,0000004667,070812,077599,026856
0000000072,0000004733,070062,078334,026913
0000000073,0000004800,069305,079059,026985
0000000074,0000004867,068534,079762,027089
0000000075,0000004933,067757,080454,027208
0000000076,0000005000,066974,081134,027342
0000000077,0000005067,066180,081791,027508
0000000078,0000005133,065381,082436,027688
0000000079,0000005200,064577,083068,027884
0000000080,0000005267,063763,083676,028111
0000000081,0000005333,062946,084269,028352
0000000082,0000005400,062125,084850,028609
0000000083,0000005467,061298,085404,028895
0000000084,0000005533,060467,085944,029195
0000000085,0000005600,059634,086470,029511
0000000086,0000005667,058797,086967,029855
0000000087,0000005733,057958,087449,030213
0000000088,0000005800,057117,087917,030586
0000000089,0000005867,056275,088355,030986
0000000090,0000005933,055432,088778,031400
0000000091,0000006000,054589,089185,031828
0000000092,0000006067,053747,089561,032282
0000000093,0000006133,052905,089921,032749
0000000094,0000006200,052064,090266,033229
0000000095,0000006267,051226,090578,033734
0000000096,0000006333,050390,090874,034252
0000000097,0000006400,049556,091153,034782
0000000098,0000006467,048728,091400,035336
0000000099,0000006533,047902,091630,035901
0000000100,0000006600,047080,091843,036478
0000000101,0000006667,046265,092022,037077
0000000102,0000006733,045455,092185,037687
0000000103,0000006800,044649,092330,038307
0000000104,0000006867,043853,092442,038948
0000000105,0000006933,043063,092536,039599
0000000106,0000007000,042278,092613,040259
0000000107,0000007067,041505,092656,040938
0000000108,0000007133,040739,092681,041626
0000000109,0000007200,039980,092689,042323
0000000110,0000007267,039235,092663,043037
0000000111,0000007333,038497,092620,043758
0000000112,0000007400,037767,092559,044487
0000000113,0000007467,037054,092464,045231
0000000114,0000007533,036350,092351,045981
0000000115,0000007600,035654,092222,046738
0000000116,0000007667,034976,092059,047508
0000000117,0000007733,034309,091878,048284
0000000118,0000007800,033651,091681,049065
0000000119,0000007867,033013,091450,049856
0000000120,0000007933,032386,091203,050652
0000000121,0000008000,031770,090939,051453
0000000122,0000008067,031176,090642,052262
0000000123,0000008133,030593,090329,053074
0000000124,0000008200,030022,089999,053889
0000000125,0000008267,029474,089638,054711
0000000126,0000008333,028939,089261,055534
0000000127,0000008400,028416,088868,056360
0000000128,0000008467,027918,088444,057189
0000000129,0000008533,027434,088006,058019
0000000130,0000008600,026962,087552,058851
0000000131,0000008667,026517,087068,059683
0000000132,0000008733,026086,086570,060516
0000000133,0000008800,025668,086058,061348
0000000134,0000008867,025278,085517,062179
0000000135,0000008933,024903,084963,063008
0000000136,0000009000,024541,084394,063837
0000000137,0000009067,024209,083800,064661
0000000138,0000009133,023891,083192,065484
0000000139,0000009200,023588,082571,066303
0000000140,0000009267,023315,081926,067117
0000000141,0000009333,023057,081268,067927
0000000142,0000009400,022814,080599,068734
0000000143,0000009467,022602,079906,069532
0000000144,0000009533,022405,079203,070325
0000000145,0000009600,022224,078488,071114
0000000146,0000009667,022074,077752,071892
0000000147,0000009733,021939,077007,072664
0000000148,0000009800,021821,076251,073431
0000000149,0000009867,021733,075477,074184
0000000150,0000009933,021662,074693,074931
0000000151,0000010000,021606,073901,075671
0000000152,0000010067,021582,073092,076396
0000000153,0000010133,021574,072275,077112
0000000154,0000010200,021582,071450,077821
0000000155,0000010267,021622,070611,078513
0000000156,0000010333,021678,069766,079196
0000000157,0000010400,021749,068913,079870
0000000158,0000010467,021852,068049,080525
0000000159,0000010533,021971,067180,081170
0000000160,0000010600,022106,066305,081806
0000000161,0000010667,022272,065420,082420
0000000162,0000010733,022453,064532,083024
0000000163,0000010800,022650,063639,083617
0000000164,0000010867,022877,062739,084187
0000000165,0000010933,023120,061837,084746
0000000166,0000011000,023378,060932,085293
0000000167,0000011067,023666,060022,085816
0000000168,0000011133,023969,059110,086327
0000000169,0000011200,024287,058197,086826
0000000170,0000011267,024634,057283,087299
0000000171,0000011333,024996,056368,087758
0000000172,0000011400,025371,055453,088205
0000000173,0000011467,025775,054538,088625
0000000174,0000011533,026193,053625,089032
0000000175,0000011600,026624,052712,089424
0000000176,0000011667,027083,051803,089789
0000000177,0000011733,027554,050897,090139
0000000178,0000011800,028039,049992,090475
0000000179,0000011867,028549,049094,090783
0000000180,0000011933,029072,048199,091075
0000000181,0000012000,029608,047308,091353
0000000182,0000012067,030167,046425,091601
0000000183,0000012133,030738,045547,091834
0000000184,0000012200,031321,044674,092052
0000000185,0000012267,031927,043812,092240
0000000186,0000012333,032543,042957,092412
0000000187,0000012400,033170,042107,092569
0000000188,0000012467,033818,041271,092695
0000000189,0000012533,034476,040442,092805
0000000190,0000012600,035144,039620,092900
0000000191,0000012667,035831,038814,092963
0000000192,0000012733,036526,038017,093011
0000000193,0000012800,037231,037228,093044
0000000194,0000012867,037953,036457,093044
0000000195,0000012933,038682,035695,093029
0000000196,0000013000,039420,034943,092999
0000000197,0000013067,040172,034212,092937
0000000198,0000013133,040932,033491,092860
0000000199,0000013200,041698,032780,092766
0000000200,0000013267,042477,032092,092642
0000000201,0000013333,043262,031416,092502
0000000202,0000013400,044052,030751,092347
0000000203,0000013467,044853,030110,092161
0000000204,0000013533,045659,029482,091960
0000000205,0000013600,046469,028866,091744
0000000206,0000013667,047288,028277,091497
0000000207,0000013733,048110,027701,091236
0000000208,0000013800,048935,027138,090960
0000000209,0000013867,049767,026602,090654
0000000210,0000013933,050601,026081,090334
0000000211,0000014000,051437,025574,089999
0000000212,0000014067,052276,025097,089636
0000000213,0000014133,053117,024634,089259
0000000214,0000014200,053959,024186,088868
0000000215,0000014267,054802,023768,088449
0000000216,0000014333,055645,023366,088017
0000000217,0000014400,056488,022979,087572
0000000218,0000014467,057329,022624,087101
0000000219,0000014533,058170,022285,086616
0000000220,0000014600,059009,021962,086119
0000000221,0000014667,059844,021671,085597
0000000222,0000014733,060677,021397,085063
0000000223,0000014800,061508,021140,084517
0000000224,0000014867,062332,020915,083948
0000000225,0000014933,063153,020708,083368
0000000226,0000015000,063970,020517,082776
0000000227,0000015067,064779,020360,082163
0000000228,0000015133,065583,020220,081539
0000000229,0000015200,066383,020098,080905
0000000230,0000015267,067171,020009,080251
0000000231,0000015333,067954,019938,079587
0000000232,0000015400,068731,019884,078914
0000000233,0000015467,069495,019864,078223
0000000234,0000015533,070252,019862,077524
0000000235,0000015600,071002,019876,076816
0000000236,0000015667,071737,019926,076092
0000000237,0000015733,072464,019992,075360
0000000238,0000015800,073183,020076,074621
0000000239,0000015867,073884,020194,073868
0000000240,0000015933,074577,020329,073109
0000000241,0000016000,075261,020481,072343
0000000242,0000016067,075925,020668,071566
0000000243,0000016133,076580,020870,070783
0000000244,0000016200,077224,021090,069995
0000000245,0000016267,077848,021343,069197
0000000246,0000016333,078460,021613,068395
0000000247,0000016400,079062,021899,067589
0000000248,0000016467,079641,022217,066776
0000000249,0000016533,080209,022552,065959
0000000250,0000016600,080764,022903,065140
0000000251,0000016667,081295,023285,064315
0000000252,0000016733,081814,023683,063489
0000000253,0000016800,082320,024096,062661
0000000254,0000016867,082801,024540,061830
0000000255,0000016933,083268,024999,060999
0000000256,0000017000,083722,025473,060166
0000000257,0000017067,084149,025976,059334
0000000258,0000017133,084562,026493,058502
0000000259,0000017200,084961,027024,057671
0000000260,0000017267,085332,027583,056841
0000000261,0000017333,085688,028156,056014
0000000262,0000017400,086030,028742,055188
0000000263,0000017467,086343,029354,054366
0000000264,0000017533,086641,029979,053547
0000000265,0000017600,086924,030616,052731
0000000266,0000017667,087177,031277,051922
0000000267,0000017733,087415,031951,051117
0000000268,0000017800,087637,032636,050316
0000000269,0000017867,087829,033343,049524
0000000270,0000017933,088005,034061,048737
0000000271,0000018000,088165,034790,047956
0000000272,0000018067,088295,035539,047185
0000000273,0000018133,088408,036297,046421
0000000274,0000018200,088506,037066,045663
0000000275,0000018267,088572,037852,044918
0000000276,0000018333,088622,038648,044181
0000000277,0000018400,088657,039451,043451
0000000278,0000018467,088659,040271,042737
0000000279,0000018533,088646,041098,042031
0000000280,0000018600,088617,041932,041333
0000000281,0000018667,088556,042780,040653
0000000282,0000018733,088479,043634,039983
0000000283,0000018800,088387,044495,039321
0000000284,0000018867,088263,045366,038679
0000000285,0000018933,088123,046242,038047
0000000286,0000019000,087968,047124,037426
0000000287,0000019067,087781,048014,036826
0000000288,0000019133,087579,048908,036236
0000000289,0000019200,087362,049805,035658
0000000290,0000019267,087114,050709,035103
0000000291,0000019333,086851,051615,034560
0000000292,0000019400,086573,052523,034029
0000000293,0000019467,086265,053435,033522
0000000294,0000019533,085942,054349,033028
0000000295,0000019600,085605,055263,032546
0000000296,0000019667,085239,056178,032091
0000000297,0000019733,084858,057093,031649
0000000298,0000019800,084464,058008,031220
0000000299,0000019867,084041,058921,030818
0000000300,0000019933,083606,059833,030430
0000000301,0000020000,083156,060743,030056
0000000302,0000020067,082680,061649,029710
0000000303,0000020133,082191,062552,029379
0000000304,0000020200,081689,063453,029062
0000000305,0000020267,081162,064347,028774
0000000306,0000020333,080622,065236,028501
0000000307,0000020400,080071,066122,028243
0000000308,0000020467,079496,066998,028015
0000000309,0000020533,078909,067869,027802
0000000310,0000020600,078311,068735,027605
0000000311,0000020667,077691,069589,027438
0000000312,0000020733,077060,070436,027286
0000000313,0000020800,076419,071277,027150
0000000314,0000020867,075758,072104,027045
0000000315,0000020933,075087,072923,026955
0000000316,0000021000,074406,073734,026881
0000000317,0000021067,073708,074529,026838
0000000318,0000021133,073000,075315,026811
0000000319,0000021200,072284,076092,026800
0000000320,0000021267,071552,076851,026820
0000000321,0000021333,070812,077599,026856
0000000322,0000021400,070064,078337,026907
0000000323,0000021467,069302,079055,026990
0000000324,0000021533,068534,079762,027088
0000000325,0000021600,067759,080457,027202
0000000326,0000021667,066973,081130,027347
0000000327,0000021733,066180,081791,027507
0000000328,0000021800,065383,082440,027683
0000000329,0000021867,064575,083064,027889
0000000330,0000021933,063764,083675,028111
0000000331,0000022000,062948,084273,028347
0000000332,0000022067,062124,084845,028613
0000000333,0000022133,061298,085403,028895
0000000334,0000022200,060468,085948,029190
0000000335,0000022267,059634,086464,029515
0000000336,0000022333,058797,086966,029855
0000000337,0000022400,057958,087454,030209
0000000338,0000022467,057117,087912,030590
0000000339,0000022533,056275,088355,030986
0000000340,0000022600,055432,088783,031395
0000000341,0000022667,054589,089180,031832
0000000342,0000022733,053747,089561,032282
0000000343,0000022800,052904,089927,032745
0000000344,0000022867,052064,090261,033233
0000000345,0000022933,051226,090578,033734
0000000346,0000023000,050389,090880,034248
0000000347,0000023067,049557,091148,034786
0000000348,0000023133,048727,091400,035336
0000000349,0000023200,047901,091636,035897
0000000350,0000023267,047081,091838,036482
0000000351,0000023333,046265,092023,037077
0000000352,0000023400,045453,092191,037683
0000000353,0000023467,044651,092325,038311
0000000354,0000023533,043853,092442,038948
0000000355,0000023600,043061,092542,039596
0000000356,0000023667,042280,092608,040262
0000000357,0000023733,041505,092656,040938
0000000358,0000023800,040737,092687,041623
0000000359,0000023867,039982,092684,042326
0000000360,0000023933,039235,092663,043037
0000000361,0000024000,038495,092626,043755
0000000362,0000024067,037770,092553,044489
0000000363,0000024133,037054,092464,045231
0000000364,0000024200,036347,092357,045979
0000000365,0000024267,035657,092216,046741
0000000366,0000024333,034977,092059,047508
0000000367,0000024400,034306,091884,048282
0000000368,0000024467,033654,091675,049067
0000000369,0000024533,033013,091450,049856
0000000370,0000024600,032383,091208,050651
0000000371,0000024667,031774,090933,051454
0000000372,0000024733,031176,090641,052262
0000000373,0000024800,030589,090334,053073
0000000374,0000024867,030026,089994,053890
0000000375,0000024933,029474,089638,054711
0000000376,0000025000,028935,089266,055533
0000000377,0000025067,028420,088863,056361
0000000378,0000025133,027918,088444,057189
0000000379,0000025200,027429,088011,058019
0000000380,0000025267,026966,087547,058851
0000000381,0000025333,026517,087068,059683
0000000382,0000025400,026081,086575,060516
0000000383,0000025467,025672,086053,061348
0000000384,0000025533,025278,085517,062179
0000000385,0000025600,024898,084967,063009
0000000386,0000025667,024546,084390,063836
0000000387,0000025733,024209,083800,064661
0000000388,0000025800,023886,083196,065484
0000000389,0000025867,023593,082567,066302
0000000390,0000025933,023315,081926,067117
0000000391,0000026000,023052,081272,067928
0000000392,0000026067,022819,080595,068732
0000000393,0000026133,022602,079906,069532
0000000394,0000026200,022400,079206,070327
0000000395,0000026267,022229,078485,071112
0000000396,0000026333,022074,077753,071892
0000000397,0000026400,021934,077010,072666
0000000398,0000026467,021826,076248,073429
0000000399,0000026533,021733,075477,074184
0000000400,0000026600,021657,074696,074933
0000000401,0000026667,021612,073898,075668
0000000402,0000026733,021583,073092,076396
0000000403,0000026800,021569,072277,077115
0000000404,0000026867,021588,071448,077818
0000000405,0000026933,021622,070611,078513
0000000406,0000027000,021673,069768,079199
0000000407,0000027067,021755,068911,079867
0000000408,0000027133,021853,068049,080525
0000000409,0000027200,021966,067181,081174
0000000410,0000027267,022111,066303,081802
0000000411,0000027333,022272,065420,082420
0000000412,0000027400,022448,064533,083028
0000000413,0000027467,022655,063638,083613
0000000414,0000027533,022877,062739,084187
0000000415,0000027600,023115,061838,084750
0000000416,0000027667,023383,060931,085289
0000000417,0000027733,023666,060022,085817
0000000418,0000027800,023964,059111,086332
0000000419,0000027867,024292,058197,086822
0000000420,0000027933,024634,057283,087299
0000000421,0000028000,024991,056368,087763
0000000422,0000028067,025376,055453,088201
0000000423,0000028133,025775,054538,088625
0000000424,0000028200,026188,053624,089036
0000000425,0000028267,026629,052713,089420
0000000426,0000028333,027083,051803,089789
0000000427,0000028400,027550,050896,090144
0000000428,0000028467,028043,049993,090471
0000000429,0000028533,028549,049094,090783
0000000430,0000028600,029068,048198,091080
0000000431,0000028667,029612,047309,091348
0000000432,0000028733,030167,046425,091601
0000000433,0000028800,030735,045546,091839
0000000434,0000028867,031325,044676,092047
0000000435,0000028933,031927,043813,092240
0000000436,0000029000,032540,042955,092417
0000000437,0000029067,033174,042109,092564
0000000438,0000029133,033818,041271,092695
0000000439,0000029200,034473,040439,092810
0000000440,0000029267,035147,039623,092895
0000000441,0000029333,035831,038814,092963
0000000442,0000029400,036524,038014,093016
0000000443,0000029467,037234,037230,093038
0000000444,0000029533,037953,036457,093044
