DIgSILENT PowerFactory,20000410,2000
3,03A,00D
1,LOHL632-633:Phase Voltage A/Terminal i,,,kV,0.00010000000,-6.421294,0.000000,26907,99998,1,1,P
2,LOHL632-633:Phase Voltage B/Terminal i,,,kV,0.00010000000,-6.356604,0.000000,17978,99998,1,1,P
3,LOHL632-633:Phase Voltage C/Terminal i,,,kV,0.00010000000,-5.564704,0.000000,20596,99998,1,1,P
50
1
15000.000000,3001
21/11/2020,12:52:03.000000
21/11/2020,12:52:03.000000
ASCII
1.000000
0000000001,0000000000,092233,031070,059116
0000000002,0000000067,092729,031478,058254
0000000003,0000000133,093213,031901,057390
0000000004,0000000200,093682,032339,056525
0000000005,0000000267,094123,032807,055659
0000000006,0000000333,094551,033290,054794
0000000007,0000000400,094964,033786,053929
0000000008,0000000467,095348,034311,053065
0000000009,0000000533,095717,034850,052203
0000000010,0000000600,096071,035402,051342
0000000011,0000000667,096395,035982,050485
0000000012,0000000733,096704,036574,049631
0000000013,0000000800,096997,037178,048780
0000000014,0000000867,097260,037808,047935
0000000015,0000000933,097506,038450,047094
0000000016,0000001000,097737,039104,046257
0000000017,0000001067,097937,039782,045428
0000000018,0000001133,098120,040470,044605
0000000019,0000001200,098287,041169,043787
0000000020,0000001267,098422,041890,042980
0000000021,0000001333,098541,042621,042179
0000000022,0000001400,098643,043361,041384
0000000023,0000001467,098713,044121,040603
0000000024,0000001533,098767,044891,039829
0000000025,0000001600,098804,045669,039063
0000000026,0000001667,098808,046464,038312
0000000027,0000001733,098796,047267,037570
0000000028,0000001800,098768,048077,036835
0000000029,0000001867,098706,048903,036119
0000000030,0000001933,098629,049735,035412
0000000031,0000002000,098535,050574,034715
0000000032,0000002067,098408,051426,034037
0000000033,0000002133,098266,052283,033370
0000000034,0000002200,098107,053145,032714
0000000035,0000002267,097916,054018,032079
0000000036,0000002333,097709,054894,031455
0000000037,0000002400,097487,055775,030842
0000000038,0000002467,097232,056664,030254
0000000039,0000002533,096962,057555,029677
0000000040,0000002600,096677,058450,029112
0000000041,0000002667,096361,059349,028573
0000000042,0000002733,096030,060250,028046
0000000043,0000002800,095683,061153,027533
0000000044,0000002867,095307,062058,027046
0000000045,0000002933,094916,062964,026573
0000000046,0000003000,094510,063870,026113
0000000047,0000003067,094076,064776,025682
0000000048,0000003133,093628,065681,025265
0000000049,0000003200,093166,066585,024862
0000000050,0000003267,092676,067486,024488
0000000051,0000003333,092173,068386,024129
0000000052,0000003400,091657,069283,023785
0000000053,0000003467,091114,070175,023471
0000000054,0000003533,090559,071063,023172
0000000055,0000003600,089991,071948,022889
0000000056,0000003667,089399,072825,022637
0000000057,0000003733,088796,073698,022400
0000000058,0000003800,088180,074566,022180
0000000059,0000003867,087542,075424,021990
0000000060,0000003933,086892,076275,021817
0000000061,0000004000,086232,077121,021660
0000000062,0000004067,085551,077954,021535
0000000063,0000004133,084860,078781,021426
0000000064,0000004200,084159,079600,021334
0000000065,0000004267,083439,080404,021274
0000000066,0000004333,082711,081199,021230
0000000067,0000004400,081973,081987,021202
0000000068,0000004467,081218,082757,021208
0000000069,0000004533,080456,083518,021229
0000000070,0000004600,079686,084270,021267
0000000071,0000004667,078901,085002,021337
0000000072,0000004733,078109,085724,021424
0000000073,0000004800,077310,086435,021527
0000000074,0000004867,076499,087125,021662
0000000075,0000004933,075683,087803,021813
0000000076,0000005000,074861,088470,021980
0000000077,0000005067,074028,089114,022179
0000000078,0000005133,073192,089745,022394
0000000079,0000005200,072350,090364,022625
0000000080,0000005267,071502,090957,022887
0000000081,0000005333,070649,091538,023164
0000000082,0000005400,069794,092105,023457
0000000083,0000005467,068933,092645,023781
0000000084,0000005533,068071,093172,024119
0000000085,0000005600,067206,093684,024473
0000000086,0000005667,066338,094168,024856
0000000087,0000005733,065470,094637,025253
0000000088,0000005800,064601,095092,025665
0000000089,0000005867,063732,095517,026106
0000000090,0000005933,062862,095926,026560
0000000091,0000006000,061994,096321,027028
0000000092,0000006067,061127,096684,027524
0000000093,0000006133,060262,097032,028032
0000000094,0000006200,059399,097363,028554
0000000095,0000006267,058541,097663,029101
0000000096,0000006333,057685,097947,029661
0000000097,0000006400,056832,098214,030233
0000000098,0000006467,055986,098448,030830
0000000099,0000006533,055144,098666,031438
0000000100,0000006600,054307,098867,032057
0000000101,0000006667,053478,099035,032699
0000000102,0000006733,052655,099186,033352
0000000103,0000006800,051838,099321,034015
0000000104,0000006867,051032,099421,034699
0000000105,0000006933,050232,099504,035393
0000000106,0000007000,049439,099571,036096
0000000107,0000007067,048660,099603,036818
0000000108,0000007133,047888,099618,037549
0000000109,0000007200,047124,099616,038288
0000000110,0000007267,046376,099580,039044
0000000111,0000007333,045637,099527,039807
0000000112,0000007400,044906,099457,040579
0000000113,0000007467,044194,099353,041364
0000000114,0000007533,043491,099232,042156
0000000115,0000007600,042798,099094,042955
0000000116,0000007667,042125,098922,043766
0000000117,0000007733,041463,098734,044582
0000000118,0000007800,040812,098529,045403
0000000119,0000007867,040182,098290,046234
0000000120,0000007933,039565,098036,047070
0000000121,0000008000,038958,097765,047910
0000000122,0000008067,038376,097461,048757
0000000123,0000008133,037806,097142,049607
0000000124,0000008200,037249,096807,050460
0000000125,0000008267,036717,096440,051318
0000000126,0000008333,036198,096057,052178
0000000127,0000008400,035692,095659,053040
0000000128,0000008467,035214,095231,053905
0000000129,0000008533,034749,094788,054769
0000000130,0000008600,034298,094330,055635
0000000131,0000008667,033875,093843,056501
0000000132,0000008733,033467,093341,057366
0000000133,0000008800,033073,092826,058230
0000000134,0000008867,032709,092282,059092
0000000135,0000008933,032360,091725,059952
0000000136,0000009000,032026,091155,060810
0000000137,0000009067,031722,090559,061663
0000000138,0000009133,031434,089949,062514
0000000139,0000009200,031161,089328,063361
0000000140,0000009267,030919,088682,064201
0000000141,0000009333,030694,088024,065037
0000000142,0000009400,030484,087354,065868
0000000143,0000009467,030306,086662,066690
0000000144,0000009533,030144,085959,067506
0000000145,0000009600,029998,085245,068317
0000000146,0000009667,029885,084511,069116
0000000147,0000009733,029788,083767,069908
0000000148,0000009800,029707,083013,070694
0000000149,0000009867,029659,082241,071465
0000000150,0000009933,029628,081460,072229
0000000151,0000010000,029613,080671,072985
0000000152,0000010067,029630,079865,073725
0000000153,0000010133,029664,079052,074456
0000000154,0000010200,029714,078231,075178
0000000155,0000010267,029797,077396,075882
0000000156,0000010333,029897,076555,076576
0000000157,0000010400,030012,075708,077260
0000000158,0000010467,030160,074849,077924
0000000159,0000010533,030324,073985,078577
0000000160,0000010600,030505,073116,079219
0000000161,0000010667,030717,072238,079839
0000000162,0000010733,030945,071356,080448
0000000163,0000010800,031188,070470,081044
0000000164,0000010867,031463,069577,081617
0000000165,0000010933,031754,068682,082177
0000000166,0000011000,032060,067784,082725
0000000167,0000011067,032396,066882,083247
0000000168,0000011133,032748,065979,083756
0000000169,0000011200,033114,065075,084252
0000000170,0000011267,033510,064169,084721
0000000171,0000011333,033920,063263,085176
0000000172,0000011400,034345,062356,085617
0000000173,0000011467,034798,061452,086029
0000000174,0000011533,035265,060548,086427
0000000175,0000011600,035745,059645,086811
0000000176,0000011667,036253,058746,087165
0000000177,0000011733,036774,057850,087504
0000000178,0000011800,037307,056956,087828
0000000179,0000011867,037867,056069,088122
0000000180,0000011933,038438,055185,088400
0000000181,0000012000,039022,054305,088662
0000000182,0000012067,039630,053434,088894
0000000183,0000012133,040250,052568,089109
0000000184,0000012200,040881,051706,089309
0000000185,0000012267,041534,050856,089477
0000000186,0000012333,042197,050013,089629
0000000187,0000012400,042872,049175,089765
0000000188,0000012467,043566,048351,089868
0000000189,0000012533,044270,047535,089955
0000000190,0000012600,044984,046725,090026
0000000191,0000012667,045715,045932,090064
0000000192,0000012733,046456,045148,090086
0000000193,0000012800,047205,044372,090092
0000000194,0000012867,047970,043614,090065
0000000195,0000012933,048743,042865,090022
0000000196,0000013000,049523,042127,089963
0000000197,0000013067,050317,041408,089871
0000000198,0000013133,051118,040701,089762
0000000199,0000013200,051925,040004,089638
0000000200,0000013267,052743,039329,089481
0000000201,0000013333,053567,038666,089309
0000000202,0000013400,054396,038015,089120
0000000203,0000013467,055234,037387,088900
0000000204,0000013533,056077,036773,088664
0000000205,0000013600,056923,036171,088412
0000000206,0000013667,057776,035595,088130
0000000207,0000013733,058633,035032,087832
0000000208,0000013800,059492,034482,087518
0000000209,0000013867,060355,033961,087175
0000000210,0000013933,061220,033453,086816
0000000211,0000014000,062087,032959,086443
0000000212,0000014067,062956,032495,086041
0000000213,0000014133,063825,032045,085624
0000000214,0000014200,064694,031610,085193
0000000215,0000014267,065563,031206,084734
0000000216,0000014333,066432,030817,084261
0000000217,0000014400,067299,030443,083775
0000000218,0000014467,068164,030100,083262
0000000219,0000014533,069026,029774,082736
0000000220,0000014600,069886,029464,082197
0000000221,0000014667,070741,029185,081633
0000000222,0000014733,071593,028924,081057
0000000223,0000014800,072441,028678,080468
0000000224,0000014867,073282,028466,079856
0000000225,0000014933,074118,028270,079233
0000000226,0000015000,074949,028091,078599
0000000227,0000015067,075771,027945,077942
0000000228,0000015133,076586,027817,077275
0000000229,0000015200,077396,027705,076598
0000000230,0000015267,078194,027627,075901
0000000231,0000015333,078985,027567,075195
0000000232,0000015400,079769,027523,074479
0000000233,0000015467,080538,027514,073745
0000000234,0000015533,081299,027521,073003
0000000235,0000015600,082053,027546,072253
0000000236,0000015667,082789,027605,071487
0000000237,0000015733,083517,027681,070713
0000000238,0000015800,084235,027774,069932
0000000239,0000015867,084935,027900,069138
0000000240,0000015933,085624,028044,068337
0000000241,0000016000,086304,028204,067530
0000000242,0000016067,086963,028399,066712
0000000243,0000016133,087610,028609,065889
0000000244,0000016200,088247,028836,065061
0000000245,0000016267,088861,029097,064224
0000000246,0000016333,089463,029373,063383
0000000247,0000016400,090054,029666,062538
0000000248,0000016467,090620,029990,061687
0000000249,0000016533,091173,030331,060833
0000000250,0000016600,091714,030687,059976
0000000251,0000016667,092228,031075,059116
0000000252,0000016733,092729,031478,058253
0000000253,0000016800,093217,031896,057390
0000000254,0000016867,093677,032344,056525
0000000255,0000016933,094124,032807,055659
0000000256,0000017000,094556,033285,054793
0000000257,0000017067,094959,033791,053928
0000000258,0000017133,095348,034311,053065
0000000259,0000017200,095722,034845,052202
0000000260,0000017267,096066,035407,051342
0000000261,0000017333,096395,035981,050485
0000000262,0000017400,096709,036569,049630
0000000263,0000017467,096992,037183,048780
0000000264,0000017533,097260,037808,047934
0000000265,0000017600,097512,038447,047092
0000000266,0000017667,097732,039108,046258
0000000267,0000017733,097937,039782,045428
0000000268,0000017800,098125,040467,044603
0000000269,0000017867,098282,041173,043788
0000000270,0000017933,098422,041890,042979
0000000271,0000018000,098546,042618,042176
0000000272,0000018067,098638,043365,041386
0000000273,0000018133,098713,044122,040603
0000000274,0000018200,098772,044888,039826
0000000275,0000018267,098798,045672,039065
0000000276,0000018333,098808,046464,038312
0000000277,0000018400,098801,047264,037566
0000000278,0000018467,098762,048080,036838
0000000279,0000018533,098706,048903,036119
0000000280,0000018600,098634,049734,035409
0000000281,0000018667,098529,050577,034718
0000000282,0000018733,098408,051426,034037
0000000283,0000018800,098271,052281,033367
0000000284,0000018867,098101,053147,032717
0000000285,0000018933,097916,054018,032079
0000000286,0000019000,097714,054893,031451
0000000287,0000019067,097481,055777,030846
0000000288,0000019133,097232,056664,030254
0000000289,0000019200,096968,057554,029673
0000000290,0000019267,096672,058450,029117
0000000291,0000019333,096361,059349,028573
0000000292,0000019400,096035,060249,028042
0000000293,0000019467,095678,061153,027537
0000000294,0000019533,095307,062058,027046
0000000295,0000019600,094921,062963,026568
0000000296,0000019667,094506,063870,026118
0000000297,0000019733,094077,064775,025682
0000000298,0000019800,093633,065681,025260
0000000299,0000019867,093161,066584,024867
0000000300,0000019933,092676,067486,024488
0000000301,0000020000,092178,068386,024124
0000000302,0000020067,091652,069282,023790
0000000303,0000020133,091114,070175,023471
0000000304,0000020200,090563,071064,023167
0000000305,0000020267,089987,071947,022894
0000000306,0000020333,089399,072826,022637
0000000307,0000020400,088799,073700,022395
0000000308,0000020467,088176,074565,022185
0000000309,0000020533,087541,075424,021990
0000000310,0000020600,086896,076278,021812
0000000311,0000020667,086228,077120,021665
0000000312,0000020733,085551,077955,021535
0000000313,0000020800,084863,078783,021421
0000000314,0000020867,084156,079598,021339
0000000315,0000020933,083439,080404,021274
0000000316,0000021000,082713,081203,021224
0000000317,0000021067,081970,081985,021208
0000000318,0000021133,081218,082758,021207
0000000319,0000021200,080458,083522,021223
0000000320,0000021267,079683,084267,021272
0000000321,0000021333,078900,085002,021337
0000000322,0000021400,078111,085727,021418
0000000323,0000021467,077308,086431,021532
0000000324,0000021533,076499,087125,021661
0000000325,0000021600,075685,087807,021807
0000000326,0000021667,074859,088466,021985
0000000327,0000021733,074028,089113,022179
0000000328,0000021800,073193,089749,022389
0000000329,0000021867,072349,090359,022630
0000000330,0000021933,071502,090957,022887
0000000331,0000022000,070651,091542,023159
0000000332,0000022067,069793,092100,023462
0000000333,0000022133,068934,092645,023781
0000000334,0000022200,068071,093176,024114
0000000335,0000022267,067206,093679,024478
0000000336,0000022333,066339,094168,024856
0000000337,0000022400,065470,094642,025249
0000000338,0000022467,064601,095087,025670
0000000339,0000022533,063732,095517,026106
0000000340,0000022600,062862,095931,026555
0000000341,0000022667,061994,096316,027033
0000000342,0000022733,061127,096684,027524
0000000343,0000022800,060262,097037,028028
0000000344,0000022867,059400,097358,028558
0000000345,0000022933,058541,097663,029101
0000000346,0000023000,057684,097952,029657
0000000347,0000023067,056833,098209,030237
0000000348,0000023133,055986,098449,030830
0000000349,0000023200,055143,098672,031434
0000000350,0000023267,054308,098862,032061
0000000351,0000023333,053478,099036,032699
0000000352,0000023400,052653,099192,033348
0000000353,0000023467,051839,099315,034019
0000000354,0000023533,051031,099421,034699
0000000355,0000023600,050230,099510,035390
0000000356,0000023667,049441,099565,036099
0000000357,0000023733,048660,099603,036818
0000000358,0000023800,047885,099624,037546
0000000359,0000023867,047127,099611,038291
0000000360,0000023933,046376,099580,039044
0000000361,0000024000,045634,099533,039805
0000000362,0000024067,044909,099451,040581
0000000363,0000024133,044194,099353,041364
0000000364,0000024200,043488,099237,042154
0000000365,0000024267,042802,099088,042957
0000000366,0000024333,042126,098922,043766
0000000367,0000024400,041460,098739,044580
0000000368,0000024467,040816,098523,045405
0000000369,0000024533,040183,098290,046234
0000000370,0000024600,039561,098041,047069
0000000371,0000024667,038963,097759,047911
0000000372,0000024733,038376,097461,048757
0000000373,0000024800,037802,097147,049606
0000000374,0000024867,037253,096801,050461
0000000375,0000024933,036717,096439,051318
0000000376,0000025000,036193,096062,052178
0000000377,0000025067,035697,095654,053041
0000000378,0000025133,035213,095231,053905
0000000379,0000025200,034744,094793,054769
0000000380,0000025267,034302,094325,055635
0000000381,0000025333,033875,093843,056501
0000000382,0000025400,033462,093346,057366
0000000383,0000025467,033078,092821,058230
0000000384,0000025533,032709,092282,059092
0000000385,0000025600,032355,091730,059953
0000000386,0000025667,032030,091151,060809
0000000387,0000025733,031722,090559,061663
0000000388,0000025800,031428,089954,062515
0000000389,0000025867,031166,089324,063360
0000000390,0000025933,030919,088682,064201
0000000391,0000026000,030688,088028,065038
0000000392,0000026067,030489,087350,065866
0000000393,0000026133,030306,086662,066690
0000000394,0000026200,030139,085962,067508
0000000395,0000026267,030004,085242,068315
0000000396,0000026333,029885,084511,069116
0000000397,0000026400,029783,083770,069910
0000000398,0000026467,029713,083010,070691
0000000399,0000026533,029660,082241,071465
0000000400,0000026600,029623,081463,072232
0000000401,0000026667,029618,080668,072983
0000000402,0000026733,029630,079865,073725
0000000403,0000026800,029659,079054,074459
0000000404,0000026867,029720,078229,075175
0000000405,0000026933,029798,077396,075882
0000000406,0000027000,029891,076557,076579
0000000407,0000027067,030018,075706,077257
0000000408,0000027133,030160,074849,077924
0000000409,0000027200,030319,073987,078581
0000000410,0000027267,030510,073114,079216
0000000411,0000027333,030717,072238,079839
0000000412,0000027400,030939,071357,080452
0000000413,0000027467,031194,070468,081041
0000000414,0000027533,031463,069577,081617
0000000415,0000027600,031749,068683,082182
0000000416,0000027667,032065,067783,082721
0000000417,0000027733,032396,066882,083248
0000000418,0000027800,032742,065979,083761
0000000419,0000027867,033119,065074,084248
0000000420,0000027933,033510,064169,084721
0000000421,0000028000,033915,063263,085181
0000000422,0000028067,034349,062357,085612
0000000423,0000028133,034798,061452,086029
0000000424,0000028200,035260,060547,086432
0000000425,0000028267,035750,059646,086806
0000000426,0000028333,036253,058747,087165
0000000427,0000028400,036769,057849,087509
0000000428,0000028467,037312,056957,087823
0000000429,0000028533,037867,056069,088122
0000000430,0000028600,038434,055184,088405
0000000431,0000028667,039026,054306,088657
0000000432,0000028733,039630,053434,088894
0000000433,0000028800,040246,052566,089115
0000000434,0000028867,040884,051708,089304
0000000435,0000028933,041534,050856,089477
0000000436,0000029000,042194,050010,089634
0000000437,0000029067,042875,049177,089759
0000000438,0000029133,043566,048351,089868
0000000439,0000029200,044267,047532,089960
0000000440,0000029267,044987,046728,090021
0000000441,0000029333,045716,045932,090064
0000000442,0000029400,046453,045145,090092
0000000443,0000029467,047208,044375,090087
0000000444,0000029533,047970,043614,090065
