DIgSILENT PowerFactory,20000410,2000
3,03A,00D
1,LOHL671-680:Phase Voltage A/Terminal i,,,kV,0.00010000000,-6.395821,0.000000,18375,99998,1,1,P
2,LOHL671-680:Phase Voltage B/Terminal i,,,kV,0.00010000000,-3.575010,0.000000,-8283,99998,1,1,P
3,LOHL671-680:Phase Voltage C/Terminal i,,,kV,0.00010000000,-5.194517,0.000000,-5392,99998,1,1,P
50
1
15000.000000,3001
21/11/2020,12:22:26.000000
21/11/2020,12:22:26.000000
ASCII
1.000000
0000000001,0000000000,090141,002757,056337
0000000002,0000000067,090655,003160,055510
0000000003,0000000133,091157,003579,054681
0000000004,0000000200,091646,004013,053851
0000000005,0000000267,092109,004476,053019
0000000006,0000000333,092558,004955,052187
0000000007,0000000400,092994,005448,051355
0000000008,0000000467,093402,005970,050523
0000000009,0000000533,093797,006506,049692
0000000010,0000000600,094177,007056,048862
0000000011,0000000667,094529,007633,048035
0000000012,0000000733,094866,008223,047210
0000000013,0000000800,095189,008827,046387
0000000014,0000000867,095482,009456,045569
0000000015,0000000933,095760,010097,044754
0000000016,0000001000,096023,010751,043943
0000000017,0000001067,096256,011428,043139
0000000018,0000001133,096473,012116,042339
0000000019,0000001200,096675,012816,041544
0000000020,0000001267,096846,013538,040759
0000000021,0000001333,097002,014270,039979
0000000022,0000001400,097142,015012,039204
0000000023,0000001467,097250,015774,038442
0000000024,0000001533,097343,016546,037686
0000000025,0000001600,097419,017326,036937
0000000026,0000001667,097464,018124,036202
0000000027,0000001733,097493,018931,035475
0000000028,0000001800,097507,019745,034755
0000000029,0000001867,097488,020575,034052
0000000030,0000001933,097454,021411,033357
0000000031,0000002000,097403,022255,032671
0000000032,0000002067,097321,023111,032003
0000000033,0000002133,097223,023973,031345
0000000034,0000002200,097110,024841,030696
0000000035,0000002267,096965,025720,030068
0000000036,0000002333,096804,026603,029450
0000000037,0000002400,096628,027490,028842
0000000038,0000002467,096420,028385,028257
0000000039,0000002533,096198,029284,027682
0000000040,0000002600,095960,030185,027120
0000000041,0000002667,095692,031092,026580
0000000042,0000002733,095409,032001,026053
0000000043,0000002800,095110,032912,025538
0000000044,0000002867,094783,033826,025048
0000000045,0000002933,094441,034740,024571
0000000046,0000003000,094084,035655,024107
0000000047,0000003067,093699,036570,023669
0000000048,0000003133,093300,037485,023244
0000000049,0000003200,092887,038399,022834
0000000050,0000003267,092446,039310,022450
0000000051,0000003333,091992,040220,022081
0000000052,0000003400,091525,041127,021726
0000000053,0000003467,091032,042030,021399
0000000054,0000003533,090526,042929,021087
0000000055,0000003600,090007,043825,020790
0000000056,0000003667,089463,044713,020522
0000000057,0000003733,088908,045597,020269
0000000058,0000003800,088341,046477,020031
0000000059,0000003867,087750,047346,019823
0000000060,0000003933,087149,048210,019630
0000000061,0000004000,086536,049068,019453
0000000062,0000004067,085902,049913,019307
0000000063,0000004133,085257,050752,019176
0000000064,0000004200,084603,051583,019060
0000000065,0000004267,083928,052400,018976
0000000066,0000004333,083245,053208,018907
0000000067,0000004400,082552,054009,018854
0000000068,0000004467,081842,054792,018832
0000000069,0000004533,081123,055566,018826
0000000070,0000004600,080396,056331,018836
0000000071,0000004667,079653,057076,018877
0000000072,0000004733,078903,057811,018933
0000000073,0000004800,078146,058536,019006
0000000074,0000004867,077375,059239,019109
0000000075,0000004933,076599,059931,019228
0000000076,0000005000,075816,060611,019363
0000000077,0000005067,075021,061268,019528
0000000078,0000005133,074222,061913,019709
0000000079,0000005200,073418,062546,019905
0000000080,0000005267,072605,063153,020131
0000000081,0000005333,071787,063747,020373
0000000082,0000005400,070966,064328,020629
0000000083,0000005467,070139,064881,020915
0000000084,0000005533,069308,065421,021216
0000000085,0000005600,068475,065947,021531
0000000086,0000005667,067638,066444,021875
0000000087,0000005733,066799,066927,022234
0000000088,0000005800,065959,067395,022606
0000000089,0000005867,065116,067832,023006
0000000090,0000005933,064273,068255,023420
0000000091,0000006000,063430,068662,023848
0000000092,0000006067,062588,069038,024302
0000000093,0000006133,061746,069399,024769
0000000094,0000006200,060905,069743,025249
0000000095,0000006267,060067,070055,025755
0000000096,0000006333,059231,070351,026272
0000000097,0000006400,058397,070631,026802
0000000098,0000006467,057569,070877,027356
0000000099,0000006533,056743,071107,027922
0000000100,0000006600,055921,071320,028498
0000000101,0000006667,055106,071500,029098
0000000102,0000006733,054296,071662,029707
0000000103,0000006800,053490,071808,030328
0000000104,0000006867,052694,071919,030969
0000000105,0000006933,051904,072013,031619
0000000106,0000007000,051119,072090,032280
0000000107,0000007067,050346,072133,032959
0000000108,0000007133,049580,072159,033647
0000000109,0000007200,048821,072167,034344
0000000110,0000007267,048076,072140,035057
0000000111,0000007333,047338,072097,035778
0000000112,0000007400,046609,072036,036507
0000000113,0000007467,045895,071941,037251
0000000114,0000007533,045191,071829,038002
0000000115,0000007600,044495,071699,038759
0000000116,0000007667,043818,071536,039529
0000000117,0000007733,043150,071355,040304
0000000118,0000007800,042492,071158,041085
0000000119,0000007867,041854,070927,041877
0000000120,0000007933,041227,070680,042673
0000000121,0000008000,040611,070416,043473
0000000122,0000008067,040017,070119,044282
0000000123,0000008133,039434,069806,045094
0000000124,0000008200,038863,069476,045910
0000000125,0000008267,038315,069115,046731
0000000126,0000008333,037780,068738,047555
0000000127,0000008400,037257,068345,048380
0000000128,0000008467,036760,067922,049210
0000000129,0000008533,036275,067483,050040
0000000130,0000008600,035803,067029,050871
0000000131,0000008667,035358,066545,051704
0000000132,0000008733,034927,066047,052536
0000000133,0000008800,034509,065535,053368
0000000134,0000008867,034120,064994,054199
0000000135,0000008933,033744,064440,055029
0000000136,0000009000,033383,063872,055857
0000000137,0000009067,033050,063277,056682
0000000138,0000009133,032733,062669,057504
0000000139,0000009200,032430,062049,058324
0000000140,0000009267,032156,061403,059138
0000000141,0000009333,031898,060746,059948
0000000142,0000009400,031656,060076,060754
0000000143,0000009467,031443,059384,061552
0000000144,0000009533,031247,058680,062346
0000000145,0000009600,031065,057965,063135
0000000146,0000009667,030915,057230,063913
0000000147,0000009733,030780,056484,064685
0000000148,0000009800,030662,055728,065451
0000000149,0000009867,030574,054954,066205
0000000150,0000009933,030503,054170,066952
0000000151,0000010000,030447,053378,067691
0000000152,0000010067,030424,052569,068416
0000000153,0000010133,030416,051752,069133
0000000154,0000010200,030424,050927,069842
0000000155,0000010267,030463,050088,070534
0000000156,0000010333,030519,049243,071217
0000000157,0000010400,030590,048391,071891
0000000158,0000010467,030694,047526,072546
0000000159,0000010533,030812,046657,073191
0000000160,0000010600,030947,045782,073826
0000000161,0000010667,031113,044898,074441
0000000162,0000010733,031294,044009,075044
0000000163,0000010800,031491,043116,075637
0000000164,0000010867,031719,042217,076208
0000000165,0000010933,031961,041314,076766
0000000166,0000011000,032220,040409,077314
0000000167,0000011067,032508,039499,077837
0000000168,0000011133,032811,038588,078348
0000000169,0000011200,033128,037675,078846
0000000170,0000011267,033475,036760,079319
0000000171,0000011333,033837,035845,079779
0000000172,0000011400,034212,034930,080226
0000000173,0000011467,034616,034015,080646
0000000174,0000011533,035034,033102,081052
0000000175,0000011600,035465,032189,081445
0000000176,0000011667,035924,031280,081809
0000000177,0000011733,036395,030374,082160
0000000178,0000011800,036880,029469,082496
0000000179,0000011867,037391,028571,082803
0000000180,0000011933,037914,027676,083096
0000000181,0000012000,038449,026785,083374
0000000182,0000012067,039008,025902,083622
0000000183,0000012133,039580,025025,083855
0000000184,0000012200,040163,024152,084073
0000000185,0000012267,040768,023290,084260
0000000186,0000012333,041384,022434,084432
0000000187,0000012400,042011,021584,084589
0000000188,0000012467,042659,020748,084715
0000000189,0000012533,043317,019919,084825
0000000190,0000012600,043985,019097,084920
0000000191,0000012667,044672,018291,084984
0000000192,0000012733,045367,017494,085032
0000000193,0000012800,046072,016705,085064
0000000194,0000012867,046794,015934,085065
0000000195,0000012933,047523,015172,085050
0000000196,0000013000,048261,014421,085019
0000000197,0000013067,049013,013689,084957
0000000198,0000013133,049773,012968,084880
0000000199,0000013200,050539,012258,084787
0000000200,0000013267,051318,011570,084663
0000000201,0000013333,052103,010893,084523
0000000202,0000013400,052893,010228,084368
0000000203,0000013467,053694,009587,084182
0000000204,0000013533,054500,008959,083981
0000000205,0000013600,055310,008344,083764
0000000206,0000013667,056129,007754,083518
0000000207,0000013733,056951,007178,083256
0000000208,0000013800,057777,006615,082980
0000000209,0000013867,058608,006080,082675
0000000210,0000013933,059442,005559,082354
0000000211,0000014000,060278,005052,082020
0000000212,0000014067,061118,004574,081657
0000000213,0000014133,061958,004111,081279
0000000214,0000014200,062800,003663,080888
0000000215,0000014267,063643,003245,080470
0000000216,0000014333,064486,002843,080038
0000000217,0000014400,065329,002457,079593
0000000218,0000014467,066170,002101,079121
0000000219,0000014533,067011,001762,078637
0000000220,0000014600,067850,001439,078140
0000000221,0000014667,068685,001149,077618
0000000222,0000014733,069518,000875,077084
0000000223,0000014800,070349,000617,076538
0000000224,0000014867,071173,000393,075969
0000000225,0000014933,071994,000185,075388
0000000226,0000015000,072811,-00006,074796
0000000227,0000015067,073620,-00163,074183
0000000228,0000015133,074424,-00302,073559
0000000229,0000015200,075224,-00425,072925
0000000230,0000015267,076012,-00514,072271
0000000231,0000015333,076795,-00585,071608
0000000232,0000015400,077572,-00639,070935
0000000233,0000015467,078336,-00659,070244
0000000234,0000015533,079093,-00661,069544
0000000235,0000015600,079843,-00646,068836
0000000236,0000015667,080578,-00597,068112
0000000237,0000015733,081305,-00530,067381
0000000238,0000015800,082024,-00447,066642
0000000239,0000015867,082725,-00329,065889
0000000240,0000015933,083418,-00193,065129
0000000241,0000016000,084102,-00041,064364
0000000242,0000016067,084766,000145,063586
0000000243,0000016133,085421,000348,062803
0000000244,0000016200,086065,000567,062015
0000000245,0000016267,086689,000821,061217
0000000246,0000016333,087302,001090,060416
0000000247,0000016400,087903,001376,059609
0000000248,0000016467,088482,001695,058796
0000000249,0000016533,089050,002029,057980
0000000250,0000016600,089605,002380,057160
0000000251,0000016667,090136,002762,056336
0000000252,0000016733,090655,003160,055509
0000000253,0000016800,091161,003574,054681
0000000254,0000016867,091642,004018,053850
0000000255,0000016933,092109,004476,053019
0000000256,0000017000,092563,004950,052187
0000000257,0000017067,092990,005453,051354
0000000258,0000017133,093403,005970,050522
0000000259,0000017200,093802,006501,049691
0000000260,0000017267,094173,007061,048862
0000000261,0000017333,094529,007633,048034
0000000262,0000017400,094871,008219,047208
0000000263,0000017467,095184,008831,046386
0000000264,0000017533,095482,009456,045568
0000000265,0000017600,095765,010093,044752
0000000266,0000017667,096018,010755,043943
0000000267,0000017733,096256,011428,043138
0000000268,0000017800,096478,012113,042337
0000000269,0000017867,096670,012820,041545
0000000270,0000017933,096846,013538,040758
0000000271,0000018000,097007,014267,039976
0000000272,0000018067,097136,015016,039206
0000000273,0000018133,097249,015775,038441
0000000274,0000018200,097347,016543,037683
0000000275,0000018267,097413,017330,036939
0000000276,0000018333,097464,018125,036202
0000000277,0000018400,097498,018928,035472
0000000278,0000018467,097501,019748,034757
0000000279,0000018533,097487,020575,034051
0000000280,0000018600,097458,021409,033354
0000000281,0000018667,097397,022257,032674
0000000282,0000018733,097321,023111,032003
0000000283,0000018800,097228,023972,031341
0000000284,0000018867,097104,024843,030699
0000000285,0000018933,096964,025720,030068
0000000286,0000019000,096809,026601,029446
0000000287,0000019067,096622,027491,028846
0000000288,0000019133,096420,028385,028257
0000000289,0000019200,096203,029283,027679
0000000290,0000019267,095955,030186,027124
0000000291,0000019333,095692,031092,026580
0000000292,0000019400,095414,032001,026049
0000000293,0000019467,095106,032913,025542
0000000294,0000019533,094783,033826,025048
0000000295,0000019600,094446,034740,024567
0000000296,0000019667,094080,035655,024111
0000000297,0000019733,093699,036570,023669
0000000298,0000019800,093305,037485,023240
0000000299,0000019867,092883,038398,022838
0000000300,0000019933,092447,039310,022450
0000000301,0000020000,091997,040220,022076
0000000302,0000020067,091521,041126,021731
0000000303,0000020133,091032,042030,021399
0000000304,0000020200,090530,042930,021082
0000000305,0000020267,090003,043824,020795
0000000306,0000020333,089464,044714,020522
0000000307,0000020400,088912,045599,020264
0000000308,0000020467,088337,046476,020036
0000000309,0000020533,087750,047347,019823
0000000310,0000020600,087152,048212,019625
0000000311,0000020667,086532,049066,019458
0000000312,0000020733,085901,049914,019306
0000000313,0000020800,085260,050755,019170
0000000314,0000020867,084599,051581,019065
0000000315,0000020933,083928,052400,018975
0000000316,0000021000,083248,053212,018901
0000000317,0000021067,082549,054006,018859
0000000318,0000021133,081841,054792,018832
0000000319,0000021200,081125,055569,018821
0000000320,0000021267,080393,056328,018841
0000000321,0000021333,079653,057076,018876
0000000322,0000021400,078905,057815,018928
0000000323,0000021467,078144,058532,019010
0000000324,0000021533,077375,059239,019109
0000000325,0000021600,076601,059934,019223
0000000326,0000021667,075814,060607,019368
0000000327,0000021733,075022,061268,019528
0000000328,0000021800,074224,061917,019703
0000000329,0000021867,073416,062541,019910
0000000330,0000021933,072605,063152,020131
0000000331,0000022000,071789,063751,020367
0000000332,0000022067,070965,064322,020634
0000000333,0000022133,070139,064881,020915
0000000334,0000022200,069309,065425,021211
0000000335,0000022267,068475,065942,021536
0000000336,0000022333,067638,066444,021875
0000000337,0000022400,066799,066931,022229
0000000338,0000022467,065958,067389,022611
0000000339,0000022533,065116,067832,023006
0000000340,0000022600,064273,068260,023416
0000000341,0000022667,063430,068657,023852
0000000342,0000022733,062588,069038,024302
0000000343,0000022800,061746,069404,024765
0000000344,0000022867,060906,069738,025254
0000000345,0000022933,060067,070055,025755
0000000346,0000023000,059230,070357,026268
0000000347,0000023067,058398,070626,026806
0000000348,0000023133,057569,070878,027356
0000000349,0000023200,056742,071113,027918
0000000350,0000023267,055922,071315,028502
0000000351,0000023333,055106,071500,029097
0000000352,0000023400,054295,071668,029704
0000000353,0000023467,053492,071803,030331
0000000354,0000023533,052694,071920,030969
0000000355,0000023600,051902,072020,031616
0000000356,0000023667,051121,072085,032283
0000000357,0000023733,050347,072133,032959
0000000358,0000023800,049578,072165,033644
0000000359,0000023867,048823,072161,034346
0000000360,0000023933,048076,072141,035057
0000000361,0000024000,047336,072103,035776
0000000362,0000024067,046612,072030,036510
0000000363,0000024133,045896,071941,037251
0000000364,0000024200,045188,071834,037999
0000000365,0000024267,044498,071694,038761
0000000366,0000024333,043818,071536,039529
0000000367,0000024400,043147,071361,040302
0000000368,0000024467,042496,071152,041087
0000000369,0000024533,041855,070927,041877
0000000370,0000024600,041224,070685,042671
0000000371,0000024667,040615,070410,043475
0000000372,0000024733,040017,070119,044282
0000000373,0000024800,039430,069811,045093
0000000374,0000024867,038867,069471,045911
0000000375,0000024933,038315,069115,046731
0000000376,0000025000,037776,068743,047554
0000000377,0000025067,037261,068340,048381
0000000378,0000025133,036759,067922,049209
0000000379,0000025200,036270,067488,050040
0000000380,0000025267,035807,067024,050871
0000000381,0000025333,035358,066545,051704
0000000382,0000025400,034922,066052,052536
0000000383,0000025467,034514,065530,053368
0000000384,0000025533,034119,064994,054199
0000000385,0000025600,033739,064444,055029
0000000386,0000025667,033387,063867,055856
0000000387,0000025733,033050,063277,056682
0000000388,0000025800,032727,062673,057505
0000000389,0000025867,032434,062044,058323
0000000390,0000025933,032156,061403,059137
0000000391,0000026000,031893,060750,059949
0000000392,0000026067,031661,060072,060753
0000000393,0000026133,031443,059384,061552
0000000394,0000026200,031241,058684,062347
0000000395,0000026267,031070,057962,063133
0000000396,0000026333,030915,057230,063912
0000000397,0000026400,030775,056487,064687
0000000398,0000026467,030667,055725,065449
0000000399,0000026533,030575,054954,066205
0000000400,0000026600,030498,054173,066954
0000000401,0000026667,030453,053375,067689
0000000402,0000026733,030424,052569,068416
0000000403,0000026800,030411,051755,069136
0000000404,0000026867,030429,050925,069839
0000000405,0000026933,030464,050089,070534
0000000406,0000027000,030514,049245,071220
0000000407,0000027067,030596,048389,071887
0000000408,0000027133,030694,047527,072546
0000000409,0000027200,030807,046659,073194
0000000410,0000027267,030952,045780,073823
0000000411,0000027333,031113,044898,074441
0000000412,0000027400,031289,044010,075048
0000000413,0000027467,031496,043115,075634
0000000414,0000027533,031719,042217,076208
0000000415,0000027600,031956,041315,076771
0000000416,0000027667,032224,040408,077310
0000000417,0000027733,032508,039499,077837
0000000418,0000027800,032806,038588,078352
0000000419,0000027867,033133,037674,078842
0000000420,0000027933,033475,036760,079319
0000000421,0000028000,033832,035845,079783
0000000422,0000028067,034217,034930,080221
0000000423,0000028133,034616,034015,080646
0000000424,0000028200,035029,033101,081057
0000000425,0000028267,035470,032190,081440
0000000426,0000028333,035924,031281,081809
0000000427,0000028400,036391,030373,082165
0000000428,0000028467,036884,029470,082491
0000000429,0000028533,037391,028571,082803
0000000430,0000028600,037909,027675,083101
0000000431,0000028667,038453,026787,083369
0000000432,0000028733,039008,025903,083622
0000000433,0000028800,039576,025023,083860
0000000434,0000028867,040166,024154,084068
0000000435,0000028933,040768,023290,084260
0000000436,0000029000,041381,022432,084437
0000000437,0000029067,042015,021586,084584
0000000438,0000029133,042659,020748,084715
0000000439,0000029200,043314,019916,084831
0000000440,0000029267,043988,019100,084915
0000000441,0000029333,044672,018291,084984
0000000442,0000029400,045365,017491,085037
0000000443,0000029467,046075,016708,085059
0000000444,0000029533,046794,015934,085065
