DIgSILENT PowerFactory,20000410,2000
3,03A,00D
1,LOHL632-633:Phase Voltage A/Terminal i,,,kV,0.00010000000,-4.983435,0.000000,6871,99998,1,1,P
2,LOHL632-633:Phase Voltage B/Terminal i,,,kV,0.00010000000,-6.194724,0.000000,15960,99998,1,1,P
3,LOHL632-633:Phase Voltage C/Terminal i,,,kV,0.00010000000,-6.139104,0.000000,18623,99998,1,1,P
50
1
15000.000000,3001
21/11/2020,12:47:24.000000
21/11/2020,12:47:24.000000
ASCII
1.000000
0000000001,0000000000,077854,029451,064860
0000000002,0000000067,078351,029859,063998
0000000003,0000000133,078834,030282,063134
0000000004,0000000200,079303,030720,062269
0000000005,0000000267,079745,031188,061403
0000000006,0000000333,080172,031671,060538
0000000007,0000000400,080585,032167,059673
0000000008,0000000467,080969,032692,058809
0000000009,0000000533,081338,033231,057947
0000000010,0000000600,081692,033784,057086
0000000011,0000000667,082016,034363,056229
0000000012,0000000733,082325,034955,055375
0000000013,0000000800,082619,035560,054524
0000000014,0000000867,082881,036190,053679
0000000015,0000000933,083128,036832,052838
0000000016,0000001000,083359,037486,052001
0000000017,0000001067,083558,038163,051172
0000000018,0000001133,083741,038851,050349
0000000019,0000001200,083909,039550,049531
0000000020,0000001267,084044,040271,048724
0000000021,0000001333,084162,041002,047923
0000000022,0000001400,084265,041743,047128
0000000023,0000001467,084335,042503,046347
0000000024,0000001533,084388,043272,045573
0000000025,0000001600,084425,044050,044807
0000000026,0000001667,084430,044845,044056
0000000027,0000001733,084418,045648,043314
0000000028,0000001800,084389,046459,042579
0000000029,0000001867,084328,047284,041863
0000000030,0000001933,084250,048116,041156
0000000031,0000002000,084156,048956,040459
0000000032,0000002067,084030,049807,039781
0000000033,0000002133,083887,050664,039114
0000000034,0000002200,083729,051526,038458
0000000035,0000002267,083538,052399,037823
0000000036,0000002333,083331,053275,037199
0000000037,0000002400,083108,054156,036586
0000000038,0000002467,082854,055045,035998
0000000039,0000002533,082584,055936,035421
0000000040,0000002600,082298,056831,034856
0000000041,0000002667,081982,057730,034317
0000000042,0000002733,081651,058631,033790
0000000043,0000002800,081305,059534,033277
0000000044,0000002867,080928,060439,032790
0000000045,0000002933,080537,061345,032317
0000000046,0000003000,080132,062251,031857
0000000047,0000003067,079698,063157,031426
0000000048,0000003133,079249,064062,031009
0000000049,0000003200,078787,064966,030606
0000000050,0000003267,078297,065867,030232
0000000051,0000003333,077794,066767,029873
0000000052,0000003400,077278,067664,029529
0000000053,0000003467,076735,068556,029215
0000000054,0000003533,076180,069444,028916
0000000055,0000003600,075613,070329,028633
0000000056,0000003667,075021,071207,028381
0000000057,0000003733,074417,072079,028144
0000000058,0000003800,073801,072947,027924
0000000059,0000003867,073163,073805,027734
0000000060,0000003933,072514,074657,027561
0000000061,0000004000,071854,075503,027404
0000000062,0000004067,071173,076336,027279
0000000063,0000004133,070482,077162,027170
0000000064,0000004200,069781,077981,027078
0000000065,0000004267,069061,078785,027018
0000000066,0000004333,068332,079581,026974
0000000067,0000004400,067594,080368,026946
0000000068,0000004467,066840,081138,026952
0000000069,0000004533,066077,081899,026973
0000000070,0000004600,065307,082651,027011
0000000071,0000004667,064522,083383,027081
0000000072,0000004733,063730,084105,027168
0000000073,0000004800,062932,084816,027271
0000000074,0000004867,062121,085506,027406
0000000075,0000004933,061304,086184,027557
0000000076,0000005000,060482,086851,027724
0000000077,0000005067,059650,087495,027923
0000000078,0000005133,058813,088126,028138
0000000079,0000005200,057972,088745,028369
0000000080,0000005267,057123,089339,028631
0000000081,0000005333,056271,089919,028908
0000000082,0000005400,055415,090486,029201
0000000083,0000005467,054555,091027,029525
0000000084,0000005533,053692,091553,029863
0000000085,0000005600,052827,092065,030217
0000000086,0000005667,051960,092549,030600
0000000087,0000005733,051092,093019,030997
0000000088,0000005800,050222,093473,031409
0000000089,0000005867,049353,093898,031850
0000000090,0000005933,048484,094308,032304
0000000091,0000006000,047615,094702,032772
0000000092,0000006067,046749,095065,033268
0000000093,0000006133,045884,095413,033776
0000000094,0000006200,045021,095744,034298
0000000095,0000006267,044162,096044,034845
0000000096,0000006333,043306,096328,035405
0000000097,0000006400,042453,096595,035977
0000000098,0000006467,041608,096829,036574
0000000099,0000006533,040766,097047,037182
0000000100,0000006600,039928,097249,037801
0000000101,0000006667,039100,097417,038443
0000000102,0000006733,038277,097568,039096
0000000103,0000006800,037459,097702,039759
0000000104,0000006867,036653,097802,040443
0000000105,0000006933,035853,097886,041137
0000000106,0000007000,035060,097952,041840
0000000107,0000007067,034281,097984,042562
0000000108,0000007133,033509,097999,043293
0000000109,0000007200,032745,097997,044032
0000000110,0000007267,031997,097961,044788
0000000111,0000007333,031258,097908,045551
0000000112,0000007400,030527,097838,046323
0000000113,0000007467,029815,097734,047108
0000000114,0000007533,029112,097613,047900
0000000115,0000007600,028419,097475,048699
0000000116,0000007667,027747,097303,049510
0000000117,0000007733,027085,097115,050326
0000000118,0000007800,026433,096910,051147
0000000119,0000007867,025804,096672,051978
0000000120,0000007933,025186,096417,052814
0000000121,0000008000,024580,096146,053654
0000000122,0000008067,023998,095843,054501
0000000123,0000008133,023428,095523,055351
0000000124,0000008200,022870,095188,056204
0000000125,0000008267,022338,094821,057062
0000000126,0000008333,021819,094438,057922
0000000127,0000008400,021314,094041,058784
0000000128,0000008467,020835,093612,059649
0000000129,0000008533,020370,093169,060513
0000000130,0000008600,019919,092711,061379
0000000131,0000008667,019497,092224,062245
0000000132,0000008733,019088,091722,063110
0000000133,0000008800,018695,091207,063974
0000000134,0000008867,018330,090663,064836
0000000135,0000008933,017981,090107,065696
0000000136,0000009000,017647,089536,066554
0000000137,0000009067,017343,088940,067407
0000000138,0000009133,017055,088331,068258
0000000139,0000009200,016782,087709,069105
0000000140,0000009267,016541,087063,069945
0000000141,0000009333,016315,086405,070781
0000000142,0000009400,016105,085735,071612
0000000143,0000009467,015927,085043,072434
0000000144,0000009533,015766,084340,073250
0000000145,0000009600,015620,083626,074061
0000000146,0000009667,015507,082892,074860
0000000147,0000009733,015410,082148,075652
0000000148,0000009800,015329,081394,076438
0000000149,0000009867,015281,080622,077209
0000000150,0000009933,015249,079841,077973
0000000151,0000010000,015234,079052,078729
0000000152,0000010067,015252,078246,079469
0000000153,0000010133,015286,077433,080200
0000000154,0000010200,015336,076612,080922
0000000155,0000010267,015419,075778,081626
0000000156,0000010333,015518,074937,082320
0000000157,0000010400,015634,074089,083004
0000000158,0000010467,015782,073230,083668
0000000159,0000010533,015946,072366,084321
0000000160,0000010600,016126,071497,084963
0000000161,0000010667,016338,070619,085583
0000000162,0000010733,016566,069737,086192
0000000163,0000010800,016810,068851,086788
0000000164,0000010867,017085,067958,087361
0000000165,0000010933,017375,067063,087921
0000000166,0000011000,017681,066165,088469
0000000167,0000011067,018018,065263,088991
0000000168,0000011133,018369,064360,089500
0000000169,0000011200,018735,063456,089996
0000000170,0000011267,019131,062550,090465
0000000171,0000011333,019541,061644,090920
0000000172,0000011400,019966,060738,091361
0000000173,0000011467,020419,059833,091773
0000000174,0000011533,020886,058929,092171
0000000175,0000011600,021367,058026,092555
0000000176,0000011667,021874,057128,092909
0000000177,0000011733,022395,056231,093248
0000000178,0000011800,022929,055338,093572
0000000179,0000011867,023488,054450,093866
0000000180,0000011933,024060,053566,094144
0000000181,0000012000,024644,052686,094406
0000000182,0000012067,025252,051815,094638
0000000183,0000012133,025871,050949,094853
0000000184,0000012200,026502,050087,095053
0000000185,0000012267,027155,049237,095221
0000000186,0000012333,027819,048394,095373
0000000187,0000012400,028493,047556,095509
0000000188,0000012467,029187,046732,095612
0000000189,0000012533,029891,045916,095699
0000000190,0000012600,030605,045107,095770
0000000191,0000012667,031337,044313,095808
0000000192,0000012733,032077,043529,095830
0000000193,0000012800,032826,042753,095836
0000000194,0000012867,033592,041995,095809
0000000195,0000012933,034364,041247,095766
0000000196,0000013000,035144,040508,095707
0000000197,0000013067,035939,039790,095615
0000000198,0000013133,036739,039082,095506
0000000199,0000013200,037546,038385,095382
0000000200,0000013267,038365,037710,095225
0000000201,0000013333,039188,037047,095053
0000000202,0000013400,040017,036396,094864
0000000203,0000013467,040856,035769,094644
0000000204,0000013533,041698,035154,094408
0000000205,0000013600,042545,034552,094156
0000000206,0000013667,043398,033976,093874
0000000207,0000013733,044254,033413,093576
0000000208,0000013800,045113,032864,093262
0000000209,0000013867,045977,032342,092919
0000000210,0000013933,046842,031834,092560
0000000211,0000014000,047708,031341,092187
0000000212,0000014067,048577,030876,091785
0000000213,0000014133,049446,030426,091368
0000000214,0000014200,050316,029992,090937
0000000215,0000014267,051185,029587,090478
0000000216,0000014333,052053,029198,090005
0000000217,0000014400,052920,028824,089519
0000000218,0000014467,053785,028482,089006
0000000219,0000014533,054647,028155,088480
0000000220,0000014600,055508,027845,087941
0000000221,0000014667,056363,027567,087377
0000000222,0000014733,057214,027305,086801
0000000223,0000014800,058063,027059,086212
0000000224,0000014867,058903,026847,085600
0000000225,0000014933,059739,026651,084977
0000000226,0000015000,060571,026472,084343
0000000227,0000015067,061392,026326,083686
0000000228,0000015133,062208,026198,083019
0000000229,0000015200,063018,026086,082342
0000000230,0000015267,063815,026009,081645
0000000231,0000015333,064606,025948,080939
0000000232,0000015400,065390,025904,080223
0000000233,0000015467,066159,025895,079489
0000000234,0000015533,066921,025902,078747
0000000235,0000015600,067674,025927,077997
0000000236,0000015667,068410,025986,077231
0000000237,0000015733,069138,026062,076457
0000000238,0000015800,069857,026155,075676
0000000239,0000015867,070556,026282,074882
0000000240,0000015933,071246,026425,074081
0000000241,0000016000,071925,026586,073274
0000000242,0000016067,072584,026780,072456
0000000243,0000016133,073232,026990,071633
0000000244,0000016200,073869,027218,070805
0000000245,0000016267,074483,027478,069968
0000000246,0000016333,075085,027754,069127
0000000247,0000016400,075675,028047,068282
0000000248,0000016467,076241,028372,067431
0000000249,0000016533,076794,028712,066577
0000000250,0000016600,077335,029069,065720
0000000251,0000016667,077850,029456,064860
0000000252,0000016733,078351,029859,063997
0000000253,0000016800,078838,030277,063134
0000000254,0000016867,079299,030726,062269
0000000255,0000016933,079745,031188,061403
0000000256,0000017000,080177,031666,060537
0000000257,0000017067,080581,032172,059672
0000000258,0000017133,080969,032692,058809
0000000259,0000017200,081343,033227,057946
0000000260,0000017267,081688,033788,057086
0000000261,0000017333,082017,034363,056229
0000000262,0000017400,082331,034950,055374
0000000263,0000017467,082614,035564,054524
0000000264,0000017533,082881,036190,053678
0000000265,0000017600,083133,036828,052836
0000000266,0000017667,083354,037490,052002
0000000267,0000017733,083558,038163,051172
0000000268,0000017800,083747,038848,050347
0000000269,0000017867,083903,039554,049532
0000000270,0000017933,084043,040271,048723
0000000271,0000018000,084168,040999,047920
0000000272,0000018067,084259,041746,047130
0000000273,0000018133,084334,042503,046347
0000000274,0000018200,084393,043269,045570
0000000275,0000018267,084419,044053,044809
0000000276,0000018333,084429,044845,044056
0000000277,0000018400,084422,045646,043310
0000000278,0000018467,084383,046462,042582
0000000279,0000018533,084327,047285,041863
0000000280,0000018600,084255,048115,041153
0000000281,0000018667,084150,048958,040462
0000000282,0000018733,084029,049807,039781
0000000283,0000018800,083892,050662,039111
0000000284,0000018867,083723,051528,038461
0000000285,0000018933,083537,052399,037823
0000000286,0000019000,083336,053274,037195
0000000287,0000019067,083103,054158,036590
0000000288,0000019133,082854,055045,035998
0000000289,0000019200,082589,055935,035417
0000000290,0000019267,082293,056831,034861
0000000291,0000019333,081983,057730,034317
0000000292,0000019400,081656,058630,033786
0000000293,0000019467,081300,059534,033281
0000000294,0000019533,080929,060439,032790
0000000295,0000019600,080543,061345,032312
0000000296,0000019667,080127,062251,031862
0000000297,0000019733,079698,063157,031426
0000000298,0000019800,079254,064062,031004
0000000299,0000019867,078783,064966,030611
0000000300,0000019933,078298,065867,030232
0000000301,0000020000,077799,066768,029868
0000000302,0000020067,077274,067663,029534
0000000303,0000020133,076736,068556,029215
0000000304,0000020200,076185,069446,028911
0000000305,0000020267,075609,070328,028638
0000000306,0000020333,075021,071207,028381
0000000307,0000020400,074421,072081,028139
0000000308,0000020467,073797,072946,027929
0000000309,0000020533,073163,073805,027734
0000000310,0000020600,072517,074659,027556
0000000311,0000020667,071850,075501,027409
0000000312,0000020733,071172,076336,027279
0000000313,0000020800,070485,077165,027165
0000000314,0000020867,069777,077979,027083
0000000315,0000020933,069061,078785,027018
0000000316,0000021000,068335,079584,026968
0000000317,0000021067,067591,080366,026952
0000000318,0000021133,066840,081139,026951
0000000319,0000021200,066080,081903,026967
0000000320,0000021267,065304,082648,027016
0000000321,0000021333,064522,083383,027081
0000000322,0000021400,063732,084108,027162
0000000323,0000021467,062930,084813,027276
0000000324,0000021533,062121,085506,027405
0000000325,0000021600,061306,086188,027551
0000000326,0000021667,060480,086847,027729
0000000327,0000021733,059650,087495,027923
0000000328,0000021800,058814,088130,028133
0000000329,0000021867,057971,088741,028374
0000000330,0000021933,057123,089338,028631
0000000331,0000022000,056272,089923,028903
0000000332,0000022067,055415,090482,029206
0000000333,0000022133,054555,091026,029525
0000000334,0000022200,053693,091557,029858
0000000335,0000022267,052827,092060,030222
0000000336,0000022333,051960,092549,030600
0000000337,0000022400,051092,093023,030993
0000000338,0000022467,050222,093468,031414
0000000339,0000022533,049353,093898,031850
0000000340,0000022600,048484,094313,032299
0000000341,0000022667,047616,094697,032777
0000000342,0000022733,046749,095065,033268
0000000343,0000022800,045883,095418,033772
0000000344,0000022867,045021,095739,034302
0000000345,0000022933,044162,096044,034845
0000000346,0000023000,043305,096333,035401
0000000347,0000023067,042454,096590,035981
0000000348,0000023133,041607,096830,036574
0000000349,0000023200,040764,097053,037178
0000000350,0000023267,039929,097243,037805
0000000351,0000023333,039100,097417,038443
0000000352,0000023400,038275,097574,039092
0000000353,0000023467,037461,097697,039763
0000000354,0000023533,036653,097803,040443
0000000355,0000023600,035851,097892,041134
0000000356,0000023667,035062,097947,041843
0000000357,0000023733,034281,097984,042562
0000000358,0000023800,033507,098005,043290
0000000359,0000023867,032748,097992,044035
0000000360,0000023933,031998,097962,044788
0000000361,0000024000,031255,097914,045549
0000000362,0000024067,030531,097833,046325
0000000363,0000024133,029815,097734,047108
0000000364,0000024200,029109,097619,047898
0000000365,0000024267,028423,097469,048701
0000000366,0000024333,027747,097303,049510
0000000367,0000024400,027081,097120,050324
0000000368,0000024467,026437,096904,051149
0000000369,0000024533,025804,096671,051978
0000000370,0000024600,025182,096422,052813
0000000371,0000024667,024584,096140,053655
0000000372,0000024733,023998,095842,054501
0000000373,0000024800,023424,095528,055350
0000000374,0000024867,022874,095182,056205
0000000375,0000024933,022338,094821,057062
0000000376,0000025000,021815,094443,057922
0000000377,0000025067,021318,094035,058785
0000000378,0000025133,020835,093612,059649
0000000379,0000025200,020365,093174,060513
0000000380,0000025267,019924,092706,061379
0000000381,0000025333,019496,092224,062245
0000000382,0000025400,019083,091727,063110
0000000383,0000025467,018699,091202,063974
0000000384,0000025533,018330,090663,064836
0000000385,0000025600,017976,090111,065697
0000000386,0000025667,017652,089532,066553
0000000387,0000025733,017343,088940,067407
0000000388,0000025800,017050,088335,068259
0000000389,0000025867,016787,087705,069104
0000000390,0000025933,016541,087063,069945
0000000391,0000026000,016310,086409,070782
0000000392,0000026067,016110,085731,071610
0000000393,0000026133,015927,085043,072434
0000000394,0000026200,015760,084344,073252
0000000395,0000026267,015625,083623,074059
0000000396,0000026333,015507,082892,074860
0000000397,0000026400,015404,082151,075654
0000000398,0000026467,015334,081391,076435
0000000399,0000026533,015281,080622,077209
0000000400,0000026600,015244,079844,077976
0000000401,0000026667,015240,079049,078727
0000000402,0000026733,015252,078246,079469
0000000403,0000026800,015280,077435,080203
0000000404,0000026867,015341,076610,080919
0000000405,0000026933,015419,075778,081626
0000000406,0000027000,015513,074939,082323
0000000407,0000027067,015639,074087,083001
0000000408,0000027133,015782,073230,083668
0000000409,0000027200,015941,072368,084325
0000000410,0000027267,016131,071496,084960
0000000411,0000027333,016338,070619,085583
0000000412,0000027400,016561,069738,086196
0000000413,0000027467,016815,068850,086785
0000000414,0000027533,017085,067958,087361
0000000415,0000027600,017370,067064,087926
0000000416,0000027667,017686,066165,088465
0000000417,0000027733,018017,065264,088992
0000000418,0000027800,018364,064361,089505
0000000419,0000027867,018740,063456,089992
0000000420,0000027933,019131,062550,090465
0000000421,0000028000,019536,061644,090925
0000000422,0000028067,019971,060738,091356
0000000423,0000028133,020419,059833,091773
0000000424,0000028200,020881,058929,092176
0000000425,0000028267,021371,058027,092550
0000000426,0000028333,021874,057128,092909
0000000427,0000028400,022391,056230,093253
0000000428,0000028467,022933,055339,093567
0000000429,0000028533,023488,054450,093866
0000000430,0000028600,024056,053565,094149
0000000431,0000028667,024648,052688,094401
0000000432,0000028733,025252,051815,094638
0000000433,0000028800,025867,050947,094859
0000000434,0000028867,026506,050089,095048
0000000435,0000028933,027155,049238,095221
0000000436,0000029000,027815,048392,095378
0000000437,0000029067,028496,047558,095503
0000000438,0000029133,029187,046732,095612
0000000439,0000029200,029888,045913,095704
0000000440,0000029267,030608,045109,095765
0000000441,0000029333,031337,044313,095808
0000000442,0000029400,032075,043526,095836
0000000443,0000029467,032829,042756,095831
0000000444,0000029533,033592,041995,095809
