DIgSILENT PowerFactory,20000410,2000
10,10A,00D
1,LC684-652A:Phase Voltage A/Terminal i,,,kV,0.00010000000,-6.559256,0.000000,22246,99998,1,1,P
2,LC684-652A:Phase Voltage C/Terminal i,,,kV,0.00010000000,-5.772114,0.000000,18325,99998,1,1,P
3,LC692-675:Phase Voltage A/Terminal i,,,kV,0.00010000000,-6.551406,0.000000,21918,99998,1,1,P
4,LC692-675:Phase Voltage B/Terminal i,,,kV,0.00010000000,-5.638821,0.000000,13530,99998,1,1,P
5,LC692-675:Phase Voltage C/Terminal i,,,kV,0.00010000000,-5.784712,0.000000,18658,99998,1,1,P
6,LOHL632-633:Phase Voltage A/Terminal i,,,kV,0.00010000000,-6.446671,0.000000,23275,99998,1,1,P
7,LOHL632-633:Phase Voltage B/Terminal i,,,kV,0.00010000000,-6.080070,0.000000,21692,99998,1,1,P
8,LOHL632-633:Phase Voltage C/Terminal i,,,kV,0.00010000000,-5.989053,0.000000,22383,99998,1,1,P
9,LOHL645-646:Phase Voltage B/Terminal i,,,kV,0.00010000000,-6.105829,0.000000,22216,99998,1,1,P
10,LOHL645-646:Phase Voltage C/Terminal i,,,kV,0.00010000000,-6.001959,0.000000,22644,99998,1,1,P
50
1
15000.000000,3001
11/11/2020,18:31:01.000000
11/11/2020,18:31:01.000000
ASCII
1.000000
0000000001,0000000000,091719,062165,091697,023395,062239,092487,028304,063360,028761,063431
0000000002,0000000067,092232,061340,092211,023798,061412,092983,028712,062497,029164,062571
0000000003,0000000133,092734,060513,092713,024217,060583,093466,029136,061633,029583,061710
0000000004,0000000200,093222,059685,093202,024651,059753,093936,029574,060769,030016,060848
0000000005,0000000267,093684,058855,093665,025115,058921,094377,030042,059903,030479,059986
0000000006,0000000333,094133,058025,094114,025593,058089,094805,030524,059037,030956,059123
0000000007,0000000400,094568,057194,094550,026086,057257,095218,031021,058172,031448,058261
0000000008,0000000467,094976,056364,094958,026608,056425,095601,031546,057309,031968,057401
0000000009,0000000533,095370,055535,095353,027144,055594,095971,032085,056446,032501,056542
0000000010,0000000600,095750,054707,095733,027694,054764,096325,032637,055586,033048,055684
0000000011,0000000667,096102,053881,096085,028271,053937,096649,033216,054729,033621,054830
0000000012,0000000733,096438,053057,096422,028862,053112,096958,033808,053875,034207,053980
0000000013,0000000800,096761,052236,096745,029465,052289,097251,034413,053024,034806,053131
0000000014,0000000867,097054,051419,097038,030094,051471,097514,035043,052179,035430,052290
0000000015,0000000933,097332,050606,097316,030735,050656,097760,035685,051338,036066,051452
0000000016,0000001000,097595,049796,097579,031389,049845,097991,036339,050500,036714,050618
0000000017,0000001067,097827,048994,097812,032066,049041,098191,037016,049672,037385,049793
0000000018,0000001133,098045,048195,098029,032754,048241,098374,037705,048849,038067,048973
0000000019,0000001200,098247,047402,098231,033454,047446,098541,038404,048030,038761,048158
0000000020,0000001267,098418,046617,098402,034176,046661,098676,039125,047223,039475,047354
0000000021,0000001333,098573,045839,098558,034908,045881,098795,039855,046423,040199,046556
0000000022,0000001400,098713,045065,098697,035650,045107,098897,040596,045628,040933,045765
0000000023,0000001467,098822,044304,098806,036412,044344,098967,041356,044847,041687,044987
0000000024,0000001533,098914,043549,098898,037184,043588,099021,042125,044073,042449,044216
0000000025,0000001600,098992,042801,098975,037964,042839,099058,042903,043306,043221,043453
0000000026,0000001667,099037,042067,099020,038762,042104,099062,043698,042555,044009,042705
0000000027,0000001733,099066,041340,099049,039569,041377,099050,044501,041813,044805,041966
0000000028,0000001800,099080,040621,099063,040383,040657,099021,045312,041079,045610,041235
0000000029,0000001867,099062,039919,099044,041213,039954,098960,046138,040363,046428,040522
0000000030,0000001933,099027,039225,099009,042049,039259,098883,046970,039656,047254,039819
0000000031,0000002000,098978,038539,098959,042893,038573,098789,047809,038958,048086,039124
0000000032,0000002067,098896,037872,098877,043749,037905,098662,048660,038281,048931,038450
0000000033,0000002133,098799,037214,098779,044611,037247,098520,049517,037614,049781,037786
0000000034,0000002200,098686,036566,098665,045479,036598,098361,050380,036957,050637,037132
0000000035,0000002267,098541,035937,098520,046358,035970,098170,051252,036322,051502,036500
0000000036,0000002333,098381,035320,098360,047241,035352,097963,052129,035698,052372,035879
0000000037,0000002400,098206,034713,098183,048128,034744,097740,053010,035086,053246,035270
0000000038,0000002467,097999,034127,097976,049023,034159,097486,053898,034497,054128,034684
0000000039,0000002533,097777,033553,097754,049922,033584,097216,054790,033920,055013,034110
0000000040,0000002600,097540,032990,097516,050823,033022,096931,055684,033356,055900,033548
0000000041,0000002667,097273,032451,097248,051731,032482,096615,056583,032816,056793,033012
0000000042,0000002733,096990,031924,096964,052640,031955,096283,057485,032290,057687,032488
0000000043,0000002800,096693,031409,096666,053550,031440,095937,058387,031776,058584,031977
0000000044,0000002867,096366,030918,096339,054464,030950,095561,059293,031290,059482,031493
0000000045,0000002933,096025,030441,095997,055378,030473,095170,060198,030816,060381,031023
0000000046,0000003000,095670,029976,095640,056293,030009,094764,061104,030357,061281,030566
0000000047,0000003067,095285,029538,095255,057209,029571,094330,062010,029925,062180,030137
0000000048,0000003133,094887,029113,094856,058123,029146,093882,062915,029508,063079,029722
0000000049,0000003200,094475,028702,094443,059037,028735,093419,063820,029105,063977,029321
0000000050,0000003267,094036,028318,094002,059948,028352,092930,064721,028731,064872,028950
0000000051,0000003333,093583,027948,093548,060858,027983,092427,065620,028372,065765,028594
0000000052,0000003400,093117,027592,093081,061765,027628,091910,066517,028028,066656,028252
0000000053,0000003467,092625,027265,092588,062668,027301,091368,067409,027715,067542,027940
0000000054,0000003533,092120,026952,092081,063567,026989,090813,068298,027416,068424,027644
0000000055,0000003600,091603,026654,091563,064463,026692,090245,069183,027133,069303,027362
0000000056,0000003667,091060,026385,091019,065351,026424,089653,070060,026880,070175,027112
0000000057,0000003733,090506,026131,090464,066235,026171,089049,070933,026644,071042,026878
0000000058,0000003800,089940,025892,089897,067115,025933,088434,071801,026423,071904,026659
0000000059,0000003867,089351,025683,089306,067984,025725,087795,072658,026234,072756,026471
0000000060,0000003933,088751,025490,088704,068848,025532,087146,073510,026061,073602,026300
0000000061,0000004000,088139,025311,088092,069706,025355,086486,074356,025904,074443,026144
0000000062,0000004067,087507,025164,087458,070551,025209,085805,075189,025779,075271,026021
0000000063,0000004133,086864,025031,086813,071390,025078,085114,076015,025670,076092,025914
0000000064,0000004200,086210,024914,086159,072221,024962,084413,076834,025577,076906,025823
0000000065,0000004267,085538,024829,085484,073038,024878,083693,077638,025517,077705,025764
0000000066,0000004333,084856,024759,084801,073847,024809,082964,078434,025473,078496,025722
0000000067,0000004400,084164,024704,084108,074647,024756,082227,079222,025446,079279,025695
0000000068,0000004467,083455,024681,083398,075430,024734,081472,079992,025451,080045,025702
0000000069,0000004533,082738,024673,082679,076204,024728,080710,080753,025473,080801,025724
0000000070,0000004600,082012,024681,081952,076969,024738,079939,081505,025510,081549,025763
0000000071,0000004667,081271,024720,081209,077714,024779,079154,082237,025581,082277,025834
0000000072,0000004733,080523,024775,080459,078449,024835,078363,082958,025667,082995,025922
0000000073,0000004800,079767,024846,079702,079174,024908,077564,083670,025770,083702,026025
0000000074,0000004867,078998,024948,078931,079877,025011,076753,084359,025905,084388,026161
0000000075,0000004933,078223,025065,078154,080569,025130,075937,085038,026056,085063,026313
0000000076,0000005000,077441,025198,077371,081250,025265,075114,085705,026224,085727,026481
0000000077,0000005067,076649,025361,076577,081907,025430,074282,086348,026423,086367,026680
0000000078,0000005133,075851,025540,075778,082551,025611,073445,086980,026638,086995,026896
0000000079,0000005200,075048,025734,074974,083184,025807,072604,087599,026868,087611,027127
0000000080,0000005267,074237,025958,074160,083791,026033,071755,088192,027130,088202,027389
0000000081,0000005333,073421,026198,073343,084385,026275,070903,088773,027408,088779,027666
0000000082,0000005400,072602,026452,072522,084966,026531,070048,089340,027701,089344,027959
0000000083,0000005467,071776,026736,071695,085519,026817,069187,089880,028024,089882,028283
0000000084,0000005533,070947,027035,070864,086059,027118,068324,090406,028363,090406,028621
0000000085,0000005600,070115,027348,070031,086585,027433,067460,090919,028716,090917,028975
0000000086,0000005667,069280,027690,069194,087082,027777,066592,091403,029099,091399,029357
0000000087,0000005733,068442,028046,068355,087565,028136,065724,091872,029497,091866,029754
0000000088,0000005800,067603,028417,067514,088033,028508,064855,092327,029909,092320,030166
0000000089,0000005867,066763,028815,066672,088471,028908,063985,092752,030349,092743,030606
0000000090,0000005933,065921,029226,065829,088893,029322,063116,093161,030804,093151,031060
0000000091,0000006000,065080,029652,064986,089300,029750,062248,093555,031272,093545,031527
0000000092,0000006067,064239,030103,064144,089677,030204,061381,093919,031767,093907,032022
0000000093,0000006133,063399,030568,063302,090037,030671,060516,094266,032276,094254,032529
0000000094,0000006200,062559,031046,062461,090381,031151,059653,094598,032797,094585,033050
0000000095,0000006267,061723,031549,061623,090693,031657,058794,094898,033345,094885,033596
0000000096,0000006333,060888,032065,060787,090989,032174,057939,095181,033905,095168,034155
0000000097,0000006400,060056,032592,059953,091269,032704,057086,095448,034477,095435,034726
0000000098,0000006467,059229,033144,059125,091515,033258,056240,095683,035073,095670,035321
0000000099,0000006533,058405,033707,058299,091745,033824,055398,095901,035681,095888,035928
0000000100,0000006600,057584,034281,057477,091958,034400,054560,096102,036301,096090,036546
0000000101,0000006667,056771,034878,056662,092138,034999,053732,096270,036943,096259,037187
0000000102,0000006733,055962,035485,055852,092300,035609,052909,096421,037595,096411,037838
0000000103,0000006800,055157,036103,055046,092446,036230,052091,096555,038259,096546,038500
0000000104,0000006867,054363,036742,054250,092557,036871,051285,096656,038943,096648,039182
0000000105,0000006933,053574,037390,053460,092651,037521,050486,096739,039636,096732,039874
0000000106,0000007000,052790,038048,052675,092729,038182,049692,096805,040340,096800,040575
0000000107,0000007067,052019,038725,051902,092771,038861,048913,096838,041061,096834,041295
0000000108,0000007133,051254,039410,051136,092797,039549,048142,096853,041792,096851,042024
0000000109,0000007200,050495,040105,050377,092805,040245,047378,096851,042532,096851,042762
0000000110,0000007267,049751,040816,049632,092779,040959,046630,096815,043287,096817,043515
0000000111,0000007333,049015,041535,048894,092735,041680,045890,096762,044051,096767,044277
0000000112,0000007400,048287,042262,048164,092674,042409,045160,096692,044822,096699,045046
0000000113,0000007467,047574,043003,047451,092579,043153,044447,096587,045608,096598,045829
0000000114,0000007533,046871,043751,046747,092467,043904,043745,096466,046400,096479,046619
0000000115,0000007600,046176,044506,046051,092337,044661,043052,096328,047198,096344,047415
0000000116,0000007667,045500,045274,045373,092174,045431,042379,096157,048009,096176,048223
0000000117,0000007733,044833,046047,044706,091994,046206,041717,095968,048825,095991,049037
0000000118,0000007800,044176,046826,044048,091796,046987,041065,095763,049647,095789,049856
0000000119,0000007867,043540,047615,043410,091565,047779,040436,095525,050478,095554,050685
0000000120,0000007933,042914,048409,042783,091318,048575,039818,095270,051313,095304,051517
0000000121,0000008000,042298,049208,042167,091054,049375,039212,094999,052153,095036,052355
0000000122,0000008067,041705,050014,041573,090757,050184,038630,094696,053000,094737,053199
0000000123,0000008133,041123,050824,040990,090444,050996,038060,094377,053850,094422,054046
0000000124,0000008200,040552,051638,040419,090115,051812,037502,094041,054704,094091,054897
0000000125,0000008267,040006,052457,039871,089753,052633,036970,093674,055562,093728,055752
0000000126,0000008333,039471,053278,039336,089376,053456,036452,093292,056422,093350,056609
0000000127,0000008400,038949,054102,038813,088983,054282,035946,092894,057284,092957,057468
0000000128,0000008467,038452,054930,038315,088560,055111,035467,092466,058148,092534,058329
0000000129,0000008533,037968,055758,037831,088121,055942,035002,092023,059013,092095,059191
0000000130,0000008600,037497,056587,037359,087667,056773,034552,091565,059879,091642,060054
0000000131,0000008667,037052,057418,036914,087184,057606,034129,091077,060744,091160,060916
0000000132,0000008733,036621,058249,036483,086686,058438,033721,090576,061609,090664,061778
0000000133,0000008800,036204,059079,036065,086173,059270,033327,090060,062473,090154,062640
0000000134,0000008867,035815,059908,035675,085632,060101,032963,089517,063335,089616,063498
0000000135,0000008933,035440,060736,035300,085078,060931,032614,088960,064195,089065,064355
0000000136,0000009000,035079,061563,034938,084510,061759,032279,088390,065054,088500,065210
0000000137,0000009067,034746,062386,034606,083915,062584,031976,087793,065907,087909,066060
0000000138,0000009133,034429,063207,034288,083307,063406,031687,087184,066757,087306,066908
0000000139,0000009200,034126,064025,033985,082687,064226,031415,086562,067604,086690,067752
0000000140,0000009267,033853,064837,033712,082041,065039,031173,085916,068444,086050,068588
0000000141,0000009333,033596,065646,033454,081384,065850,030947,085258,069280,085398,069421
0000000142,0000009400,033353,066451,033211,080714,066656,030738,084589,070112,084735,070249
0000000143,0000009467,033141,067248,032999,080022,067454,030560,083896,070933,084049,071067
0000000144,0000009533,032944,068040,032802,079318,068248,030398,083194,071750,083352,071880
0000000145,0000009600,032762,068828,032621,078603,069036,030252,082480,072560,082645,072688
0000000146,0000009667,032612,069605,032471,077868,069815,030139,081746,073359,081917,073484
0000000147,0000009733,032478,070376,032336,077122,070587,030042,081002,074152,081179,074273
0000000148,0000009800,032359,071141,032218,076367,071353,029961,080248,074937,080432,075055
0000000149,0000009867,032271,071894,032130,075592,072107,029913,079476,075709,079667,075824
0000000150,0000009933,032199,072640,032059,074809,072854,029882,078695,076473,078892,076584
0000000151,0000010000,032144,073379,032003,074016,073593,029866,077905,077229,078110,077337
0000000152,0000010067,032120,074103,031979,073207,074318,029884,077100,077969,077311,078074
0000000153,0000010133,032111,074819,031972,072390,075035,029918,076286,078700,076504,078801
0000000154,0000010200,032119,075527,031979,071566,075744,029968,075466,079422,075690,079520
0000000155,0000010267,032158,076218,032019,070727,076436,030051,074631,080125,074862,080221
0000000156,0000010333,032213,076901,032075,069881,077119,030151,073790,080819,074028,080912
0000000157,0000010400,032284,077574,032146,069029,077792,030266,072943,081504,073187,081593
0000000158,0000010467,032387,078229,032249,068165,078448,030414,072084,082167,072335,082254
0000000159,0000010533,032505,078873,032368,067295,079093,030578,071220,082820,071478,082903
0000000160,0000010600,032639,079508,032503,066420,079728,030758,070351,083463,070616,083543
0000000161,0000010667,032804,080122,032669,065536,080342,030970,069472,084083,069744,084160
0000000162,0000010733,032985,080726,032850,064647,080946,031198,068590,084691,068869,084765
0000000163,0000010800,033181,081319,033047,063754,081539,031442,067704,085288,067990,085359
0000000164,0000010867,033408,081889,033274,062855,082110,031717,066812,085861,067104,085929
0000000165,0000010933,033650,082448,033517,061952,082668,032008,065917,086421,066216,086486
0000000166,0000011000,033907,082995,033775,061047,083216,032314,065019,086969,065324,087031
0000000167,0000011067,034195,083518,034063,060137,083739,032650,064117,087491,064429,087551
0000000168,0000011133,034497,084029,034366,059226,084250,033001,063214,088000,063533,088057
0000000169,0000011200,034813,084528,034684,058313,084748,033368,062309,088496,062635,088550
0000000170,0000011267,035160,085001,035031,057398,085221,033763,061403,088965,061735,089016
0000000171,0000011333,035520,085461,035393,056483,085681,034174,060497,089419,060836,089469
0000000172,0000011400,035895,085908,035768,055568,086128,034598,059591,089860,059936,089907
0000000173,0000011467,036297,086329,036172,054653,086548,035051,058686,090273,059038,090317
0000000174,0000011533,036714,086736,036590,053740,086954,035518,057782,090671,058140,090713
0000000175,0000011600,037144,087129,037021,052828,087347,035999,056880,091054,057244,091094
0000000176,0000011667,037602,087494,037480,051919,087711,036507,055981,091409,056352,091446
0000000177,0000011733,038072,087845,037951,051012,088062,037027,055085,091748,055461,091782
0000000178,0000011800,038556,088182,038436,050108,088398,037561,054191,092072,054574,092104
0000000179,0000011867,039065,088490,038946,049209,088705,038120,053303,092365,053692,092396
0000000180,0000011933,039587,088783,039469,048314,088998,038692,052420,092643,052814,092672
0000000181,0000012000,040121,089062,040005,047423,089276,039276,051540,092906,051940,092932
0000000182,0000012067,040679,089311,040564,046541,089524,039884,050668,093137,051075,093162
0000000183,0000012133,041249,089545,041135,045663,089757,040504,049802,093353,050214,093375
0000000184,0000012200,041830,089764,041718,044790,089975,041134,048941,093553,049358,093573
0000000185,0000012267,042435,089953,042324,043928,090162,041787,048091,093720,048514,093739
0000000186,0000012333,043049,090126,042940,043072,090334,042451,047247,093872,047675,093890
0000000187,0000012400,043675,090284,043567,042222,090491,043125,046410,094008,046843,094024
0000000188,0000012467,044322,090411,044215,041386,090617,043820,045586,094111,046024,094126
0000000189,0000012533,044978,090523,044873,040557,090727,044524,044769,094199,045213,094211
0000000190,0000012600,045645,090619,045541,039735,090822,045237,043960,094270,044408,094281
0000000191,0000012667,046330,090684,046228,038929,090886,045969,043167,094308,043620,094318
0000000192,0000012733,047024,090734,046923,038132,090934,046710,042382,094330,042840,094339
0000000193,0000012800,047727,090767,047628,037343,090966,047459,041606,094336,042068,094343
0000000194,0000012867,048447,090770,048350,036572,090967,048224,040848,094309,041315,094315
0000000195,0000012933,049175,090756,049079,035811,090952,048997,040100,094266,040571,094271
0000000196,0000013000,049912,090727,049817,035059,090921,049777,039361,094206,039836,094211
0000000197,0000013067,050662,090667,050569,034327,090859,050571,038643,094114,039122,094118
0000000198,0000013133,051420,090591,051329,033606,090782,051371,037935,094006,038418,094009
0000000199,0000013200,052185,090500,052095,032896,090689,052178,037238,093882,037725,093884
0000000200,0000013267,052962,090378,052874,032208,090565,052997,036564,093725,037054,093727
0000000201,0000013333,053746,090240,053659,031531,090425,053821,035901,093552,036394,093553
0000000202,0000013400,054535,090086,054449,030866,090270,054650,035249,093364,035746,093364
0000000203,0000013467,055334,089903,055250,030226,090084,055488,034622,093144,035122,093144
