DIgSILENT PowerFactory,20000410,2000
10,10A,00D
1,LC684-652A:Phase Voltage A/Terminal i,,,kV,0.00010000000,-5.989995,0.000000,20878,99998,1,1,P
2,LC684-652A:Phase Voltage C/Terminal i,,,kV,0.00010000000,-5.255269,0.000000,14892,99998,1,1,P
3,LC692-675:Phase Voltage A/Terminal i,,,kV,0.00010000000,-6.007321,0.000000,20903,99998,1,1,P
4,LC692-675:Phase Voltage B/Terminal i,,,kV,0.00010000000,-5.702116,0.000000,7570,99998,1,1,P
5,LC692-675:Phase Voltage C/Terminal i,,,kV,0.00010000000,-5.279162,0.000000,15201,99998,1,1,P
6,LOHL632-633:Phase Voltage A/Terminal i,,,kV,0.00010000000,-6.231741,0.000000,25540,99998,1,1,P
7,LOHL632-633:Phase Voltage B/Terminal i,,,kV,0.00010000000,-6.100016,0.000000,17475,99998,1,1,P
8,LOHL632-633:Phase Voltage C/Terminal i,,,kV,0.00010000000,-5.741714,0.000000,20506,99998,1,1,P
9,LOHL645-646:Phase Voltage B/Terminal i,,,kV,0.00010000000,-6.126380,0.000000,18024,99998,1,1,P
10,LOHL645-646:Phase Voltage C/Terminal i,,,kV,0.00010000000,-5.756814,0.000000,20770,99998,1,1,P
50
1
15000.000000,3001
11/11/2020,18:07:58.000000
11/11/2020,18:07:58.000000
ASCII
1.000000
0000000001,0000000000,086026,056996,086256,024028,057183,090337,028504,060887,028966,060979
0000000002,0000000067,086540,056171,086770,024431,056356,090834,028912,060024,029370,060120
0000000003,0000000133,087041,055345,087272,024850,055528,091317,029335,059160,029788,059259
0000000004,0000000200,087529,054517,087761,025284,054698,091786,029773,058295,030222,058397
0000000005,0000000267,087991,053687,088224,025747,053866,092228,030241,057430,030685,057534
0000000006,0000000333,088440,052856,088673,026226,053034,092655,030724,056564,031162,056672
0000000007,0000000400,088876,052026,089109,026719,052202,093068,031220,055699,031653,055810
0000000008,0000000467,089284,051196,089517,027241,051370,093452,031745,054835,032173,054949
0000000009,0000000533,089678,050367,089912,027777,050539,093821,032284,053973,032706,054090
0000000010,0000000600,090057,049538,090292,028327,049709,094175,032837,053112,033253,053233
0000000011,0000000667,090409,048712,090644,028904,048881,094500,033416,052256,033827,052379
0000000012,0000000733,090746,047889,090981,029495,048056,094808,034008,051402,034413,051528
0000000013,0000000800,091068,047067,091304,030098,047233,095102,034613,050550,035012,050680
0000000014,0000000867,091361,046251,091597,030727,046415,095364,035243,049705,035636,049838
0000000015,0000000933,091639,045438,091875,031368,045601,095611,035885,048864,036272,049000
0000000016,0000001000,091902,044628,092138,032022,044789,095842,036539,048027,036920,048166
0000000017,0000001067,092135,043825,092371,032699,043985,096041,037216,047199,037591,047341
0000000018,0000001133,092352,043027,092588,033387,043186,096225,037904,046375,038273,046521
0000000019,0000001200,092554,042233,092790,034087,042391,096392,038603,045557,038966,045706
0000000020,0000001267,092725,041449,092961,034809,041605,096527,039324,044750,039680,044902
0000000021,0000001333,092881,040670,093117,035541,040825,096645,040055,043949,040405,044105
0000000022,0000001400,093021,039897,093257,036283,040051,096748,040796,043154,041139,043313
0000000023,0000001467,093129,039136,093365,037045,039289,096818,041556,042373,041892,042536
0000000024,0000001533,093222,038381,093458,037817,038533,096871,042325,041599,042655,041765
0000000025,0000001600,093299,037633,093534,038597,037784,096908,043103,040833,043426,041002
0000000026,0000001667,093344,036898,093579,039395,037049,096913,043898,040082,044215,040254
0000000027,0000001733,093374,036172,093608,040202,036321,096901,044701,039340,045011,039515
0000000028,0000001800,093387,035453,093622,041016,035602,096872,045512,038606,045815,038784
0000000029,0000001867,093369,034750,093603,041846,034898,096811,046337,037889,046634,038071
0000000030,0000001933,093335,034056,093569,042682,034204,096733,047169,037183,047460,037367
0000000031,0000002000,093285,033371,093518,043526,033517,096639,048008,036485,048292,036673
0000000032,0000002067,093203,032703,093436,044382,032850,096513,048860,035808,049136,035998
0000000033,0000002133,093106,032045,093338,045244,032191,096370,049717,035140,049987,035334
0000000034,0000002200,092993,031397,093225,046112,031543,096212,050579,034484,050842,034681
0000000035,0000002267,092848,030769,093080,046991,030914,096021,051452,033849,051708,034049
0000000036,0000002333,092688,030151,092919,047874,030296,095814,052328,033225,052578,033428
0000000037,0000002400,092513,029544,092743,048761,029689,095591,053209,032612,053452,032818
0000000038,0000002467,092306,028959,092535,049656,029103,095337,054098,032024,054333,032233
0000000039,0000002533,092084,028385,092313,050555,028529,095067,054989,031447,055218,031659
0000000040,0000002600,091847,027822,092075,051456,027966,094782,055884,030882,056106,031097
0000000041,0000002667,091580,027282,091807,052363,027427,094465,056783,030343,056999,030560
0000000042,0000002733,091298,026755,091524,053272,026900,094134,057684,029817,057893,030037
0000000043,0000002800,091000,026240,091225,054183,026385,093788,058587,029303,058789,029526
0000000044,0000002867,090674,025750,090898,055097,025895,093411,059492,028816,059688,029042
0000000045,0000002933,090333,025272,090556,056011,025417,093020,060398,028343,060587,028571
0000000046,0000003000,089977,024808,090199,056926,024953,092615,061304,027883,061486,028114
0000000047,0000003067,089593,024370,089814,057842,024515,092181,062210,027452,062386,027685
0000000048,0000003133,089195,023945,089415,058756,024091,091732,063115,027035,063284,027271
0000000049,0000003200,088783,023533,089002,059670,023680,091270,064019,026632,064182,026870
0000000050,0000003267,088343,023150,088561,060581,023297,090780,064920,026258,065077,026499
0000000051,0000003333,087891,022780,088107,061491,022927,090277,065820,025899,065970,026142
0000000052,0000003400,087424,022424,087640,062398,022572,089761,066717,025555,066862,025800
0000000053,0000003467,086932,022097,087147,063301,022246,089219,067609,025241,067747,025489
0000000054,0000003533,086427,021784,086641,064200,021934,088664,068497,024943,068630,025192
0000000055,0000003600,085910,021486,086122,065096,021636,088096,069382,024659,069509,024911
0000000056,0000003667,085368,021217,085578,065984,021368,087504,070259,024407,070380,024661
0000000057,0000003733,084814,020963,085023,066868,021115,086900,071132,024171,071247,024426
0000000058,0000003800,084248,020724,084456,067748,020877,086284,072000,023950,072110,024207
0000000059,0000003867,083658,020515,083865,068617,020669,085646,072858,023761,072962,024020
0000000060,0000003933,083058,020321,083264,069481,020477,084997,073709,023587,073808,023849
0000000061,0000004000,082447,020143,082651,070339,020300,084337,074555,023430,074649,023693
0000000062,0000004067,081814,019995,082017,071184,020153,083656,075389,023305,075476,023570
0000000063,0000004133,081171,019863,081372,072023,020022,082965,076215,023197,076298,023462
0000000064,0000004200,080518,019746,080718,072854,019907,082264,077034,023104,077112,023371
0000000065,0000004267,079845,019660,080043,073671,019822,081544,077838,023044,077911,023313
0000000066,0000004333,079163,019590,079360,074479,019753,080815,078634,023000,078702,023270
0000000067,0000004400,078472,019536,078667,075280,019700,080077,079421,022973,079485,023244
0000000068,0000004467,077763,019512,077957,076063,019679,079323,080191,022978,080250,023250
0000000069,0000004533,077045,019505,077238,076837,019672,078560,080952,022999,081007,023273
0000000070,0000004600,076320,019513,076511,077602,019682,077790,081704,023037,081754,023312
0000000071,0000004667,075579,019552,075768,078347,019723,077005,082436,023107,082482,023383
0000000072,0000004733,074830,019607,075018,079082,019780,076213,083158,023194,083200,023470
0000000073,0000004800,074075,019678,074261,079807,019852,075415,083869,023297,083908,023574
0000000074,0000004867,073306,019779,073490,080510,019955,074604,084559,023432,084594,023710
0000000075,0000004933,072530,019896,072714,081202,020074,073787,085237,023583,085268,023861
0000000076,0000005000,071749,020029,071931,081883,020209,072965,085904,023750,085932,024029
0000000077,0000005067,070956,020193,071136,082540,020374,072133,086548,023949,086572,024229
0000000078,0000005133,070159,020372,070337,083184,020555,071296,087179,024164,087200,024444
0000000079,0000005200,069356,020566,069533,083817,020751,070455,087798,024395,087816,024675
0000000080,0000005267,068544,020790,068720,084424,020978,069606,088392,024657,088407,024937
0000000081,0000005333,067729,021029,067903,085018,021219,068754,088972,024935,088985,025215
0000000082,0000005400,066909,021284,067081,085599,021475,067899,089539,025228,089550,025508
0000000083,0000005467,066083,021568,066254,086152,021762,067038,090080,025551,090088,025831
0000000084,0000005533,065254,021866,065423,086692,022062,066175,090606,025889,090612,026170
0000000085,0000005600,064423,022180,064590,087218,022378,065310,091118,026243,091122,026523
0000000086,0000005667,063587,022522,063753,087715,022722,064443,091602,026626,091604,026906
0000000087,0000005733,062750,022878,062914,088198,023080,063575,092072,027023,092072,027303
0000000088,0000005800,061911,023248,062074,088666,023453,062706,092526,027435,092525,027715
0000000089,0000005867,061070,023646,061231,089104,023853,061836,092951,027876,092949,028154
0000000090,0000005933,060229,024058,060388,089526,024267,060967,093361,028330,093357,028608
0000000091,0000006000,059387,024483,059545,089933,024694,060098,093755,028798,093750,029076
0000000092,0000006067,058546,024935,058703,090310,025149,059232,094118,029294,094113,029570
0000000093,0000006133,057706,025400,057861,090670,025616,058367,094466,029802,094460,030078
0000000094,0000006200,056867,025878,057020,091014,026096,057504,094797,030324,094791,030599
0000000095,0000006267,056030,026381,056182,091326,026601,056645,095097,030871,095090,031145
0000000096,0000006333,055196,026896,055346,091622,027119,055789,095381,031431,095374,031704
0000000097,0000006400,054363,027424,054512,091902,027649,054936,095648,032003,095641,032275
0000000098,0000006467,053536,027975,053684,092148,028203,054091,095882,032600,095876,032870
0000000099,0000006533,052712,028538,052858,092378,028768,053249,096100,033208,096094,033477
0000000100,0000006600,051891,029113,052036,092591,029345,052411,096302,033827,096296,034095
0000000101,0000006667,051078,029709,051221,092771,029944,051583,096469,034469,096464,034735
0000000102,0000006733,050269,030317,050411,092933,030554,050760,096621,035122,096616,035386
0000000103,0000006800,049465,030935,049605,093079,031174,049942,096755,035785,096751,036048
0000000104,0000006867,048670,031573,048809,093190,031815,049136,096855,036469,096853,036730
0000000105,0000006933,047881,032222,048019,093284,032466,048336,096938,037163,096938,037422
0000000106,0000007000,047097,032880,047234,093361,033126,047543,097005,037866,097006,038124
0000000107,0000007067,046326,033556,046461,093404,033805,046764,097037,038588,097040,038844
0000000108,0000007133,045561,034242,045695,093430,034493,045992,097052,039319,097057,039573
0000000109,0000007200,044803,034936,044936,093438,035190,045228,097050,040058,097057,040310
0000000110,0000007267,044059,035647,044191,093411,035903,044480,097014,040814,097023,041064
0000000111,0000007333,043323,036366,043453,093368,036625,043741,096961,041578,096972,041825
0000000112,0000007400,042594,037093,042724,093307,037354,043010,096891,042349,096905,042594
0000000113,0000007467,041882,037835,042010,093212,038098,042298,096787,043134,096803,043377
0000000114,0000007533,041178,038583,041306,093100,038848,041596,096666,043926,096685,044167
0000000115,0000007600,040484,039338,040610,092970,039605,040902,096528,044725,096550,044964
0000000116,0000007667,039807,040105,039933,092807,040375,040230,096356,045536,096381,045772
0000000117,0000007733,039141,040879,039265,092627,041151,039568,096168,046352,096196,046585
0000000118,0000007800,038484,041658,038607,092429,041932,038916,095963,047173,095995,047404
0000000119,0000007867,037847,042447,037969,092198,042723,038287,095724,048005,095760,048233
0000000120,0000007933,037221,043241,037342,091951,043519,037669,095470,048840,095509,049066
0000000121,0000008000,036606,044039,036726,091687,044320,037063,095199,049680,095242,049903
0000000122,0000008067,036012,044846,036132,091390,045129,036481,094895,050527,094943,050747
0000000123,0000008133,035430,045656,035549,091077,045941,035911,094576,051377,094627,051595
0000000124,0000008200,034860,046469,034978,090748,046756,035353,094241,052230,094296,052445
0000000125,0000008267,034313,047288,034430,090386,047577,034821,093874,053088,093934,053301
0000000126,0000008333,033779,048110,033895,090009,048401,034302,093491,053948,093556,054158
0000000127,0000008400,033256,048934,033372,089616,049227,033797,093093,054810,093163,055017
0000000128,0000008467,032759,049761,032875,089193,050056,033318,092665,055675,092739,055878
0000000129,0000008533,032275,050589,032390,088754,050886,032853,092222,056540,092301,056740
0000000130,0000008600,031804,051419,031918,088300,051718,032402,091764,057405,091848,057602
0000000131,0000008667,031360,052250,031473,087817,052550,031980,091277,058271,091366,058465
0000000132,0000008733,030929,053080,031042,087319,053382,031571,090775,059136,090870,059327
0000000133,0000008800,030512,053911,030624,086806,054215,031178,090260,060000,090359,060188
0000000134,0000008867,030122,054740,030235,086265,055046,030813,089716,060862,089821,061047
0000000135,0000008933,029747,055568,029859,085711,055875,030464,089159,061722,089270,061904
0000000136,0000009000,029386,056394,029498,085143,056704,030130,088589,062580,088705,062759
0000000137,0000009067,029054,057218,029165,084548,057528,029826,087993,063434,088115,063609
0000000138,0000009133,028736,058038,028848,083940,058350,029538,087384,064284,087511,064456
0000000139,0000009200,028434,058857,028545,083320,059170,029265,086762,065131,086896,065300
0000000140,0000009267,028161,059669,028271,082674,059984,029024,086116,065971,086256,066137
0000000141,0000009333,027903,060478,028013,082017,060794,028798,085458,066807,085604,066969
0000000142,0000009400,027660,061283,027771,081347,061601,028588,084788,067638,084940,067797
0000000143,0000009467,027448,062080,027558,080655,062399,028410,084096,068460,084254,068616
0000000144,0000009533,027251,062872,027362,079951,063192,028249,083393,069276,083558,069429
0000000145,0000009600,027070,063659,027180,079236,063981,028103,082679,070087,082850,070237
0000000146,0000009667,026920,064436,027030,078501,064759,027990,081945,070886,082122,071032
0000000147,0000009733,026785,065208,026895,077755,065531,027893,081201,071678,081385,071821
0000000148,0000009800,026666,065973,026777,077000,066298,027812,080447,072464,080638,072604
0000000149,0000009867,026579,066726,026689,076225,067051,027764,079675,073236,079872,073372
0000000150,0000009933,026507,067471,026618,075441,067798,027732,078894,073999,079098,074133
0000000151,0000010000,026451,068210,026562,074649,068538,027717,078105,074755,078315,074886
0000000152,0000010067,026427,068934,026539,073840,069263,027735,077299,075495,077516,075622
0000000153,0000010133,026419,069650,026531,073023,069979,027769,076486,076226,076710,076350
0000000154,0000010200,026426,070358,026539,072199,070688,027819,075665,076948,075896,077069
0000000155,0000010267,026466,071050,026578,071360,071380,027902,074830,077652,075068,077769
0000000156,0000010333,026521,071732,026634,070514,072063,028001,073989,078346,074233,078460
0000000157,0000010400,026592,072405,026705,069662,072737,028117,073142,079030,073393,079141
0000000158,0000010467,026694,073060,026809,068798,073392,028265,072283,079694,072541,079802
0000000159,0000010533,026812,073705,026927,067928,074037,028429,071419,080347,071684,080452
0000000160,0000010600,026946,074340,027062,067053,074672,028609,070550,080989,070821,081091
0000000161,0000010667,027112,074954,027228,066169,075287,028821,069672,081609,069950,081708
0000000162,0000010733,027292,075557,027409,065280,075891,029049,068790,082218,069074,082314
0000000163,0000010800,027488,076150,027606,064387,076484,029293,067904,082815,068195,082908
0000000164,0000010867,027715,076721,027834,063488,077054,029568,067011,083387,067309,083477
0000000165,0000010933,027957,077279,028076,062585,077613,029858,066116,083948,066421,084035
0000000166,0000011000,028215,077827,028335,061680,078160,030164,065218,084495,065530,084580
0000000167,0000011067,028502,078350,028623,060770,078683,030501,064316,085018,064635,085099
0000000168,0000011133,028804,078861,028926,059859,079194,030852,063413,085527,063738,085606
0000000169,0000011200,029121,079359,029243,058946,079693,031218,062509,086022,062840,086099
0000000170,0000011267,029467,079833,029590,058031,080165,031614,061603,086491,061941,086565
0000000171,0000011333,029827,080293,029952,057116,080625,032024,060697,086946,061041,087017
0000000172,0000011400,030202,080740,030327,056201,081072,032449,059791,087387,060142,087455
0000000173,0000011467,030605,081160,030731,055286,081492,032902,058886,087799,059243,087866
0000000174,0000011533,031021,081567,031149,054373,081898,033369,057982,088198,058346,088261
0000000175,0000011600,031452,081960,031580,053461,082291,033850,057079,088581,057450,088642
0000000176,0000011667,031909,082325,032039,052552,082656,034357,056181,088935,056557,088994
0000000177,0000011733,032379,082677,032510,051645,083006,034878,055284,089274,055667,089331
0000000178,0000011800,032863,083013,032995,050741,083342,035412,054390,089598,054779,089653
0000000179,0000011867,033372,083322,033506,049842,083650,035971,053503,089892,053898,089944
0000000180,0000011933,033894,083615,034029,048947,083942,036543,052619,090170,053020,090220
0000000181,0000012000,034428,083894,034564,048056,084220,037127,051739,090433,052146,090481
0000000182,0000012067,034986,084143,035123,047173,084468,037735,050868,090664,051280,090710
0000000183,0000012133,035556,084377,035695,046296,084701,038354,050002,090879,050419,090924
0000000184,0000012200,036138,084596,036278,045423,084919,038985,049140,091079,049564,091122
0000000185,0000012267,036742,084784,036883,044561,085107,039638,048290,091247,048719,091288
0000000186,0000012333,037357,084958,037499,043705,085279,040302,047447,091399,047881,091438
0000000187,0000012400,037983,085116,038126,042855,085436,040976,046609,091535,047048,091572
0000000188,0000012467,038629,085243,038774,042019,085562,041670,045785,091638,046230,091674
0000000189,0000012533,039286,085355,039432,041190,085672,042374,044969,091725,045418,091760
0000000190,0000012600,039952,085451,040100,040368,085767,043088,044160,091796,044614,091829
0000000191,0000012667,040637,085516,040787,039562,085830,043820,043366,091834,043825,091866
0000000192,0000012733,041331,085565,041482,038765,085878,044560,042582,091857,043045,091887
0000000193,0000012800,042035,085599,042187,037976,085910,045309,041806,091862,042274,091892
0000000194,0000012867,042755,085601,042909,037205,085911,046075,041048,091835,041520,091864
0000000195,0000012933,043483,085588,043638,036444,085896,046847,040299,091792,040776,091820
0000000196,0000013000,044219,085559,044376,035692,085866,047628,039561,091733,040042,091759
0000000197,0000013067,044970,085499,045128,034960,085804,048422,038842,091641,039328,091666
0000000198,0000013133,045728,085423,045888,034239,085726,049222,038135,091533,038624,091557
0000000199,0000013200,046492,085332,046654,033529,085633,050029,037438,091408,037930,091432
0000000200,0000013267,047270,085209,047433,032841,085509,050848,036763,091252,037259,091275
0000000201,0000013333,048053,085071,048218,032164,085369,051671,036100,091079,036600,091102
0000000202,0000013400,048842,084918,049008,031499,085214,052500,035449,090890,035952,090913
0000000203,0000013467,049641,084734,049809,030859,085028,053339,034822,090670,035327,090692
