DIgSILENT PowerFactory,20000410,2000
10,10A,00D
1,LC684-652A:Phase Voltage A/Terminal i,,,kV,0.00010000000,-5.133768,0.000000,9219,99998,1,1,P
2,LC684-652A:Phase Voltage C/Terminal i,,,kV,0.00010000000,-4.258882,0.000000,-4992,99998,1,1,P
3,LC692-675:Phase Voltage A/Terminal i,,,kV,0.00010000000,-5.127357,0.000000,8984,99998,1,1,P
4,LC692-675:Phase Voltage B/Terminal i,,,kV,0.00010000000,-6.135714,0.000000,1581,99998,1,1,P
5,LC692-675:Phase Voltage C/Terminal i,,,kV,0.00010000000,-4.295547,0.000000,-4365,99998,1,1,P
6,LOHL632-633:Phase Voltage A/Terminal i,,,kV,0.00010000000,-5.661434,0.000000,17532,99998,1,1,P
7,LOHL632-633:Phase Voltage B/Terminal i,,,kV,0.00010000000,-6.301339,0.000000,13857,99998,1,1,P
8,LOHL632-633:Phase Voltage C/Terminal i,,,kV,0.00010000000,-5.367288,0.000000,10321,99998,1,1,P
9,LOHL645-646:Phase Voltage B/Terminal i,,,kV,0.00010000000,-6.329653,0.000000,14446,99998,1,1,P
10,LOHL645-646:Phase Voltage C/Terminal i,,,kV,0.00010000000,-5.380315,0.000000,10578,99998,1,1,P
50
1
15000.000000,3001
11/11/2020,17:04:25.000000
11/11/2020,17:04:25.000000
ASCII
1.000000
0000000001,0000000000,077464,047032,077456,028364,047347,084634,030517,057142,030999,057214
0000000002,0000000067,077978,046207,077971,028767,046520,085131,030925,056280,031403,056355
0000000003,0000000133,078479,045381,078473,029186,045692,085614,031348,055416,031821,055494
0000000004,0000000200,078967,044553,078962,029620,044861,086083,031787,054551,032255,054632
0000000005,0000000267,079429,043723,079424,030083,044030,086525,032255,053685,032717,053769
0000000006,0000000333,079878,042893,079873,030562,043198,086952,032737,052820,033195,052907
0000000007,0000000400,080313,042062,080309,031055,042365,087365,033234,051955,033686,052045
0000000008,0000000467,080721,041232,080718,031577,041533,087749,033759,051091,034206,051184
0000000009,0000000533,081115,040403,081112,032113,040703,088118,034297,050229,034739,050325
0000000010,0000000600,081495,039574,081493,032663,039872,088472,034850,049368,035286,049467
0000000011,0000000667,081847,038749,081844,033240,039045,088796,035429,048511,035859,048614
0000000012,0000000733,082184,037925,082181,033830,038220,089105,036021,047657,036446,047763
0000000013,0000000800,082506,037103,082504,034434,037397,089399,036626,046806,037045,046915
0000000014,0000000867,082799,036287,082797,035063,036579,089661,037256,045961,037669,046073
0000000015,0000000933,083077,035474,083075,035704,035764,089908,037898,045120,038305,045235
0000000016,0000001000,083340,034664,083338,036358,034953,090139,038552,044283,038953,044401
0000000017,0000001067,083572,033861,083571,037035,034149,090338,039229,043454,039624,043576
0000000018,0000001133,083790,033063,083789,037723,033350,090521,039917,042631,040306,042756
0000000019,0000001200,083992,032269,083991,038423,032554,090689,040617,041813,040999,041941
0000000020,0000001267,084163,031485,084162,039145,031769,090824,041337,041006,041713,041137
0000000021,0000001333,084318,030706,084317,039877,030989,090942,042068,040205,042437,040340
0000000022,0000001400,084458,029933,084457,040619,030215,091045,042809,039410,043172,039548
0000000023,0000001467,084567,029172,084565,041381,029453,091115,043569,038629,043925,038771
0000000024,0000001533,084660,028417,084658,042153,028697,091168,044338,037855,044688,038000
0000000025,0000001600,084737,027669,084735,042933,027948,091205,045116,037089,045459,037237
0000000026,0000001667,084782,026935,084780,043731,027213,091210,045911,036338,046247,036489
0000000027,0000001733,084811,026208,084809,044538,026485,091198,046714,035595,047044,035750
0000000028,0000001800,084825,025489,084822,045352,025766,091169,047525,034861,047848,035019
0000000029,0000001867,084807,024786,084803,046182,025062,091108,048350,034145,048667,034306
0000000030,0000001933,084773,024092,084769,047018,024367,091030,049183,033438,049492,033602
0000000031,0000002000,084723,023407,084719,047862,023681,090936,050022,032741,050325,032908
0000000032,0000002067,084641,022739,084637,048718,023013,090810,050873,032063,051169,032233
0000000033,0000002133,084544,022082,084539,049580,022355,090667,051730,031396,052019,031569
0000000034,0000002200,084431,021433,084425,050448,021706,090508,052593,030739,052875,030916
0000000035,0000002267,084286,020805,084280,051327,021078,090318,053465,030104,053741,030284
0000000036,0000002333,084126,020187,084119,052210,020460,090111,054342,029481,054610,029663
0000000037,0000002400,083951,019580,083943,053097,019852,089888,055223,028868,055485,029054
0000000038,0000002467,083744,018995,083736,053992,019267,089634,056111,028279,056366,028468
0000000039,0000002533,083522,018421,083513,054891,018693,089364,057002,027703,057251,027894
0000000040,0000002600,083285,017858,083275,055792,018130,089078,057897,027138,058139,027332
0000000041,0000002667,083018,017319,083007,056699,017591,088762,058796,026599,059031,026795
0000000042,0000002733,082735,016791,082724,057608,017063,088431,059697,026072,059926,026272
0000000043,0000002800,082438,016276,082426,058519,016548,088084,060600,025559,060822,025761
0000000044,0000002867,082112,015786,082098,059433,016058,087708,061505,025072,061720,025277
0000000045,0000002933,081770,015309,081756,060347,015581,087317,062411,024599,062620,024806
0000000046,0000003000,081415,014844,081399,061262,015117,086912,063317,024139,063519,024349
0000000047,0000003067,081031,014406,081014,062178,014679,086478,064223,023708,064419,023920
0000000048,0000003133,080632,013981,080615,063092,014255,086029,065128,023290,065317,023506
0000000049,0000003200,080220,013570,080202,064006,013844,085567,066032,022888,066215,023105
0000000050,0000003267,079781,013186,079762,064917,013461,085077,066934,022514,067110,022734
0000000051,0000003333,079328,012816,079308,065827,013091,084574,067833,022155,068003,022377
0000000052,0000003400,078862,012460,078840,066734,012736,084058,068730,021811,068894,022035
0000000053,0000003467,078370,012133,078347,067637,012410,083516,069622,021497,069780,021724
0000000054,0000003533,077865,011820,077841,068536,012098,082960,070510,021198,070662,021427
0000000055,0000003600,077348,011522,077322,069432,011800,082393,071395,020915,071542,021146
0000000056,0000003667,076805,011253,076779,070320,011532,081801,072273,020663,072413,020896
0000000057,0000003733,076251,010999,076223,071204,011279,081197,073145,020426,073280,020661
0000000058,0000003800,075685,010760,075656,072084,011041,080581,074013,020205,074142,020442
0000000059,0000003867,075096,010551,075066,072953,010833,079943,074871,020016,074994,020255
0000000060,0000003933,074496,010357,074464,073817,010641,079294,075723,019843,075841,020084
0000000061,0000004000,073885,010179,073851,074675,010463,078634,076569,019686,076681,019928
0000000062,0000004067,073252,010031,073217,075520,010317,077953,077402,019561,077509,019805
0000000063,0000004133,072609,009899,072573,076359,010186,077262,078228,019452,078330,019697
0000000064,0000004200,071956,009782,071918,077190,010070,076561,079047,019360,079144,019606
0000000065,0000004267,071283,009696,071244,078007,009986,075841,079851,019300,079943,019548
0000000066,0000004333,070601,009626,070560,078815,009917,075112,080647,019256,080734,019505
0000000067,0000004400,069909,009572,069867,079616,009864,074374,081434,019228,081517,019479
0000000068,0000004467,069200,009548,069157,080399,009842,073620,082205,019233,082283,019485
0000000069,0000004533,068483,009541,068438,081173,009836,072857,082966,019255,083040,019508
0000000070,0000004600,067758,009549,067711,081938,009846,072087,083717,019293,083787,019547
0000000071,0000004667,067016,009588,066968,082683,009887,071302,084449,019363,084515,019618
0000000072,0000004733,066268,009643,066219,083418,009944,070510,085171,019450,085233,019705
0000000073,0000004800,065512,009714,065461,084143,010016,069712,085882,019552,085940,019809
0000000074,0000004867,064743,009815,064691,084846,010119,068901,086572,019687,086626,019945
0000000075,0000004933,063968,009933,063914,085538,010238,068084,087251,019839,087301,020096
0000000076,0000005000,063187,010065,063131,086219,010373,067262,087918,020006,087965,020264
0000000077,0000005067,062394,010229,062337,086876,010538,066430,088561,020205,088605,020464
0000000078,0000005133,061596,010408,061538,087520,010719,065593,089192,020420,089233,020679
0000000079,0000005200,060794,010602,060733,088153,010915,064752,089811,020651,089849,020910
0000000080,0000005267,059982,010826,059920,088760,011141,063903,090405,020913,090440,021172
0000000081,0000005333,059166,011066,059103,089354,011383,063051,090985,021190,091018,021450
0000000082,0000005400,058347,011320,058282,089935,011639,062195,091553,021483,091582,021743
0000000083,0000005467,057521,011604,057454,090488,011925,061335,092093,021807,092120,022066
0000000084,0000005533,056692,011903,056624,091028,012226,060472,092619,022145,092645,022405
0000000085,0000005600,055861,012216,055791,091554,012541,059607,093132,022499,093155,022758
0000000086,0000005667,055025,012558,054953,092051,012886,058740,093615,022882,093637,023141
0000000087,0000005733,054187,012914,054114,092534,013244,057872,094085,023279,094105,023538
0000000088,0000005800,053348,013284,053274,093002,013616,057002,094539,023691,094558,023949
0000000089,0000005867,052508,013682,052432,093439,014017,056133,094964,024132,094981,024389
0000000090,0000005933,051666,014094,051589,093862,014431,055264,095374,024586,095390,024843
0000000091,0000006000,050825,014519,050746,094269,014858,054395,095768,025054,095783,025311
0000000092,0000006067,049984,014971,049903,094645,015312,053529,096131,025549,096145,025805
0000000093,0000006133,049144,015436,049061,095006,015780,052664,096479,026058,096492,026313
0000000094,0000006200,048304,015914,048221,095350,016260,051801,096811,026580,096824,026834
0000000095,0000006267,047468,016417,047383,095662,016765,050942,097110,027127,097123,027380
0000000096,0000006333,046633,016932,046547,095958,017283,050086,097394,027687,097406,027939
0000000097,0000006400,045801,017460,045713,096238,017813,049233,097661,028259,097674,028510
0000000098,0000006467,044974,018011,044884,096484,018367,048388,097896,028856,097908,029105
0000000099,0000006533,044150,018574,044059,096714,018932,047546,098113,029464,098127,029712
0000000100,0000006600,043329,019149,043236,096927,019509,046708,098315,030083,098328,030330
0000000101,0000006667,042516,019745,042422,097107,020108,045880,098483,030725,098497,030970
0000000102,0000006733,041707,020353,041612,097269,020718,045057,098634,031378,098649,031622
0000000103,0000006800,040902,020971,040806,097415,021338,044239,098768,032041,098784,032283
0000000104,0000006867,040108,021609,040010,097526,021979,043433,098868,032725,098886,032965
0000000105,0000006933,039319,022258,039219,097620,022630,042633,098952,033419,098970,033657
0000000106,0000007000,038535,022916,038434,097697,023290,041840,099018,034122,099038,034359
0000000107,0000007067,037764,023593,037662,097740,023969,041061,099050,034844,099072,035079
0000000108,0000007133,036999,024278,036896,097766,024657,040289,099065,035575,099089,035808
0000000109,0000007200,036241,024973,036136,097774,025354,039525,099064,036314,099089,036545
0000000110,0000007267,035497,025684,035391,097747,026067,038777,099028,037070,099056,037299
0000000111,0000007333,034760,026403,034654,097704,026789,038038,098974,037833,099005,038060
0000000112,0000007400,034032,027129,033924,097643,027518,037307,098904,038604,098937,038829
0000000113,0000007467,033320,027871,033211,097548,028261,036595,098800,039390,098836,039613
0000000114,0000007533,032616,028619,032506,097436,029012,035892,098679,040182,098718,040402
0000000115,0000007600,031921,029374,031810,097306,029769,035199,098541,040981,098583,041199
0000000116,0000007667,031245,030141,031133,097143,030539,034527,098369,041791,098414,042007
0000000117,0000007733,030578,030915,030465,096963,031314,033865,098181,042607,098229,042820
0000000118,0000007800,029921,031694,029807,096765,032096,033213,097976,043429,098027,043639
0000000119,0000007867,029285,032483,029170,096534,032887,032584,097738,044260,097793,044468
0000000120,0000007933,028659,033277,028543,096287,033683,031966,097483,045096,097542,045301
0000000121,0000008000,028043,034075,027926,096023,034484,031360,097212,045936,097275,046138
0000000122,0000008067,027450,034882,027332,095726,035292,030778,096909,046783,096975,046982
0000000123,0000008133,026868,035692,026749,095413,036104,030208,096589,047633,096660,047830
0000000124,0000008200,026297,036505,026178,095084,036920,029650,096254,048486,096329,048680
0000000125,0000008267,025751,037325,025631,094722,037741,029118,095887,049344,095966,049536
0000000126,0000008333,025216,038146,025095,094345,038565,028599,095505,050204,095589,050393
0000000127,0000008400,024694,038970,024573,093952,039391,028094,095107,051066,095195,051252
0000000128,0000008467,024197,039797,024075,093529,040220,027615,094678,051930,094772,052113
0000000129,0000008533,023713,040626,023590,093090,041050,027150,094235,052795,094334,052975
0000000130,0000008600,023242,041455,023119,092636,041882,026699,093777,053661,093881,053837
0000000131,0000008667,022797,042286,022674,092153,042714,026276,093290,054526,093399,054700
0000000132,0000008733,022367,043116,022242,091654,043546,025868,092789,055391,092902,055562
0000000133,0000008800,021949,043947,021825,091142,044379,025475,092273,056256,092392,056423
0000000134,0000008867,021560,044776,021435,090601,045209,025110,091730,057118,091854,057282
0000000135,0000008933,021185,045604,021059,090047,046039,024761,091173,057978,091303,058139
0000000136,0000009000,020824,046431,020698,089479,046867,024427,090602,058836,090738,058994
0000000137,0000009067,020492,047254,020366,088884,047692,024123,090006,059689,090147,059844
0000000138,0000009133,020174,048074,020048,088276,048514,023835,089397,060540,089544,060691
0000000139,0000009200,019871,048893,019745,087656,049334,023562,088775,061387,088928,061535
0000000140,0000009267,019598,049705,019472,087010,050148,023321,088129,062227,088288,062372
0000000141,0000009333,019341,050514,019214,086353,050958,023095,087471,063062,087636,063204
0000000142,0000009400,019098,051319,018971,085683,051765,022885,086801,063894,086973,064032
0000000143,0000009467,018886,052116,018759,084991,052563,022707,086109,064716,086287,064851
0000000144,0000009533,018689,052908,018562,084287,053356,022546,085406,065532,085590,065664
0000000145,0000009600,018508,053696,018381,083572,054145,022400,084692,066343,084883,066472
0000000146,0000009667,018357,054473,018230,082837,054923,022287,083958,067142,084155,067267
0000000147,0000009733,018223,055244,018096,082091,055695,022190,083214,067934,083418,068056
0000000148,0000009800,018104,056009,017977,081335,056462,022109,082460,068720,082670,068839
0000000149,0000009867,018016,056762,017890,080561,057215,022061,081688,069491,081905,069607
0000000150,0000009933,017945,057507,017818,079777,057962,022029,080908,070255,081131,070368
0000000151,0000010000,017889,058246,017763,078985,058702,022014,080118,071011,080348,071121
0000000152,0000010067,017865,058970,017739,078176,059426,022032,079312,071751,079549,071857
0000000153,0000010133,017856,059686,017731,077359,060143,022066,078499,072482,078742,072585
0000000154,0000010200,017864,060395,017739,076535,060852,022116,077678,073204,077928,073304
0000000155,0000010267,017903,061086,017779,075696,061544,022199,076844,073908,077100,074004
0000000156,0000010333,017958,061768,017834,074850,062227,022298,076003,074602,076266,074695
0000000157,0000010400,018029,062442,017906,073998,062901,022414,075155,075286,075426,075376
0000000158,0000010467,018132,063096,018009,073134,063556,022562,074296,075950,074574,076037
0000000159,0000010533,018250,063741,018128,072264,064201,022726,073432,076603,073716,076687
0000000160,0000010600,018384,064376,018262,071389,064836,022906,072563,077245,072854,077326
0000000161,0000010667,018549,064990,018428,070505,065451,023118,071685,077865,071983,077943
0000000162,0000010733,018730,065594,018609,069616,066055,023346,070803,078473,071107,078549
0000000163,0000010800,018926,066186,018806,068723,066647,023590,069917,079070,070228,079143
0000000164,0000010867,019153,066757,019034,067824,067218,023865,069024,079643,069342,079712
0000000165,0000010933,019395,067315,019277,066921,067777,024155,068129,080203,068454,080270
0000000166,0000011000,019652,067863,019535,066016,068324,024461,067231,080751,067563,080815
0000000167,0000011067,019940,068386,019823,065106,068847,024798,066330,081273,066668,081334
0000000168,0000011133,020242,068897,020126,064195,069358,025149,065426,081782,065771,081841
0000000169,0000011200,020559,069395,020444,063282,069856,025515,064522,082278,064873,082334
0000000170,0000011267,020905,069869,020791,062367,070329,025911,063616,082747,063974,082800
0000000171,0000011333,021265,070329,021152,061452,070789,026321,062710,083202,063074,083252
0000000172,0000011400,021640,070776,021528,060537,071236,026746,061804,083643,062175,083690
0000000173,0000011467,022042,071196,021932,059622,071656,027199,060899,084055,061276,084101
0000000174,0000011533,022459,071603,022349,058709,072062,027666,059995,084453,060379,084496
0000000175,0000011600,022889,071996,022781,057797,072455,028147,059093,084837,059482,084877
0000000176,0000011667,023347,072362,023239,056888,072820,028654,058194,085191,058590,085229
0000000177,0000011733,023817,072713,023711,055981,073170,029175,057298,085530,057700,085566
0000000178,0000011800,024301,073050,024196,055076,073506,029709,056404,085854,056812,085888
0000000179,0000011867,024810,073358,024706,054178,073813,030268,055516,086148,055930,086179
0000000180,0000011933,025332,073651,025229,053283,074106,030840,054632,086426,055052,086455
0000000181,0000012000,025866,073930,025764,052392,074384,031424,053752,086688,054178,086716
0000000182,0000012067,026424,074179,026324,051509,074632,032032,052881,086920,053313,086945
0000000183,0000012133,026994,074413,026895,050632,074865,032651,052015,087135,052452,087159
0000000184,0000012200,027576,074632,027478,049759,075083,033282,051154,087335,051597,087357
0000000185,0000012267,028180,074821,028083,048897,075271,033935,050304,087503,050752,087523
0000000186,0000012333,028795,074994,028700,048041,075443,034599,049460,087655,049913,087673
0000000187,0000012400,029420,075152,029327,047191,075600,035273,048622,087790,049081,087807
0000000188,0000012467,030067,075279,029975,046355,075725,035967,047798,087894,048262,087909
0000000189,0000012533,030723,075391,030633,045526,075836,036671,046982,087981,047451,087995
0000000190,0000012600,031390,075487,031300,044704,075931,037385,046173,088052,046647,088064
0000000191,0000012667,032075,075552,031987,043898,075994,038117,045380,088090,045858,088101
0000000192,0000012733,032769,075601,032683,043101,076042,038857,044595,088112,045078,088122
0000000193,0000012800,033472,075635,033388,042312,076074,039606,043819,088118,044307,088127
0000000194,0000012867,034193,075637,034109,041541,076075,040372,043061,088091,043553,088099
0000000195,0000012933,034921,075624,034839,040779,076060,041144,042313,088048,042809,088055
0000000196,0000013000,035657,075595,035576,040028,076030,041924,041574,087988,042075,087994
0000000197,0000013067,036408,075535,036329,039296,075968,042719,040856,087896,041360,087901
0000000198,0000013133,037165,075459,037088,038575,075890,043519,040148,087788,040656,087792
0000000199,0000013200,037930,075368,037854,037865,075797,044326,039451,087664,039963,087667
0000000200,0000013267,038707,075245,038633,037177,075673,045145,038776,087507,039292,087510
0000000201,0000013333,039491,075107,039418,036500,075533,045968,038113,087335,038632,087337
0000000202,0000013400,040280,074954,040209,035835,075378,046797,037462,087146,037984,087148
0000000203,0000013467,041079,074770,041010,035194,075192,047636,036835,086926,037360,086927
