DIgSILENT PowerFactory,20000410,2000
10,10A,00D
1,LC684-652A:Phase Voltage A/Terminal i,,,kV,0.00010000000,-5.189636,0.000000,10023,99998,1,1,P
2,LC684-652A:Phase Voltage C/Terminal i,,,kV,0.00010000000,-4.293165,0.000000,-4175,99998,1,1,P
3,LC692-675:Phase Voltage A/Terminal i,,,kV,0.00010000000,-5.182722,0.000000,9925,99998,1,1,P
4,LC692-675:Phase Voltage B/Terminal i,,,kV,0.00010000000,-6.155534,0.000000,2592,99998,1,1,P
5,LC692-675:Phase Voltage C/Terminal i,,,kV,0.00010000000,-4.332590,0.000000,-3530,99998,1,1,P
6,LOHL632-633:Phase Voltage A/Terminal i,,,kV,0.00010000000,-5.692767,0.000000,18082,99998,1,1,P
7,LOHL632-633:Phase Voltage B/Terminal i,,,kV,0.00010000000,-6.316651,0.000000,14516,99998,1,1,P
8,LOHL632-633:Phase Voltage C/Terminal i,,,kV,0.00010000000,-5.384543,0.000000,10802,99998,1,1,P
9,LOHL645-646:Phase Voltage B/Terminal i,,,kV,0.00010000000,-6.344951,0.000000,15102,99998,1,1,P
10,LOHL645-646:Phase Voltage C/Terminal i,,,kV,0.00010000000,-5.397567,0.000000,11058,99998,1,1,P
50
1
15000.000000,3001
11/11/2020,17:06:09.000000
11/11/2020,17:06:09.000000
ASCII
1.000000
0000000001,0000000000,078022,047375,078010,028562,047717,084948,030670,057315,031152,057387
0000000002,0000000067,078536,046550,078524,028965,046890,085444,031078,056452,031556,056527
0000000003,0000000133,079037,045724,079026,029384,046062,085927,031501,055588,031974,055666
0000000004,0000000200,079526,044896,079515,029818,045232,086397,031940,054724,032408,054804
0000000005,0000000267,079988,044066,079978,030282,044400,086838,032408,053858,032870,053942
0000000006,0000000333,080437,043235,080427,030760,043568,087265,032890,052992,033348,053079
0000000007,0000000400,080872,042405,080863,031254,042736,087678,033387,052127,033839,052217
0000000008,0000000467,081280,041575,081271,031776,041904,088062,033912,051264,034359,051357
0000000009,0000000533,081674,040745,081666,032311,041073,088431,034450,050401,034892,050498
0000000010,0000000600,082054,039917,082046,032861,040243,088786,035003,049541,035439,049640
0000000011,0000000667,082405,039091,082398,033438,039416,089110,035582,048684,036012,048787
0000000012,0000000733,082742,038268,082735,034029,038590,089419,036174,047830,036599,047936
0000000013,0000000800,083065,037446,083058,034632,037767,089712,036779,046978,037198,047087
0000000014,0000000867,083358,036630,083351,035261,036949,089974,037409,046133,037822,046246
0000000015,0000000933,083636,035817,083629,035902,036135,090221,038051,045292,038458,045408
0000000016,0000001000,083898,035007,083892,036556,035323,090452,038705,044455,039106,044574
0000000017,0000001067,084131,034204,084125,037233,034519,090652,039382,043627,039777,043749
0000000018,0000001133,084349,033406,084342,037922,033720,090835,040070,042804,040459,042929
0000000019,0000001200,084551,032612,084544,038621,032925,091002,040770,041985,041152,042114
0000000020,0000001267,084722,031828,084715,039343,032139,091137,041490,041178,041866,041310
0000000021,0000001333,084877,031049,084871,040075,031360,091256,042221,040377,042590,040512
0000000022,0000001400,085017,030276,085011,040817,030585,091358,042962,039583,043325,039721
0000000023,0000001467,085126,029514,085119,041580,029823,091428,043722,038802,044078,038943
0000000024,0000001533,085218,028760,085212,042351,029067,091481,044491,038028,044841,038172
0000000025,0000001600,085295,028011,085288,043131,028318,091519,045269,037261,045612,037409
0000000026,0000001667,085341,027277,085333,043930,027583,091523,046064,036510,046400,036661
0000000027,0000001733,085370,026551,085362,044736,026856,091511,046867,035768,047197,035922
0000000028,0000001800,085384,025832,085376,045550,026136,091482,047678,035034,048001,035191
0000000029,0000001867,085365,025129,085357,046380,025433,091421,048503,034318,048820,034478
0000000030,0000001933,085331,024435,085323,047216,024738,091344,049336,033611,049645,033775
0000000031,0000002000,085281,023750,085272,048060,024052,091250,050175,032913,050478,033080
0000000032,0000002067,085200,023082,085190,048916,023384,091123,051026,032236,051322,032406
0000000033,0000002133,085102,022424,085092,049779,022726,090981,051883,031569,052172,031742
0000000034,0000002200,084989,021776,084979,050647,022077,090822,052746,030912,053028,031088
0000000035,0000002267,084845,021148,084834,051525,021448,090631,053618,030277,053894,030456
0000000036,0000002333,084685,020530,084673,052408,020830,090424,054495,029653,054763,029835
0000000037,0000002400,084509,019923,084497,053295,020223,090201,055376,029041,055638,029226
0000000038,0000002467,084303,019338,084289,054190,019637,089947,056264,028452,056519,028640
0000000039,0000002533,084081,018764,084067,055089,019063,089677,057156,027875,057404,028066
0000000040,0000002600,083844,018201,083829,055991,018500,089392,058050,027311,058292,027505
0000000041,0000002667,083576,017661,083561,056898,017961,089076,058949,026771,059184,026968
0000000042,0000002733,083294,017134,083278,057807,017434,088744,059850,026245,060079,026444
0000000043,0000002800,082997,016619,082979,058718,016919,088398,060753,025731,060975,025934
0000000044,0000002867,082670,016129,082652,059631,016429,088022,061658,025244,061873,025449
0000000045,0000002933,082329,015651,082310,060546,015952,087631,062564,024771,062772,024979
0000000046,0000003000,081973,015187,081953,061461,015487,087225,063470,024312,063672,024522
0000000047,0000003067,081589,014749,081568,062376,015050,086791,064376,023880,064571,024093
0000000048,0000003133,081191,014324,081169,063290,014625,086343,065281,023463,065470,023678
0000000049,0000003200,080779,013912,080756,064204,014214,085880,066185,023060,066368,023278
0000000050,0000003267,080340,013529,080315,065115,013831,085391,067087,022686,067263,022906
0000000051,0000003333,079887,013159,079861,066025,013462,084888,067986,022327,068156,022550
0000000052,0000003400,079421,012803,079394,066932,013107,084371,068883,021983,069047,022208
0000000053,0000003467,078929,012476,078901,067835,012780,083829,069775,021669,069933,021896
0000000054,0000003533,078424,012163,078395,068734,012468,083274,070663,021371,070815,021600
0000000055,0000003600,077906,011865,077876,069630,012171,082706,071549,021088,071695,021319
0000000056,0000003667,077364,011596,077332,070519,011903,082114,072426,020835,072566,021068
0000000057,0000003733,076810,011342,076777,071402,011650,081510,073298,020599,073433,020834
0000000058,0000003800,076244,011103,076210,072282,011412,080895,074166,020378,074295,020615
0000000059,0000003867,075655,010894,075619,073151,011204,080256,075024,020189,075147,020427
0000000060,0000003933,075055,010700,075018,074015,011011,079607,075876,020016,075994,020256
0000000061,0000004000,074443,010522,074405,074873,010834,078947,076722,019859,076834,020101
0000000062,0000004067,073810,010374,073771,075718,010687,078266,077555,019734,077662,019977
0000000063,0000004133,073167,010242,073126,076557,010556,077575,078381,019625,078483,019870
0000000064,0000004200,072514,010125,072472,077389,010441,076874,079200,019532,079297,019779
0000000065,0000004267,071841,010039,071797,078205,010356,076154,080004,019472,080096,019720
0000000066,0000004333,071159,009969,071114,079014,010288,075425,080800,019428,080887,019678
0000000067,0000004400,070468,009915,070421,079814,010235,074688,081588,019401,081670,019651
0000000068,0000004467,069759,009891,069711,080597,010213,073933,082358,019406,082436,019658
0000000069,0000004533,069042,009884,068992,081371,010207,073171,083119,019427,083193,019680
0000000070,0000004600,068316,009892,068265,082136,010216,072400,083870,019465,083940,019719
0000000071,0000004667,067575,009931,067522,082881,010257,071615,084602,019536,084668,019790
0000000072,0000004733,066827,009986,066772,083616,010314,070824,085324,019622,085386,019878
0000000073,0000004800,066071,010057,066015,084341,010386,070025,086036,019725,086093,019981
0000000074,0000004867,065302,010158,065244,085044,010490,069214,086725,019860,086779,020117
0000000075,0000004933,064527,010275,064468,085736,010609,068397,087404,020011,087454,020269
0000000076,0000005000,063745,010408,063685,086417,010743,067575,088071,020178,088118,020437
0000000077,0000005067,062953,010572,062890,087074,010909,066743,088714,020378,088758,020636
0000000078,0000005133,062155,010750,062091,087718,011089,065906,089345,020593,089386,020852
0000000079,0000005200,061352,010945,061287,088351,011285,065065,089964,020823,090002,021083
0000000080,0000005267,060541,011169,060474,088958,011512,064216,090558,021085,090593,021345
0000000081,0000005333,059725,011408,059657,089552,011753,063364,091138,021363,091171,021623
0000000082,0000005400,058906,011663,058835,090133,012010,062509,091706,021656,091735,021916
0000000083,0000005467,058080,011947,058008,090686,012296,061648,092246,021979,092273,022239
0000000084,0000005533,057251,012245,057177,091226,012597,060785,092772,022318,092798,022577
0000000085,0000005600,056419,012559,056344,091752,012912,059921,093285,022671,093308,022931
0000000086,0000005667,055583,012901,055507,092249,013256,059053,093769,023054,093790,023313
0000000087,0000005733,054746,013257,054668,092732,013614,058185,094238,023452,094258,023710
0000000088,0000005800,053907,013627,053828,093200,013987,057316,094693,023864,094711,024122
0000000089,0000005867,053066,014025,052985,093638,014387,056446,095117,024304,095134,024562
0000000090,0000005933,052225,014437,052142,094060,014801,055577,095527,024758,095543,025016
0000000091,0000006000,051384,014862,051299,094468,015229,054709,095921,025227,095936,025483
0000000092,0000006067,050543,015314,050457,094844,015683,053842,096284,025722,096298,025978
0000000093,0000006133,049702,015779,049615,095204,016150,052977,096632,026230,096645,026485
0000000094,0000006200,048863,016257,048774,095548,016630,052114,096964,026752,096976,027006
0000000095,0000006267,048027,016760,047936,095861,017135,051255,097263,027300,097276,027553
0000000096,0000006333,047192,017275,047100,096156,017653,050400,097547,027859,097559,028111
0000000097,0000006400,046360,017803,046266,096436,018183,049547,097814,028432,097827,028682
0000000098,0000006467,045532,018354,045438,096683,018737,048701,098049,029028,098061,029278
0000000099,0000006533,044708,018917,044612,096912,019302,047859,098267,029636,098280,029884
0000000100,0000006600,043888,019492,043790,097125,019879,047021,098468,030256,098481,030502
0000000101,0000006667,043074,020088,042975,097305,020478,046193,098636,030898,098650,031143
0000000102,0000006733,042266,020696,042165,097467,021088,045370,098787,031550,098802,031794
0000000103,0000006800,041461,021314,041359,097613,021708,044552,098921,032214,098937,032456
0000000104,0000006867,040666,021952,040563,097724,022349,043746,099021,032897,099039,033138
0000000105,0000006933,039877,022601,039773,097819,023000,042947,099105,033591,099123,033830
0000000106,0000007000,039094,023259,038988,097896,023660,042153,099171,034294,099191,034531
0000000107,0000007067,038322,023935,038215,097938,024340,041374,099203,035016,099225,035251
0000000108,0000007133,037557,024621,037449,097964,025027,040603,099219,035747,099242,035980
0000000109,0000007200,036799,025315,036690,097972,025724,039839,099217,036486,099242,036718
0000000110,0000007267,036055,026026,035945,097946,026438,039091,099181,037242,099209,037471
0000000111,0000007333,035319,026745,035207,097902,027159,038351,099128,038006,099158,038233
0000000112,0000007400,034590,027472,034478,097841,027888,037621,099057,038777,099090,039002
0000000113,0000007467,033878,028214,033764,097746,028632,036908,098953,039563,098989,039785
0000000114,0000007533,033175,028962,033060,097634,029382,036206,098832,040355,098871,040575
0000000115,0000007600,032480,029717,032364,097505,030140,035513,098694,041153,098736,041371
0000000116,0000007667,031804,030484,031687,097341,030909,034840,098523,041964,098567,042179
0000000117,0000007733,031137,031258,031019,097161,031685,034178,098334,042780,098382,042993
0000000118,0000007800,030480,032037,030361,096963,032466,033526,098129,043602,098180,043812
0000000119,0000007867,029843,032826,029723,096733,033257,032897,097891,044433,097946,044641
0000000120,0000007933,029217,033620,029096,096485,034054,032279,097636,045268,097695,045473
0000000121,0000008000,028602,034418,028480,096221,034854,031673,097365,046108,097428,046311
0000000122,0000008067,028009,035225,027886,095924,035663,031091,097062,046955,097128,047155
0000000123,0000008133,027427,036035,027303,095611,036475,030521,096742,047805,096813,048002
0000000124,0000008200,026856,036848,026732,095282,037290,029963,096407,048659,096482,048853
0000000125,0000008267,026309,037667,026184,094920,038112,029431,096040,049517,096119,049708
0000000126,0000008333,025775,038489,025649,094543,038935,028913,095658,050377,095742,050565
0000000127,0000008400,025253,039313,025126,094151,039761,028407,095260,051239,095348,051424
0000000128,0000008467,024756,040140,024629,093727,040590,027928,094832,052103,094925,052285
0000000129,0000008533,024272,040968,024144,093288,041421,027463,094388,052968,094487,053147
0000000130,0000008600,023801,041798,023672,092834,042252,027012,093930,053833,094034,054010
0000000131,0000008667,023356,042629,023227,092351,043084,026590,093443,054699,093552,054872
0000000132,0000008733,022925,043459,022796,091853,043917,026182,092942,055564,093055,055734
0000000133,0000008800,022508,044290,022378,091340,044749,025788,092426,056428,092545,056596
0000000134,0000008867,022119,045119,021989,090799,045580,025424,091883,057290,092007,057454
0000000135,0000008933,021743,045947,021613,090245,046409,025075,091326,058150,091456,058311
0000000136,0000009000,021382,046773,021252,089677,047238,024740,090755,059009,090891,059166
0000000137,0000009067,021050,047597,020919,089082,048062,024437,090159,059862,090300,060017
0000000138,0000009133,020733,048417,020602,088474,048885,024148,089550,060712,089697,060864
0000000139,0000009200,020430,049236,020299,087854,049705,023876,088928,061559,089081,061708
0000000140,0000009267,020157,050048,020025,087208,050518,023634,088282,062399,088441,062544
0000000141,0000009333,019899,050857,019767,086551,051328,023408,087624,063235,087789,063377
0000000142,0000009400,019657,051662,019525,085881,052135,023199,086954,064066,087126,064205
0000000143,0000009467,019444,052459,019312,085189,052933,023021,086262,064888,086440,065023
0000000144,0000009533,019248,053251,019116,084485,053727,022859,085559,065705,085743,065837
0000000145,0000009600,019066,054038,018934,083771,054515,022713,084846,066515,085036,066644
0000000146,0000009667,018916,054815,018784,083035,055293,022600,084111,067314,084308,067440
0000000147,0000009733,018781,055587,018649,082289,056066,022503,083367,068107,083571,068229
0000000148,0000009800,018662,056352,018531,081534,056832,022422,082614,068892,082823,069011
0000000149,0000009867,018575,057105,018443,080759,057586,022374,081841,069664,082058,069780
0000000150,0000009933,018503,057850,018372,079976,058332,022343,081061,070428,081284,070540
0000000151,0000010000,018447,058589,018316,079183,059072,022327,080271,071184,080501,071293
0000000152,0000010067,018423,059313,018293,078374,059797,022345,079465,071923,079702,072030
0000000153,0000010133,018415,060029,018285,077557,060514,022379,078652,072654,078895,072757
0000000154,0000010200,018423,060737,018293,076733,061222,022429,077831,073377,078081,073476
0000000155,0000010267,018462,061429,018332,075894,061914,022512,076997,074080,077253,074177
0000000156,0000010333,018517,062111,018388,075048,062597,022611,076156,074774,076419,074868
0000000157,0000010400,018588,062784,018459,074196,063271,022727,075308,075459,075579,075549
0000000158,0000010467,018691,063439,018563,073332,063926,022875,074450,076122,074726,076210
0000000159,0000010533,018809,064084,018681,072462,064571,023039,073586,076775,073869,076860
0000000160,0000010600,018943,064719,018816,071587,065207,023219,072716,077418,073007,077499
0000000161,0000010667,019108,065333,018982,070703,065821,023431,071838,078038,072136,078116
0000000162,0000010733,019289,065936,019163,069814,066425,023659,070956,078646,071260,078721
0000000163,0000010800,019485,066529,019360,068922,067018,023903,070070,079243,070381,079315
0000000164,0000010867,019712,067099,019588,068022,067588,024178,069178,079816,069495,079885
0000000165,0000010933,019954,067658,019830,067119,068147,024469,068282,080376,068607,080442
0000000166,0000011000,020211,068205,020089,066214,068694,024774,067385,080924,067716,080987
0000000167,0000011067,020498,068729,020377,065304,069218,025111,066483,081446,066820,081507
0000000168,0000011133,020800,069240,020680,064393,069728,025462,065580,081955,065924,082013
0000000169,0000011200,021117,069738,020997,063480,070227,025829,064675,082451,065026,082506
0000000170,0000011267,021463,070212,021344,062565,070700,026224,063769,082919,064127,082972
0000000171,0000011333,021824,070672,021706,061650,071160,026635,062863,083374,063227,083425
0000000172,0000011400,022198,071119,022081,060735,071606,027059,061957,083815,062328,083863
0000000173,0000011467,022601,071539,022485,059821,072026,027512,061052,084228,061429,084273
0000000174,0000011533,023018,071946,022903,058907,072433,027979,060148,084626,060532,084669
0000000175,0000011600,023448,072339,023334,057995,072825,028460,059246,085009,059635,085050
0000000176,0000011667,023905,072704,023793,057086,073190,028968,058347,085363,058743,085402
0000000177,0000011733,024376,073056,024264,056179,073540,029488,057451,085702,057853,085738
0000000178,0000011800,024860,073392,024749,055275,073877,030022,056557,086027,056965,086060
0000000179,0000011867,025369,073701,025260,054376,074184,030581,055669,086320,056083,086352
0000000180,0000011933,025890,073994,025783,053482,074476,031153,054786,086598,055205,086628
0000000181,0000012000,026424,074273,026318,052590,074754,031737,053905,086861,054331,086888
0000000182,0000012067,026983,074522,026877,051708,075002,032345,053034,087092,053466,087118
0000000183,0000012133,027553,074756,027449,050830,075235,032965,052168,087308,052605,087331
0000000184,0000012200,028134,074975,028032,049957,075453,033595,051307,087508,051749,087529
0000000185,0000012267,028738,075163,028637,049095,075641,034248,050457,087675,050905,087696
0000000186,0000012333,029353,075337,029253,048239,075813,034912,049613,087827,050066,087846
0000000187,0000012400,029979,075495,029880,047389,075970,035586,048775,087963,049234,087980
0000000188,0000012467,030626,075622,030528,046553,076096,036281,047952,088066,048415,088082
0000000189,0000012533,031282,075734,031186,045724,076206,036985,047135,088153,047604,088167
0000000190,0000012600,031948,075830,031854,044902,076301,037698,046326,088224,046800,088237
0000000191,0000012667,032634,075895,032541,044097,076365,038430,045533,088263,046011,088274
0000000192,0000012733,033328,075944,033236,043299,076412,039171,044748,088285,045231,088295
0000000193,0000012800,034031,075978,033941,042510,076445,039920,043972,088291,044460,088299
0000000194,0000012867,034751,075980,034663,041739,076445,040685,043214,088264,043706,088271
0000000195,0000012933,035479,075967,035392,040978,076431,041458,042466,088220,042962,088227
0000000196,0000013000,036215,075938,036130,040226,076400,042238,041727,088161,042228,088167
0000000197,0000013067,036966,075878,036882,039494,076338,043032,041009,088069,041513,088074
0000000198,0000013133,037724,075802,037642,038773,076261,043832,040301,087961,040809,087965
0000000199,0000013200,038489,075711,038408,038063,076168,044639,039604,087836,040116,087840
0000000200,0000013267,039266,075588,039187,037375,076043,045458,038929,087680,039445,087683
0000000201,0000013333,040049,075450,039972,036698,075904,046282,038266,087507,038785,087510
0000000202,0000013400,040838,075297,040762,036033,075748,047111,037615,087319,038137,087320
0000000203,0000013467,041638,075113,041563,035393,075563,047949,036988,087098,037513,087100
