DIgSILENT PowerFactory,20000410,2000
10,10A,00D
1,LC684-652A:Phase Voltage A/Terminal i,,,kV,0.00010000000,-5.355126,0.000000,15603,99998,1,1,P
2,LC684-652A:Phase Voltage C/Terminal i,,,kV,0.00010000000,-6.645568,0.000000,28091,99998,1,1,P
3,LC692-675:Phase Voltage A/Terminal i,,,kV,0.00010000000,-5.342106,0.000000,15362,99998,1,1,P
4,LC692-675:Phase Voltage B/Terminal i,,,kV,0.00010000000,-6.073036,0.000000,10633,99998,1,1,P
5,LC692-675:Phase Voltage C/Terminal i,,,kV,0.00010000000,-6.639702,0.000000,28185,99998,1,1,P
6,LOHL632-633:Phase Voltage A/Terminal i,,,kV,0.00010000000,-5.675886,0.000000,19330,99998,1,1,P
7,LOHL632-633:Phase Voltage B/Terminal i,,,kV,0.00010000000,-6.190016,0.000000,18858,99998,1,1,P
8,LOHL632-633:Phase Voltage C/Terminal i,,,kV,0.00010000000,-6.528161,0.000000,27575,99998,1,1,P
9,LOHL645-646:Phase Voltage B/Terminal i,,,kV,0.00010000000,-6.217616,0.000000,19400,99998,1,1,P
10,LOHL645-646:Phase Voltage C/Terminal i,,,kV,0.00010000000,-6.539096,0.000000,27822,99998,1,1,P
50
1
15000.000000,3001
11/11/2020,17:01:18.000000
11/11/2020,17:01:18.000000
ASCII
1.000000
0000000001,0000000000,079677,070899,079604,027737,070789,084779,029404,068751,029879,068802
0000000002,0000000067,080191,070074,080118,028140,069962,085275,029812,067888,030282,067942
0000000003,0000000133,080692,069248,080620,028559,069133,085758,030235,067024,030701,067082
0000000004,0000000200,081181,068420,081109,028993,068303,086228,030673,066160,031134,066220
0000000005,0000000267,081643,067590,081572,029457,067471,086669,031141,065294,031597,065357
0000000006,0000000333,082092,066760,082021,029935,066639,087097,031624,064429,032074,064495
0000000007,0000000400,082527,065929,082457,030429,065807,087510,032120,063563,032566,063632
0000000008,0000000467,082935,065099,082865,030951,064975,087894,032645,062700,033085,062772
0000000009,0000000533,083329,064270,083260,031486,064144,088263,033184,061838,033619,061913
0000000010,0000000600,083709,063441,083640,032036,063314,088617,033737,060977,034166,061055
0000000011,0000000667,084060,062616,083992,032613,062487,088941,034316,060120,034739,060202
0000000012,0000000733,084397,061792,084329,033204,061662,089250,034908,059266,035325,059351
0000000013,0000000800,084720,060970,084652,033807,060838,089543,035513,058415,035924,058503
0000000014,0000000867,085012,060154,084945,034436,060021,089806,036143,057570,036548,057661
0000000015,0000000933,085290,059341,085223,035077,059206,090052,036784,056729,037184,056823
0000000016,0000001000,085553,058531,085486,035731,058394,090283,037439,055891,037832,055989
0000000017,0000001067,085786,057728,085719,036408,057591,090483,038116,055063,038503,055164
0000000018,0000001133,086003,056930,085936,037097,056791,090666,038804,054240,039185,054344
0000000019,0000001200,086205,056136,086138,037796,055996,090833,039503,053421,039878,053529
0000000020,0000001267,086377,055352,086309,038518,055211,090968,040224,052614,040593,052725
0000000021,0000001333,086532,054573,086465,039250,054431,091087,040955,051814,041317,051928
0000000022,0000001400,086672,053800,086604,039993,053656,091189,041696,051019,042051,051136
0000000023,0000001467,086781,053039,086713,040755,052894,091259,042456,050238,042805,050358
0000000024,0000001533,086873,052284,086805,041526,052138,091313,043225,049464,043567,049588
0000000025,0000001600,086950,051536,086882,042306,051389,091350,044003,048697,044339,048824
0000000026,0000001667,086996,050801,086927,043105,050654,091354,044798,047947,045127,048077
0000000027,0000001733,087025,050075,086956,043911,049927,091342,045601,047204,045923,047338
0000000028,0000001800,087038,049356,086970,044725,049207,091314,046412,046470,046727,046607
0000000029,0000001867,087020,048653,086951,045555,048504,091252,047237,045754,047546,045894
0000000030,0000001933,086986,047959,086916,046391,047809,091175,048069,045047,048372,045190
0000000031,0000002000,086936,047274,086866,047235,047123,091081,048908,044350,049204,044496
0000000032,0000002067,086855,046606,086784,048091,046455,090954,049760,043672,050049,043821
0000000033,0000002133,086757,045948,086686,048954,045797,090812,050617,043005,050899,043157
0000000034,0000002200,086644,045300,086573,049822,045148,090653,051479,042348,051755,042503
0000000035,0000002267,086500,044672,086427,050700,044520,090462,052352,041713,052620,041871
0000000036,0000002333,086340,044054,086267,051583,043902,090255,053228,041089,053490,041251
0000000037,0000002400,086164,043447,086090,052470,043294,090033,054109,040477,054364,040641
0000000038,0000002467,085958,042862,085883,053365,042709,089778,054998,039888,055246,040055
0000000039,0000002533,085736,042288,085661,054264,042134,089508,055889,039311,056131,039482
0000000040,0000002600,085499,041725,085423,055166,041571,089223,056784,038747,057018,038920
0000000041,0000002667,085231,041185,085155,056073,041032,088907,057683,038207,057911,038383
0000000042,0000002733,084949,040658,084871,056982,040505,088575,058584,037681,058805,037860
0000000043,0000002800,084652,040143,084573,057893,039990,088229,059487,037167,059702,037349
0000000044,0000002867,084325,039653,084246,058806,039500,087853,060392,036681,060600,036865
0000000045,0000002933,083984,039175,083904,059721,039023,087462,061298,036207,061499,036394
0000000046,0000003000,083628,038711,083547,060636,038559,087056,062204,035748,062399,035937
0000000047,0000003067,083244,038273,083162,061551,038121,086622,063110,035316,063298,035508
0000000048,0000003133,082846,037848,082763,062465,037696,086174,064015,034899,064197,035093
0000000049,0000003200,082434,037436,082350,063379,037285,085712,064919,034496,065095,034693
0000000050,0000003267,081995,037053,081909,064290,036902,085222,065820,034122,065990,034321
0000000051,0000003333,081542,036683,081455,065200,036533,084719,066720,033764,066883,033965
0000000052,0000003400,081076,036327,080988,066107,036178,084202,067617,033419,067774,033623
0000000053,0000003467,080584,036000,080495,067010,035851,083660,068509,033106,068660,033311
0000000054,0000003533,080079,035687,079988,067909,035539,083105,069397,032807,069542,033015
0000000055,0000003600,079561,035389,079470,068805,035242,082537,070282,032524,070421,032734
0000000056,0000003667,079019,035120,078926,069694,034974,081945,071159,032272,071293,032484
0000000057,0000003733,078465,034866,078371,070578,034721,081341,072032,032035,072160,032249
0000000058,0000003800,077899,034627,077804,071457,034483,080726,072900,031814,073022,032030
0000000059,0000003867,077310,034418,077213,072326,034275,080088,073758,031625,073874,031843
0000000060,0000003933,076709,034224,076611,073190,034082,079438,074609,031452,074720,031671
0000000061,0000004000,076098,034046,075999,074048,033905,078778,075455,031295,075561,031516
0000000062,0000004067,075465,033898,075365,074893,033758,078097,076289,031170,076389,031393
0000000063,0000004133,074822,033766,074720,075732,033627,077406,077115,031061,077210,031285
0000000064,0000004200,074169,033649,074066,076564,033512,076705,077934,030968,078024,031194
0000000065,0000004267,073496,033563,073391,077380,033428,075985,078738,030908,078823,031135
0000000066,0000004333,072814,033493,072708,078189,033359,075257,079534,030865,079614,031093
0000000067,0000004400,072123,033439,072015,078989,033306,074519,080321,030837,080397,031067
0000000068,0000004467,071414,033415,071305,079772,033284,073764,081091,030842,081163,031073
0000000069,0000004533,070697,033408,070586,080546,033278,073002,081852,030864,081919,031096
0000000070,0000004600,069971,033416,069859,081311,033288,072231,082604,030901,082667,031134
0000000071,0000004667,069230,033455,069116,082056,033328,071446,083336,030972,083395,031206
0000000072,0000004733,068482,033510,068366,082791,033385,070655,084058,031058,084112,031293
0000000073,0000004800,067726,033581,067609,083516,033457,069856,084769,031161,084820,031397
0000000074,0000004867,066957,033682,066838,084219,033561,069045,085459,031296,085506,031532
0000000075,0000004933,066182,033799,066061,084911,033680,068229,086137,031447,086181,031684
0000000076,0000005000,065400,033932,065278,085592,033814,067406,086804,031615,086844,031852
0000000077,0000005067,064608,034096,064484,086249,033980,066574,087448,031814,087485,032052
0000000078,0000005133,063810,034275,063685,086893,034161,065737,088079,032029,088113,032267
0000000079,0000005200,063007,034469,062881,087526,034357,064896,088698,032259,088729,032498
0000000080,0000005267,062196,034693,062067,088133,034583,064047,089292,032522,089320,032760
0000000081,0000005333,061380,034932,061250,088727,034824,063195,089872,032799,089897,033038
0000000082,0000005400,060561,035187,060429,089308,035081,062340,090439,033092,090462,033331
0000000083,0000005467,059734,035471,059602,089862,035367,061479,090980,033415,091000,033654
0000000084,0000005533,058906,035769,058771,090401,035668,060617,091506,033754,091524,033993
0000000085,0000005600,058074,036083,057938,090927,035983,059752,092018,034107,092035,034346
0000000086,0000005667,057238,036425,057101,091424,036327,058884,092502,034490,092517,034729
0000000087,0000005733,056401,036781,056262,091907,036686,058016,092972,034888,092984,035126
0000000088,0000005800,055562,037151,055421,092375,037058,057147,093426,035300,093437,035537
0000000089,0000005867,054721,037549,054579,092813,037458,056277,093851,035740,093861,035977
0000000090,0000005933,053880,037961,053736,093235,037872,055408,094261,036195,094269,036431
0000000091,0000006000,053039,038386,052893,093643,038300,054540,094655,036663,094663,036898
0000000092,0000006067,052198,038838,052051,094019,038754,053673,095018,037158,095025,037393
0000000093,0000006133,051357,039303,051209,094379,039221,052808,095366,037667,095372,037901
0000000094,0000006200,050518,039781,050368,094723,039701,051945,095697,038188,095703,038421
0000000095,0000006267,049681,040284,049530,095036,040207,051087,095997,038736,096003,038968
0000000096,0000006333,048847,040799,048694,095331,040724,050231,096281,039296,096286,039527
0000000097,0000006400,048015,041327,047860,095611,041254,049378,096548,039868,096553,040098
0000000098,0000006467,047187,041878,047032,095858,041808,048532,096782,040464,096788,040693
0000000099,0000006533,046363,042441,046206,096087,042373,047690,097000,041072,097006,041300
0000000100,0000006600,045543,043016,045384,096301,042950,046853,097202,041692,097208,041918
0000000101,0000006667,044729,043612,044569,096480,043549,046024,097369,042334,097377,042558
0000000102,0000006733,043920,044220,043759,096642,044159,045201,097521,042986,097529,043209
0000000103,0000006800,043116,044838,042953,096788,044780,044383,097655,043650,097664,043871
0000000104,0000006867,042321,045476,042157,096899,045420,043577,097755,044334,097765,044553
0000000105,0000006933,041532,046125,041367,096994,046071,042778,097838,045027,097850,045245
0000000106,0000007000,040749,046783,040582,097071,046732,041985,097905,045731,097918,045947
0000000107,0000007067,039977,047459,039809,097113,047411,041205,097937,046453,097952,046667
0000000108,0000007133,039212,048145,039043,097139,048099,040434,097952,047183,097969,047395
0000000109,0000007200,038454,048839,038284,097147,048795,039670,097950,047923,097969,048133
0000000110,0000007267,037710,049550,037539,097121,049509,038922,097914,048678,097935,048887
0000000111,0000007333,036974,050269,036801,097077,050230,038183,097861,049442,097885,049648
0000000112,0000007400,036245,050996,036071,097016,050959,037452,097791,050213,097817,050417
0000000113,0000007467,035533,051738,035358,096921,051703,036740,097687,050999,097715,051200
0000000114,0000007533,034830,052486,034654,096809,052453,036037,097566,051791,097597,051990
0000000115,0000007600,034135,053241,033958,096680,053211,035344,097428,052589,097462,052786
0000000116,0000007667,033459,054008,033280,096516,053980,034671,097256,053400,097294,053595
0000000117,0000007733,032792,054782,032613,096336,054756,034009,097068,054216,097109,054408
0000000118,0000007800,032135,055561,031955,096138,055537,033358,096863,055038,096907,055227
0000000119,0000007867,031498,056350,031317,095908,056329,032728,096624,055869,096672,056056
0000000120,0000007933,030872,057144,030690,095660,057125,032111,096370,056705,096421,056889
0000000121,0000008000,030257,057942,030074,095396,057925,031504,096099,057544,096154,057726
0000000122,0000008067,029663,058749,029480,095099,058734,030922,095795,058391,095855,058570
0000000123,0000008133,029082,059559,028897,094786,059546,030352,095476,059242,095540,059418
0000000124,0000008200,028511,060372,028326,094457,060362,029795,095141,060095,095208,060268
0000000125,0000008267,027964,061191,027778,094095,061183,029263,094774,060953,094846,061123
0000000126,0000008333,027430,062013,027243,093718,062006,028744,094391,061813,094468,061980
0000000127,0000008400,026908,062837,026720,093326,062832,028238,093994,062675,094075,062839
0000000128,0000008467,026411,063664,026222,092902,063661,027759,093565,063539,093652,063701
0000000129,0000008533,025927,064492,025738,092463,064492,027295,093122,064404,093213,064563
0000000130,0000008600,025455,065322,025266,092009,065323,026844,092664,065270,092760,065425
0000000131,0000008667,025011,066153,024821,091526,066155,026421,092177,066135,092278,066288
0000000132,0000008733,024580,066983,024390,091028,066988,026013,091675,067000,091782,067150
0000000133,0000008800,024163,067814,023972,090515,067820,025619,091160,067864,091272,068011
0000000134,0000008867,023774,068643,023582,089974,068651,025255,090616,068726,090734,068870
0000000135,0000008933,023398,069471,023207,089420,069481,024906,090059,069586,090182,069727
0000000136,0000009000,023037,070298,022845,088852,070309,024572,089489,070445,089618,070582
0000000137,0000009067,022705,071121,022513,088257,071134,024268,088893,071298,089027,071432
0000000138,0000009133,022388,071941,022195,087649,071956,023980,088284,072148,088424,072279
0000000139,0000009200,022085,072760,021892,087029,072776,023707,087662,072996,087808,073123
0000000140,0000009267,021812,073572,021619,086383,073589,023465,087016,073836,087168,073960
0000000141,0000009333,021554,074381,021361,085726,074400,023240,086358,074671,086516,074792
0000000142,0000009400,021311,075186,021118,085056,075206,023030,085688,075503,085853,075620
0000000143,0000009467,021099,075983,020906,084364,076004,022852,084996,076324,085167,076439
0000000144,0000009533,020902,076775,020709,083660,076798,022690,084293,077141,084470,077252
0000000145,0000009600,020721,077562,020528,082946,077586,022544,083579,077952,083763,078059
0000000146,0000009667,020571,078339,020378,082210,078365,022431,082845,078750,083035,078855
0000000147,0000009733,020436,079111,020243,081464,079137,022334,082101,079543,082297,079644
0000000148,0000009800,020317,079876,020125,080709,079903,022253,081347,080329,081550,080427
0000000149,0000009867,020230,080629,020037,079934,080657,022205,080575,081100,080784,081195
0000000150,0000009933,020158,081374,019966,079151,081403,022174,079794,081864,080010,081955
0000000151,0000010000,020102,082113,019910,078358,082143,022159,079005,082620,079227,082708
0000000152,0000010067,020078,082837,019886,077549,082868,022176,078199,083360,078428,083445
0000000153,0000010133,020070,083553,019879,076732,083585,022210,077386,084091,077622,084173
0000000154,0000010200,020078,084261,019886,075908,084294,022260,076565,084813,076808,084892
0000000155,0000010267,020117,084953,019926,075069,084986,022343,075730,085517,075980,085592
0000000156,0000010333,020172,085635,019982,074223,085668,022443,074889,086211,075146,086283
0000000157,0000010400,020243,086308,020053,073371,086342,022558,074042,086895,074305,086964
0000000158,0000010467,020346,086963,020156,072507,086997,022706,073183,087558,073453,087625
0000000159,0000010533,020464,087608,020275,071637,087643,022870,072319,088212,072596,088275
0000000160,0000010600,020598,088243,020410,070762,088278,023050,071450,088854,071734,088914
0000000161,0000010667,020763,088857,020576,069878,088892,023263,070572,089474,070862,089531
0000000162,0000010733,020944,089460,020757,068989,089496,023491,069690,090082,069987,090137
0000000163,0000010800,021140,090053,020954,068097,090089,023734,068804,090679,069108,090730
0000000164,0000010867,021367,090624,021181,067197,090659,024009,067911,091252,068222,091300
0000000165,0000010933,021609,091182,021424,066294,091218,024300,067016,091812,067333,091858
0000000166,0000011000,021866,091730,021682,065389,091766,024606,066118,092360,066442,092403
0000000167,0000011067,022153,092253,021970,064479,092289,024942,065216,092882,065547,092922
0000000168,0000011133,022455,092764,022273,063568,092800,025293,064313,093391,064651,093428
0000000169,0000011200,022772,093262,022591,062655,093298,025660,063409,093887,063753,093922
0000000170,0000011267,023118,093736,022938,061740,093771,026056,062503,094356,062853,094388
0000000171,0000011333,023479,094196,023300,060825,094231,026466,061597,094810,061954,094840
0000000172,0000011400,023853,094643,023675,059910,094678,026891,060691,095251,061054,095278
0000000173,0000011467,024256,095063,024079,058996,095098,027344,059786,095664,060156,095688
0000000174,0000011533,024673,095470,024497,058082,095504,027810,058882,096062,059258,096084
0000000175,0000011600,025103,095863,024928,057170,095896,028291,057979,096446,058362,096465
0000000176,0000011667,025560,096228,025387,056261,096261,028799,057081,096800,057469,096817
0000000177,0000011733,026031,096580,025858,055354,096612,029319,056184,097139,056579,097154
0000000178,0000011800,026514,096916,026343,054450,096948,029853,055290,097463,055692,097476
0000000179,0000011867,027024,097225,026853,053551,097255,030413,054403,097756,054810,097767
0000000180,0000011933,027545,097518,027376,052657,097548,030984,053519,098034,053932,098043
0000000181,0000012000,028079,097797,027912,051765,097825,031568,052639,098297,053058,098304
0000000182,0000012067,028638,098046,028471,050883,098074,032176,051768,098528,052192,098533
0000000183,0000012133,029208,098280,029042,050005,098307,032796,050902,098744,051332,098747
0000000184,0000012200,029789,098499,029625,049132,098525,033427,050040,098944,050476,098945
0000000185,0000012267,030393,098687,030231,048270,098712,034080,049190,099112,049632,099111
0000000186,0000012333,031008,098861,030847,047414,098884,034743,048347,099263,048793,099261
0000000187,0000012400,031634,099019,031474,046564,099041,035417,047509,099399,047961,099395
0000000188,0000012467,032280,099146,032122,045728,099167,036112,046685,099503,047142,099497
0000000189,0000012533,032937,099258,032780,044899,099277,036816,045869,099590,046330,099583
0000000190,0000012600,033603,099354,033448,044077,099372,037530,045060,099661,045526,099652
0000000191,0000012667,034289,099419,034135,043272,099436,038261,044266,099699,044738,099689
0000000192,0000012733,034983,099468,034830,042474,099484,039002,043482,099721,043958,099710
0000000193,0000012800,035686,099502,035535,041685,099516,039751,042706,099727,043186,099715
0000000194,0000012867,036406,099504,036257,040914,099517,040516,041948,099700,042433,099687
0000000195,0000012933,037134,099491,036986,040153,099502,041289,041199,099657,041689,099642
0000000196,0000013000,037870,099462,037724,039401,099471,042069,040461,099597,040954,099582
0000000197,0000013067,038621,099402,038476,038669,099409,042863,039742,099505,040240,099489
0000000198,0000013133,039379,099326,039236,037948,099332,043664,039035,099397,039536,099380
0000000199,0000013200,040144,099235,040002,037238,099239,044471,038338,099273,038843,099255
0000000200,0000013267,040921,099112,040781,036550,099114,045289,037663,099116,038172,099098
0000000201,0000013333,041704,098974,041566,035873,098975,046113,037000,098943,037512,098925
0000000202,0000013400,042493,098821,042356,035208,098820,046942,036349,098755,036864,098736
0000000203,0000013467,043293,098637,043157,034568,098634,047780,035722,098535,036240,098515
