DIgSILENT PowerFactory,20000410,2000
10,10A,00D
1,LC684-652A:Phase Voltage A/Terminal i,,,kV,0.00010000000,-5.397235,0.000000,12678,99998,1,1,P
2,LC684-652A:Phase Voltage C/Terminal i,,,kV,0.00010000000,-6.199604,0.000000,19070,99998,1,1,P
3,LC692-675:Phase Voltage A/Terminal i,,,kV,0.00010000000,-5.389998,0.000000,12537,99998,1,1,P
4,LC692-675:Phase Voltage B/Terminal i,,,kV,0.00010000000,-5.955185,0.000000,5737,99998,1,1,P
5,LC692-675:Phase Voltage C/Terminal i,,,kV,0.00010000000,-6.190436,0.000000,19205,99998,1,1,P
6,LOHL632-633:Phase Voltage A/Terminal i,,,kV,0.00010000000,-5.775750,0.000000,18955,99998,1,1,P
7,LOHL632-633:Phase Voltage B/Terminal i,,,kV,0.00010000000,-6.195910,0.000000,15147,99998,1,1,P
8,LOHL632-633:Phase Voltage C/Terminal i,,,kV,0.00010000000,-6.321067,0.000000,22555,99998,1,1,P
9,LOHL645-646:Phase Voltage B/Terminal i,,,kV,0.00010000000,-6.225221,0.000000,15762,99998,1,1,P
10,LOHL645-646:Phase Voltage C/Terminal i,,,kV,0.00010000000,-6.330521,0.000000,22772,99998,1,1,P
50
1
15000.000000,3001
11/11/2020,16:55:29.000000
11/11/2020,16:55:29.000000
ASCII
1.000000
0000000001,0000000000,080098,066440,080083,026559,066296,085777,029463,066680,029955,066716
0000000002,0000000067,080612,065615,080597,026962,065469,086274,029871,065817,030358,065857
0000000003,0000000133,081113,064788,081099,027380,064640,086757,030294,064954,030777,064996
0000000004,0000000200,081602,063960,081588,027814,063811,087227,030732,064089,031210,064134
0000000005,0000000267,082064,063130,082051,028278,062979,087668,031200,063223,031673,063271
0000000006,0000000333,082513,062300,082500,028757,062147,088095,031683,062358,032150,062409
0000000007,0000000400,082948,061469,082936,029250,061314,088508,032179,061492,032642,061547
0000000008,0000000467,083356,060639,083344,029772,060482,088892,032704,060629,033161,060686
0000000009,0000000533,083750,059810,083739,030308,059651,089261,033243,059767,033695,059827
0000000010,0000000600,084130,058981,084119,030858,058821,089616,033795,058906,034242,058970
0000000011,0000000667,084481,058156,084471,031435,057994,089940,034375,058049,034815,058116
0000000012,0000000733,084818,057332,084808,032025,057169,090248,034967,057195,035401,057265
0000000013,0000000800,085141,056511,085130,032629,056346,090542,035572,056344,036000,056417
0000000014,0000000867,085434,055694,085424,033258,055528,090804,036201,055499,036624,055575
0000000015,0000000933,085711,054881,085702,033899,054713,091051,036843,054658,037260,054737
0000000016,0000001000,085974,054071,085965,034552,053902,091282,037497,053820,037908,053903
0000000017,0000001067,086207,053268,086198,035229,053098,091481,038175,052992,038579,053078
0000000018,0000001133,086425,052470,086415,035918,052298,091665,038863,052169,039261,052258
0000000019,0000001200,086627,051676,086617,036618,051503,091832,039562,051351,039954,051443
0000000020,0000001267,086798,050892,086788,037340,050718,091967,040283,050544,040669,050640
0000000021,0000001333,086953,050113,086944,038072,049938,092086,041014,049743,041393,049842
0000000022,0000001400,087093,049340,087083,038814,049164,092188,041755,048948,042127,049050
0000000023,0000001467,087202,048579,087192,039576,048401,092258,042515,048167,042881,048273
0000000024,0000001533,087294,047824,087284,040347,047646,092311,043284,047393,043643,047502
0000000025,0000001600,087371,047076,087361,041128,046896,092348,044062,046626,044415,046739
0000000026,0000001667,087417,046342,087406,041926,046161,092353,044857,045876,045203,045991
0000000027,0000001733,087446,045615,087435,042732,045434,092341,045660,045133,045999,045252
0000000028,0000001800,087460,044896,087448,043547,044714,092312,046470,044399,046804,044521
0000000029,0000001867,087441,044194,087430,044376,044011,092251,047296,043683,047622,043808
0000000030,0000001933,087407,043499,087395,045213,043316,092173,048128,042976,048448,043104
0000000031,0000002000,087357,042814,087345,046057,042630,092079,048967,042279,049280,042410
0000000032,0000002067,087276,042147,087263,046913,041962,091953,049819,041601,050125,041735
0000000033,0000002133,087178,041489,087165,047775,041304,091810,050676,040934,050975,041071
0000000034,0000002200,087065,040841,087051,048643,040655,091652,051538,040277,051831,040418
0000000035,0000002267,086921,040212,086906,049521,040027,091461,052411,039642,052696,039786
0000000036,0000002333,086761,039595,086746,050404,039409,091254,053287,039018,053566,039165
0000000037,0000002400,086585,038987,086569,051292,038801,091031,054168,038406,054440,038556
0000000038,0000002467,086379,038402,086362,052187,038216,090777,055057,037817,055322,037970
0000000039,0000002533,086157,037828,086140,053085,037642,090507,055948,037240,056207,037396
0000000040,0000002600,085920,037265,085902,053987,037079,090222,056843,036676,057094,036834
0000000041,0000002667,085652,036726,085633,054894,036539,089905,057742,036136,057987,036297
0000000042,0000002733,085370,036199,085350,055803,036012,089574,058643,035610,058881,035774
0000000043,0000002800,085073,035683,085052,056714,035497,089228,059546,035097,059778,035263
0000000044,0000002867,084746,035193,084725,057628,035007,088851,060451,034610,060676,034779
0000000045,0000002933,084405,034716,084382,058542,034530,088460,061357,034137,061575,034308
0000000046,0000003000,084049,034251,084026,059457,034066,088055,062263,033677,062475,033851
0000000047,0000003067,083665,033813,083641,060372,033628,087621,063169,033245,063374,033422
0000000048,0000003133,083267,033388,083242,061287,033204,087173,064074,032828,064273,033008
0000000049,0000003200,082855,032977,082828,062201,032793,086710,064978,032425,065171,032607
0000000050,0000003267,082416,032593,082388,063112,032409,086221,065879,032052,066066,032236
0000000051,0000003333,081963,032223,081934,064021,032040,085717,066779,031693,066959,031879
0000000052,0000003400,081497,031867,081467,064929,031685,085201,067676,031348,067850,031537
0000000053,0000003467,081005,031540,080973,065831,031358,084659,068568,031035,068736,031226
0000000054,0000003533,080500,031227,080467,066731,031046,084104,069456,030736,069618,030929
0000000055,0000003600,079982,030929,079949,067627,030749,083536,070341,030453,070497,030648
0000000056,0000003667,079440,030660,079405,068515,030481,082944,071218,030201,071369,030398
0000000057,0000003733,078886,030406,078850,069399,030228,082340,072091,029964,072236,030163
0000000058,0000003800,078320,030167,078282,070279,029990,081724,072959,029743,073098,029944
0000000059,0000003867,077731,029958,077692,071148,029782,081086,073817,029554,073950,029757
0000000060,0000003933,077131,029765,077090,072012,029590,080437,074668,029381,074796,029586
0000000061,0000004000,076519,029586,076478,072870,029412,079777,075514,029224,075637,029430
0000000062,0000004067,075886,029438,075844,073715,029266,079096,076347,029099,076465,029307
0000000063,0000004133,075243,029306,075199,074553,029135,078405,077174,028990,077286,029200
0000000064,0000004200,074590,029189,074544,075385,029019,077704,077993,028897,078100,029108
0000000065,0000004267,073917,029104,073870,076202,028935,076984,078797,028837,078899,029050
0000000066,0000004333,073235,029033,073187,077010,028866,076255,079593,028794,079690,029007
0000000067,0000004400,072544,028979,072494,077811,028813,075517,080380,028766,080473,028981
0000000068,0000004467,071835,028956,071783,078594,028791,074763,081150,028771,081239,028987
0000000069,0000004533,071118,028948,071065,079368,028785,074000,081911,028793,081995,029010
0000000070,0000004600,070392,028956,070338,080133,028795,073230,082663,028830,082743,029049
0000000071,0000004667,069651,028995,069595,080878,028836,072445,083395,028901,083471,029120
0000000072,0000004733,068903,029050,068845,081613,028892,071653,084117,028987,084188,029207
0000000073,0000004800,068147,029121,068088,082338,028965,070855,084828,029090,084896,029311
0000000074,0000004867,067378,029223,067317,083041,029068,070044,085518,029225,085582,029447
0000000075,0000004933,066603,029340,066540,083733,029187,069227,086196,029376,086257,029598
0000000076,0000005000,065821,029473,065757,084413,029322,068405,086863,029544,086920,029766
0000000077,0000005067,065029,029636,064963,085070,029487,067573,087507,029743,087561,029966
0000000078,0000005133,064231,029815,064164,085715,029668,066736,088138,029958,088189,030181
0000000079,0000005200,063428,030009,063360,086347,029864,065895,088757,030189,088805,030412
0000000080,0000005267,062617,030233,062546,086955,030090,065046,089351,030451,089396,030674
0000000081,0000005333,061801,030473,061729,087548,030332,064194,089931,030728,089973,030952
0000000082,0000005400,060982,030727,060908,088129,030588,063339,090498,031021,090538,031245
0000000083,0000005467,060156,031011,060081,088683,030874,062478,091039,031344,091076,031568
0000000084,0000005533,059327,031310,059250,089223,031175,061615,091565,031683,091600,031907
0000000085,0000005600,058495,031623,058417,089749,031490,060751,092077,032036,092111,032260
0000000086,0000005667,057659,031965,057580,090246,031835,059883,092561,032419,092593,032643
0000000087,0000005733,056822,032321,056741,090728,032193,059015,093030,032817,093060,033040
0000000088,0000005800,055983,032691,055900,091196,032565,058146,093485,033229,093514,033452
0000000089,0000005867,055142,033090,055058,091634,032966,057276,093910,033669,093937,033891
0000000090,0000005933,054301,033501,054215,092057,033380,056407,094319,034124,094345,034345
0000000091,0000006000,053460,033926,053372,092464,033807,055538,094714,034592,094739,034813
0000000092,0000006067,052619,034378,052530,092840,034261,054672,095077,035087,095101,035307
0000000093,0000006133,051778,034843,051688,093200,034728,053807,095425,035596,095448,035815
0000000094,0000006200,050939,035321,050847,093545,035209,052944,095756,036117,095779,036336
0000000095,0000006267,050103,035824,050009,093857,035714,052085,096056,036665,096079,036882
0000000096,0000006333,049268,036339,049173,094153,036232,051229,096340,037225,096362,037441
0000000097,0000006400,048436,036867,048339,094432,036762,050377,096607,037797,096629,038012
0000000098,0000006467,047608,037419,047511,094679,037315,049531,096841,038393,096864,038607
0000000099,0000006533,046784,037982,046685,094909,037881,048689,097059,039001,097082,039214
0000000100,0000006600,045964,038556,045863,095122,038458,047851,097261,039621,097284,039832
0000000101,0000006667,045150,039153,045048,095301,039057,047023,097428,040263,097453,040472
0000000102,0000006733,044342,039760,044238,095464,039666,046200,097579,040915,097605,041124
0000000103,0000006800,043537,040378,043432,095609,040287,045382,097714,041579,097740,041785
0000000104,0000006867,042742,041017,042636,095721,040928,044576,097814,042263,097841,042468
0000000105,0000006933,041953,041665,041846,095815,041578,043776,097897,042956,097926,043159
0000000106,0000007000,041170,042323,041061,095892,042239,042983,097964,043660,097994,043861
0000000107,0000007067,040398,043000,040288,095935,042918,042204,097996,044382,098028,044581
0000000108,0000007133,039633,043685,039522,095960,043606,041432,098011,045112,098045,045310
0000000109,0000007200,038875,044380,038763,095968,044303,040668,098009,045852,098045,046047
0000000110,0000007267,038131,045091,038017,095942,045016,039920,097973,046608,098011,046801
0000000111,0000007333,037395,045810,037280,095899,045737,039181,097920,047371,097961,047562
0000000112,0000007400,036666,046537,036550,095838,046467,038451,097850,048142,097893,048331
0000000113,0000007467,035954,047278,035837,095743,047210,037738,097746,048928,097792,049115
0000000114,0000007533,035251,048026,035132,095630,047961,037036,097625,049720,097673,049904
0000000115,0000007600,034556,048781,034437,095501,048718,036343,097487,050518,097538,050701
0000000116,0000007667,033880,049549,033759,095338,049488,035670,097315,051329,097370,051509
0000000117,0000007733,033213,050322,033092,095157,050263,035008,097127,052145,097185,052322
0000000118,0000007800,032556,051101,032434,094960,051044,034356,096922,052967,096983,053141
0000000119,0000007867,031919,051890,031796,094729,051836,033727,096683,053798,096748,053970
0000000120,0000007933,031293,052684,031169,094482,052632,033109,096429,054634,096497,054803
0000000121,0000008000,030678,053483,030553,094218,053433,032503,096158,055473,096230,055640
0000000122,0000008067,030085,054289,029959,093921,054241,031921,095854,056320,095931,056485
0000000123,0000008133,029503,055099,029376,093608,055053,031351,095535,057171,095616,057332
0000000124,0000008200,028932,055913,028805,093278,055869,030793,095200,058024,095285,058182
0000000125,0000008267,028385,056732,028257,092917,056690,030261,094833,058882,094922,059038
0000000126,0000008333,027851,057553,027722,092540,057514,029742,094450,059742,094544,059895
0000000127,0000008400,027329,058377,027199,092147,058340,029237,094052,060604,094151,060754
0000000128,0000008467,026832,059204,026701,091723,059169,028758,093624,061468,093728,061615
0000000129,0000008533,026348,060033,026217,091285,059999,028293,093181,062333,093289,062477
0000000130,0000008600,025877,060862,025745,090831,060830,027842,092723,063199,092836,063339
0000000131,0000008667,025432,061693,025300,090347,061663,027420,092236,064064,092354,064202
0000000132,0000008733,025001,062523,024869,089849,062495,027011,091734,064929,091858,065064
0000000133,0000008800,024584,063354,024451,089337,063327,026618,091219,065794,091348,065925
0000000134,0000008867,024195,064183,024061,088796,064158,026254,090675,066655,090810,066784
0000000135,0000008933,023819,065011,023686,088242,064988,025904,090118,067516,090259,067641
0000000136,0000009000,023458,065838,023324,087673,065816,025570,089548,068374,089694,068496
0000000137,0000009067,023126,066661,022992,087079,066641,025266,088952,069227,089103,069346
0000000138,0000009133,022809,067482,022674,086471,067463,024978,088342,070077,088500,070193
0000000139,0000009200,022506,068300,022371,085850,068283,024705,087721,070925,087884,071037
0000000140,0000009267,022233,069112,022098,085205,069097,024464,087075,071765,087244,071874
0000000141,0000009333,021975,069921,021840,084547,069907,024238,086417,072600,086592,072706
0000000142,0000009400,021733,070726,021597,083878,070713,024028,085747,073432,085929,073535
0000000143,0000009467,021520,071523,021385,083185,071512,023850,085055,074253,085243,074353
0000000144,0000009533,021324,072315,021188,082482,072305,023689,084352,075070,084546,075166
0000000145,0000009600,021142,073103,021007,081767,073094,023543,083638,075881,083839,075974
0000000146,0000009667,020992,073880,020857,081031,073872,023430,082904,076680,083111,076769
0000000147,0000009733,020857,074651,020722,080286,074644,023333,082160,077472,082373,077558
0000000148,0000009800,020738,075416,020603,079530,075410,023252,081406,078258,081626,078341
0000000149,0000009867,020651,076169,020516,078756,076164,023204,080634,079029,080861,079109
0000000150,0000009933,020579,076915,020445,077972,076911,023172,079853,079793,080086,079870
0000000151,0000010000,020523,077654,020389,077180,077650,023157,079064,080549,079303,080623
0000000152,0000010067,020499,078378,020365,076371,078375,023175,078258,081289,078504,081359
0000000153,0000010133,020491,079094,020357,075554,079092,023209,077445,082020,077698,082087
0000000154,0000010200,020499,079802,020365,074729,079801,023259,076624,082742,076884,082806
0000000155,0000010267,020538,080493,020405,073890,080493,023342,075789,083446,076056,083507
0000000156,0000010333,020593,081175,020461,073045,081176,023441,074948,084140,075222,084197
0000000157,0000010400,020664,081849,020532,072192,081850,023557,074101,084824,074381,084878
0000000158,0000010467,020767,082503,020635,071328,082505,023705,073242,085488,073529,085539
0000000159,0000010533,020885,083148,020754,070459,083150,023869,072378,086141,072672,086189
0000000160,0000010600,021019,083783,020889,069584,083785,024049,071509,086783,071810,086828
0000000161,0000010667,021184,084397,021055,068699,084400,024261,070631,087403,070938,087445
0000000162,0000010733,021365,085001,021236,067811,085003,024489,069749,088011,070063,088051
0000000163,0000010800,021561,085594,021433,066918,085596,024733,068863,088608,069184,088645
0000000164,0000010867,021788,086164,021660,066018,086167,025008,067970,089181,068298,089215
0000000165,0000010933,022030,086723,021903,065116,086726,025298,067075,089741,067409,089772
0000000166,0000011000,022287,087270,022161,064211,087273,025604,066177,090289,066518,090317
0000000167,0000011067,022574,087793,022449,063301,087796,025941,065275,090811,065623,090836
0000000168,0000011133,022876,088304,022752,062389,088307,026292,064372,091320,064727,091343
0000000169,0000011200,023193,088803,023070,061476,088805,026658,063468,091816,063829,091836
0000000170,0000011267,023539,089276,023417,060562,089278,027054,062562,092285,062929,092302
0000000171,0000011333,023900,089736,023778,059647,089738,027465,061656,092739,062030,092754
0000000172,0000011400,024274,090183,024154,058732,090185,027889,060750,093180,061130,093193
0000000173,0000011467,024677,090604,024558,057817,090605,028342,059845,093593,060232,093603
0000000174,0000011533,025094,091010,024976,056904,091011,028809,058941,093991,059334,093998
0000000175,0000011600,025524,091404,025407,055991,091404,029290,058038,094375,058438,094379
0000000176,0000011667,025981,091769,025866,055082,091768,029797,057140,094729,057545,094731
0000000177,0000011733,026452,092120,026337,054176,092119,030318,056243,095068,056655,095068
0000000178,0000011800,026935,092457,026822,053271,092455,030852,055349,095392,055768,095390
0000000179,0000011867,027445,092765,027332,052373,092762,031411,054462,095685,054886,095681
0000000180,0000011933,027966,093058,027855,051478,093055,031983,053578,095963,054008,095957
0000000181,0000012000,028500,093337,028391,050587,093333,032567,052698,096226,053134,096218
0000000182,0000012067,029059,093586,028950,049704,093581,033175,051827,096457,052268,096447
0000000183,0000012133,029629,093820,029521,048826,093814,033794,050961,096673,051408,096661
0000000184,0000012200,030210,094039,030104,047953,094032,034425,050099,096873,050552,096859
0000000185,0000012267,030814,094228,030710,047092,094219,035078,049249,097041,049708,097025
0000000186,0000012333,031429,094401,031326,046236,094392,035742,048406,097192,048869,097175
0000000187,0000012400,032055,094559,031953,045386,094548,036416,047568,097328,048037,097309
0000000188,0000012467,032702,094686,032601,044550,094674,037110,046744,097432,047218,097411
0000000189,0000012533,033358,094798,033259,043721,094785,037815,045928,097519,046407,097497
0000000190,0000012600,034024,094894,033927,042899,094879,038528,045118,097590,045602,097566
0000000191,0000012667,034710,094959,034614,042093,094943,039260,044325,097628,044814,097603
0000000192,0000012733,035404,095008,035309,041296,094991,040001,043541,097650,044034,097624
0000000193,0000012800,036107,095042,036014,040507,095023,040750,042765,097656,043262,097629
0000000194,0000012867,036827,095045,036736,039736,095024,041515,042007,097629,042509,097601
0000000195,0000012933,037555,095031,037465,038974,095009,042287,041258,097586,041765,097557
0000000196,0000013000,038291,095002,038203,038222,094979,043068,040520,097526,041030,097496
0000000197,0000013067,039042,094942,038955,037491,094917,043862,039801,097434,040316,097403
0000000198,0000013133,039800,094866,039715,036770,094839,044662,039094,097326,039612,097294
0000000199,0000013200,040565,094775,040481,036059,094746,045469,038397,097202,038919,097169
0000000200,0000013267,041342,094653,041260,035371,094622,046288,037722,097045,038248,097012
0000000201,0000013333,042125,094515,042044,034695,094482,047112,037059,096872,037588,096839
0000000202,0000013400,042914,094361,042835,034030,094327,047941,036408,096684,036940,096650
0000000203,0000013467,043714,094177,043636,033389,094141,048779,035780,096464,036316,096429
