DIgSILENT PowerFactory,20000410,2000
10,10A,00D
1,LC684-652A:Phase Voltage A/Terminal i,,,kV,0.00010000000,-5.877251,0.000000,24016,99998,1,1,P
2,LC684-652A:Phase Voltage C/Terminal i,,,kV,0.00010000000,-6.071265,0.000000,21233,99998,1,1,P
3,LC692-675:Phase Voltage A/Terminal i,,,kV,0.00010000000,-5.859506,0.000000,23728,99998,1,1,P
4,LC692-675:Phase Voltage B/Terminal i,,,kV,0.00010000000,-6.064625,0.000000,3410,99998,1,1,P
5,LC692-675:Phase Voltage C/Terminal i,,,kV,0.00010000000,-6.157416,0.000000,22316,99998,1,1,P
6,LOHL632-633:Phase Voltage A/Terminal i,,,kV,0.00010000000,-6.148496,0.000000,25942,99998,1,1,P
7,LOHL632-633:Phase Voltage B/Terminal i,,,kV,0.00010000000,-6.273067,0.000000,13431,99998,1,1,P
8,LOHL632-633:Phase Voltage C/Terminal i,,,kV,0.00010000000,-6.427558,0.000000,26009,99998,1,1,P
9,LOHL645-646:Phase Voltage B/Terminal i,,,kV,0.00010000000,-6.298358,0.000000,14097,99998,1,1,P
10,LOHL645-646:Phase Voltage C/Terminal i,,,kV,0.00010000000,-6.440326,0.000000,26288,99998,1,1,P
50
1
15000.000000,3001
11/11/2020,17:43:10.000000
11/11/2020,17:43:10.000000
ASCII
1.000000
0000000001,0000000000,084899,065156,084778,027653,065966,089505,030234,067745,030686,067815
0000000002,0000000067,085412,064331,085292,028056,065139,090002,030642,066882,031090,066955
0000000003,0000000133,085914,063505,085794,028475,064310,090485,031066,066018,031508,066094
0000000004,0000000200,086402,062677,086283,028909,063480,090954,031504,065154,031942,065232
0000000005,0000000267,086864,061847,086746,029373,062648,091396,031972,064288,032404,064369
0000000006,0000000333,087313,061016,087195,029851,061816,091823,032454,063423,032882,063507
0000000007,0000000400,087748,060186,087631,030344,060984,092236,032951,062557,033373,062645
0000000008,0000000467,088156,059356,088039,030866,060152,092620,033476,061694,033893,061784
0000000009,0000000533,088550,058526,088434,031402,059321,092989,034015,060831,034426,060925
0000000010,0000000600,088930,057698,088814,031952,058491,093343,034567,059971,034973,060068
0000000011,0000000667,089282,056872,089166,032529,057664,093667,035146,059114,035546,059214
0000000012,0000000733,089618,056049,089503,033120,056839,093976,035738,058260,036133,058363
0000000013,0000000800,089941,055227,089826,033723,056016,094269,036343,057409,036732,057515
0000000014,0000000867,090234,054411,090119,034352,055198,094532,036973,056564,037356,056673
0000000015,0000000933,090512,053598,090397,034993,054383,094779,037615,055723,037992,055835
0000000016,0000001000,090775,052788,090660,035647,053572,095010,038269,054885,038640,055002
0000000017,0000001067,091007,051985,090893,036324,052768,095209,038946,054057,039311,054176
0000000018,0000001133,091225,051187,091110,037012,051968,095392,039635,053234,039993,053356
0000000019,0000001200,091427,050393,091312,037712,051173,095559,040334,052415,040686,052541
0000000020,0000001267,091598,049609,091483,038434,050388,095694,041055,051608,041400,051738
0000000021,0000001333,091753,048830,091639,039166,049608,095813,041785,050808,042124,050940
0000000022,0000001400,091893,048057,091778,039908,048834,095915,042526,050013,042859,050149
0000000023,0000001467,092002,047295,091887,040670,048071,095985,043286,049232,043612,049371
0000000024,0000001533,092094,046541,091979,041442,047315,096039,044055,048458,044375,048600
0000000025,0000001600,092171,045793,092056,042222,046566,096076,044833,047691,045146,047837
0000000026,0000001667,092217,045058,092101,043020,045831,096080,045628,046941,045934,047089
0000000027,0000001733,092246,044332,092130,043827,045104,096068,046431,046198,046731,046350
0000000028,0000001800,092260,043613,092143,044641,044384,096040,047242,045464,047535,045619
0000000029,0000001867,092242,042910,092125,045471,043681,095978,048068,044748,048354,044906
0000000030,0000001933,092207,042216,092090,046307,042986,095901,048900,044041,049179,044202
0000000031,0000002000,092158,041531,092040,047151,042300,095807,049739,043344,050012,043508
0000000032,0000002067,092076,040863,091958,048007,041632,095681,050590,042666,050856,042834
0000000033,0000002133,091979,040205,091860,048870,040974,095538,051447,041999,051706,042169
0000000034,0000002200,091866,039557,091746,049737,040325,095379,052310,041342,052562,041516
0000000035,0000002267,091721,038929,091601,050616,039697,095188,053182,040707,053428,040884
0000000036,0000002333,091561,038311,091441,051499,039079,094981,054059,040083,054297,040263
0000000037,0000002400,091385,037704,091264,052386,038471,094759,054940,039471,055172,039654
0000000038,0000002467,091179,037119,091057,053281,037886,094504,055828,038882,056053,039068
0000000039,0000002533,090957,036545,090835,054180,037311,094234,056720,038305,056938,038494
0000000040,0000002600,090720,035982,090597,055082,036749,093949,057614,037741,057826,037932
0000000041,0000002667,090453,035442,090329,055989,036209,093633,058513,037201,058718,037396
0000000042,0000002733,090170,034915,090045,056898,035682,093302,059415,036675,059613,036872
0000000043,0000002800,089873,034400,089747,057809,035167,092955,060317,036161,060509,036361
0000000044,0000002867,089546,033910,089420,058722,034677,092579,061223,035675,061407,035877
0000000045,0000002933,089205,033432,089078,059637,034200,092188,062128,035201,062307,035406
0000000046,0000003000,088850,032968,088721,060552,033736,091782,063034,034742,063206,034949
0000000047,0000003067,088465,032530,088336,061467,033298,091348,063940,034310,064106,034520
0000000048,0000003133,088067,032105,087937,062381,032873,090900,064845,033893,065004,034106
0000000049,0000003200,087655,031693,087524,063295,032463,090438,065749,033490,065902,033705
0000000050,0000003267,087216,031310,087083,064206,032079,089948,066651,033116,066797,033334
0000000051,0000003333,086763,030940,086629,065116,031710,089445,067550,032758,067690,032977
0000000052,0000003400,086297,030584,086162,066023,031355,088929,068447,032413,068581,032635
0000000053,0000003467,085805,030257,085669,066926,031028,088386,069339,032100,069467,032324
0000000054,0000003533,085300,029944,085162,067825,030716,087831,070228,031801,070350,032027
0000000055,0000003600,084782,029646,084644,068721,030419,087263,071113,031518,071229,031746
0000000056,0000003667,084240,029377,084100,069609,030151,086671,071990,031266,072100,031496
0000000057,0000003733,083686,029123,083545,070493,029898,086068,072863,031029,072967,031261
0000000058,0000003800,083120,028884,082978,071373,029660,085452,073731,030808,073829,031042
0000000059,0000003867,082531,028675,082387,072242,029452,084814,074588,030619,074681,030855
0000000060,0000003933,081931,028481,081785,073106,029259,084164,075440,030446,075528,030684
0000000061,0000004000,081319,028303,081173,073964,029082,083504,076286,030289,076368,030528
0000000062,0000004067,080687,028155,080539,074809,028936,082823,077119,030164,077196,030405
0000000063,0000004133,080044,028023,079894,075648,028805,082132,077945,030055,078017,030298
0000000064,0000004200,079390,027906,079240,076479,028689,081431,078764,029962,078831,030206
0000000065,0000004267,078718,027820,078565,077296,028605,080711,079568,029902,079630,030148
0000000066,0000004333,078036,027750,077882,078105,028536,079983,080364,029859,080422,030105
0000000067,0000004400,077344,027696,077189,078905,028483,079245,081152,029831,081205,030079
0000000068,0000004467,076635,027672,076479,079688,028461,078490,081922,029836,081970,030085
0000000069,0000004533,075918,027665,075760,080462,028455,077728,082683,029858,082727,030108
0000000070,0000004600,075192,027673,075033,081227,028465,076958,083435,029895,083474,030147
0000000071,0000004667,074451,027712,074290,081972,028506,076173,084167,029966,084202,030218
0000000072,0000004733,073703,027767,073540,082707,028562,075381,084888,030052,084920,030305
0000000073,0000004800,072947,027838,072783,083432,028635,074582,085600,030155,085627,030409
0000000074,0000004867,072178,027939,072012,084135,028738,073771,086289,030290,086313,030545
0000000075,0000004933,071403,028056,071235,084827,028857,072955,086968,030441,086988,030697
0000000076,0000005000,070621,028189,070452,085508,028992,072133,087635,030609,087652,030864
0000000077,0000005067,069829,028353,069658,086165,029157,071300,088278,030808,088292,031064
0000000078,0000005133,069031,028531,068859,086809,029338,070464,088910,031023,088920,031279
0000000079,0000005200,068228,028726,068055,087442,029534,069622,089529,031253,089536,031510
0000000080,0000005267,067417,028950,067241,088049,029760,068774,090122,031516,090127,031772
0000000081,0000005333,066601,029189,066424,088643,030002,067921,090703,031793,090705,032050
0000000082,0000005400,065782,029444,065603,089224,030258,067066,091270,032086,091270,032343
0000000083,0000005467,064956,029728,064776,089777,030544,066205,091810,032409,091807,032667
0000000084,0000005533,064127,030026,063945,090317,030845,065343,092336,032748,092332,033005
0000000085,0000005600,063295,030340,063112,090843,031160,064478,092849,033101,092842,033358
0000000086,0000005667,062460,030682,062275,091340,031504,063611,093333,033484,093324,033741
0000000087,0000005733,061622,031038,061436,091823,031863,062742,093802,033882,093792,034138
0000000088,0000005800,060783,031408,060595,092291,032235,061873,094257,034294,094245,034550
0000000089,0000005867,059942,031806,059753,092729,032635,061004,094682,034734,094668,034989
0000000090,0000005933,059101,032218,058910,093151,033049,060135,095091,035189,095077,035443
0000000091,0000006000,058260,032643,058067,093558,033477,059266,095485,035657,095470,035911
0000000092,0000006067,057419,033095,057225,093935,033931,058399,095849,036152,095833,036405
0000000093,0000006133,056579,033560,056383,094295,034398,057535,096196,036661,096179,036913
0000000094,0000006200,055739,034038,055542,094639,034878,056671,096528,037182,096511,037434
0000000095,0000006267,054903,034541,054704,094951,035384,055813,096828,037730,096810,037980
0000000096,0000006333,054068,035056,053868,095247,035901,054957,097111,038290,097093,038539
0000000097,0000006400,053236,035584,053034,095527,036431,054104,097378,038862,097361,039110
0000000098,0000006467,052409,036135,052206,095773,036985,053258,097613,039458,097595,039705
0000000099,0000006533,051585,036698,051380,096003,037551,052416,097831,040066,097814,040312
0000000100,0000006600,050764,037273,050558,096216,038127,051579,098032,040686,098015,040930
0000000101,0000006667,049951,037869,049743,096396,038727,050750,098200,041328,098184,041570
0000000102,0000006733,049142,038477,048933,096558,039336,049927,098351,041980,098336,042222
0000000103,0000006800,048337,039095,048127,096704,039957,049110,098485,042644,098471,042883
0000000104,0000006867,047543,039733,047331,096815,040598,048304,098586,043328,098573,043566
0000000105,0000006933,046754,040382,046541,096910,041248,047504,098669,044021,098658,044257
0000000106,0000007000,045970,041040,045756,096987,041909,046711,098735,044725,098725,044959
0000000107,0000007067,045198,041716,044983,097029,042588,045932,098768,045447,098759,045679
0000000108,0000007133,044434,042402,044217,097055,043276,045160,098783,046177,098776,046408
0000000109,0000007200,043675,043096,043458,097063,043973,044396,098781,046917,098777,047145
0000000110,0000007267,042931,043807,042713,097037,044686,043648,098745,047672,098743,047899
0000000111,0000007333,042195,044526,041975,096993,045407,042909,098692,048436,098692,048660
0000000112,0000007400,041467,045253,041245,096932,046136,042178,098622,049207,098624,049429
0000000113,0000007467,040754,045995,040532,096837,046880,041466,098517,049993,098523,050213
0000000114,0000007533,040051,046743,039828,096725,047631,040763,098396,050785,098405,051002
0000000115,0000007600,039356,047498,039132,096595,048388,040070,098258,051583,098270,051799
0000000116,0000007667,038680,048265,038454,096432,049158,039397,098087,052394,098101,052607
0000000117,0000007733,038013,049039,037787,096252,049933,038735,097898,053210,097916,053421
0000000118,0000007800,037356,049818,037129,096054,050714,038084,097693,054032,097714,054240
0000000119,0000007867,036720,050607,036491,095824,051506,037454,097455,054863,097480,055068
0000000120,0000007933,036094,051401,035864,095576,052302,036837,097200,055698,097229,055901
0000000121,0000008000,035478,052199,035248,095312,053102,036230,096929,056538,096962,056738
0000000122,0000008067,034885,053006,034654,095015,053911,035648,096626,057385,096662,057583
0000000123,0000008133,034303,053816,034071,094702,054723,035078,096307,058236,096347,058430
0000000124,0000008200,033732,054629,033500,094373,055539,034521,095971,059089,096016,059280
0000000125,0000008267,033186,055448,032952,094011,056360,033989,095604,059947,095653,060136
0000000126,0000008333,032651,056270,032417,093634,057184,033470,095222,060807,095276,060993
0000000127,0000008400,032129,057094,031894,093242,058009,032964,094824,061669,094882,061852
0000000128,0000008467,031632,057921,031396,092818,058839,032486,094396,062533,094459,062713
0000000129,0000008533,031148,058749,030912,092379,059669,032021,093953,063398,094021,063575
0000000130,0000008600,030677,059579,030440,091925,060500,031570,093495,064264,093568,064438
0000000131,0000008667,030232,060410,029995,091442,061333,031147,093007,065129,093086,065300
0000000132,0000008733,029801,061240,029564,090944,062165,030739,092506,065994,092589,066162
0000000133,0000008800,029384,062071,029146,090431,062997,030345,091990,066858,092079,067023
0000000134,0000008867,028995,062900,028756,089890,063828,029981,091447,067720,091541,067882
0000000135,0000008933,028620,063728,028381,089336,064658,029632,090890,068580,090990,068739
0000000136,0000009000,028259,064554,028019,088768,065486,029298,090320,069439,090425,069594
0000000137,0000009067,027926,065378,027687,088173,066311,028994,089723,070292,089835,070444
0000000138,0000009133,027609,066198,027369,087565,067133,028706,089114,071142,089231,071291
0000000139,0000009200,027306,067017,027066,086945,067953,028433,088492,071990,088615,072135
0000000140,0000009267,027033,067829,026793,086299,068767,028191,087846,072829,087975,072972
0000000141,0000009333,026775,068638,026535,085642,069577,027966,087188,073665,087323,073804
0000000142,0000009400,026533,069443,026292,084972,070383,027756,086519,074497,086660,074633
0000000143,0000009467,026321,070240,026080,084280,071181,027578,085826,075318,085974,075451
0000000144,0000009533,026124,071032,025883,083576,071975,027416,085123,076135,085277,076264
0000000145,0000009600,025942,071819,025702,082862,072764,027270,084410,076946,084570,077072
0000000146,0000009667,025792,072596,025552,082126,073542,027157,083676,077744,083842,077867
0000000147,0000009733,025657,073368,025417,081380,074314,027060,082932,078537,083105,078656
0000000148,0000009800,025539,074133,025299,080625,075080,026980,082178,079322,082358,079439
0000000149,0000009867,025451,074886,025211,079850,075834,026932,081406,080094,081592,080207
0000000150,0000009933,025379,075631,025140,079067,076581,026900,080625,080858,080818,080968
0000000151,0000010000,025324,076370,025084,078274,077320,026885,079835,081614,080035,081721
0000000152,0000010067,025299,077094,025060,077465,078045,026902,079030,082354,079236,082457
0000000153,0000010133,025291,077810,025052,076648,078762,026936,078216,083085,078429,083185
0000000154,0000010200,025299,078518,025060,075824,079471,026986,077396,083807,077615,083904
0000000155,0000010267,025338,079210,025100,074985,080163,027069,076561,084511,076787,084605
0000000156,0000010333,025393,079892,025156,074139,080846,027169,075720,085205,075953,085295
0000000157,0000010400,025464,080565,025227,073287,081520,027284,074873,085889,075113,085977
0000000158,0000010467,025567,081220,025330,072423,082175,027432,074014,086552,074261,086637
0000000159,0000010533,025685,081865,025449,071553,082820,027596,073150,087205,073403,087287
0000000160,0000010600,025819,082500,025584,070678,083455,027777,072281,087848,072541,087926
0000000161,0000010667,025984,083114,025750,069794,084070,027989,071402,088468,071670,088543
0000000162,0000010733,026165,083717,025931,068905,084673,028217,070520,089076,070794,089149
0000000163,0000010800,026361,084310,026128,068012,085266,028460,069634,089673,069915,089743
0000000164,0000010867,026588,084881,026355,067113,085837,028735,068742,090246,069029,090313
0000000165,0000010933,026830,085439,026598,066210,086395,029026,067847,090806,068141,090870
0000000166,0000011000,027087,085987,026856,065305,086943,029332,066949,091354,067250,091415
0000000167,0000011067,027374,086510,027144,064395,087466,029668,066047,091876,066355,091934
0000000168,0000011133,027677,087021,027447,063484,087977,030020,065144,092385,065458,092441
0000000169,0000011200,027993,087519,027765,062571,088475,030386,064239,092881,064560,092934
0000000170,0000011267,028339,087993,028112,061656,088948,030782,063333,093350,063661,093400
0000000171,0000011333,028700,088453,028474,060741,089408,031192,062427,093804,062761,093852
0000000172,0000011400,029074,088900,028849,059826,089855,031617,061521,094245,061862,094291
0000000173,0000011467,029477,089320,029253,058911,090275,032070,060616,094658,060963,094701
0000000174,0000011533,029894,089727,029671,057998,090681,032537,059712,095056,060066,095096
0000000175,0000011600,030324,090120,030102,057086,091074,033017,058810,095440,059169,095478
0000000176,0000011667,030782,090485,030561,056177,091438,033525,057911,095794,058277,095829
0000000177,0000011733,031252,090837,031032,055270,091789,034046,057015,096133,057387,096166
0000000178,0000011800,031736,091173,031517,054366,092125,034579,056121,096457,056499,096488
0000000179,0000011867,032245,091482,032027,053467,092432,035139,055233,096750,055617,096779
0000000180,0000011933,032767,091775,032550,052572,092725,035710,054350,097028,054740,097055
0000000181,0000012000,033301,092054,033086,051681,093003,036294,053470,097291,053865,097316
0000000182,0000012067,033859,092303,033645,050799,093251,036902,052598,097522,053000,097545
0000000183,0000012133,034429,092537,034216,049921,093484,037522,051732,097738,052139,097759
0000000184,0000012200,035010,092756,034799,049048,093702,038153,050871,097938,051284,097957
0000000185,0000012267,035614,092944,035405,048186,093889,038806,050021,098106,050439,098123
0000000186,0000012333,036229,093118,036021,047330,094061,039469,049177,098257,049601,098273
0000000187,0000012400,036855,093276,036648,046480,094218,040144,048340,098393,048768,098407
0000000188,0000012467,037502,093403,037296,045644,094344,040838,047516,098496,047949,098509
0000000189,0000012533,038158,093515,037954,044815,094454,041542,046699,098584,047138,098595
0000000190,0000012600,038824,093611,038622,043993,094549,042256,045890,098655,046334,098664
0000000191,0000012667,039510,093676,039309,043187,094613,042988,045097,098693,045545,098702
0000000192,0000012733,040204,093725,040004,042390,094661,043728,044312,098715,044765,098722
0000000193,0000012800,040907,093759,040709,041601,094693,044477,043536,098721,043994,098727
0000000194,0000012867,041627,093761,041431,040830,094694,045242,042778,098694,043240,098699
0000000195,0000012933,042355,093748,042160,040069,094679,046015,042030,098651,042496,098655
0000000196,0000013000,043091,093719,042898,039317,094648,046795,041291,098591,041762,098594
0000000197,0000013067,043842,093659,043650,038585,094586,047589,040573,098499,041047,098501
0000000198,0000013133,044600,093583,044410,037864,094509,048390,039865,098391,040343,098392
0000000199,0000013200,045365,093492,045176,037154,094416,049197,039168,098267,039650,098267
0000000200,0000013267,046142,093369,045955,036466,094292,050015,038494,098110,038979,098110
0000000201,0000013333,046925,093231,046740,035789,094152,050839,037831,097937,038319,097937
0000000202,0000013400,047714,093078,047530,035124,093997,051668,037179,097749,037671,097748
0000000203,0000013467,048514,092894,048331,034484,093811,052506,036552,097529,037047,097527
