DIgSILENT PowerFactory,20000410,2000
10,10A,00D
1,LC684-652A:Phase Voltage A/Terminal i,,,kV,0.00010000000,-5.180590,0.000000,-8942,99998,1,1,P
2,LC684-652A:Phase Voltage C/Terminal i,,,kV,0.00010000000,-4.609407,0.000000,-824,99998,1,1,P
3,LC692-675:Phase Voltage A/Terminal i,,,kV,0.00010000000,-5.178008,0.000000,-8954,99998,1,1,P
4,LC692-675:Phase Voltage B/Terminal i,,,kV,0.00010000000,-5.946977,0.000000,-289,99998,1,1,P
5,LC692-675:Phase Voltage C/Terminal i,,,kV,0.00010000000,-4.612438,0.000000,-576,99998,1,1,P
6,LOHL632-633:Phase Voltage A/Terminal i,,,kV,0.00010000000,-5.697620,0.000000,5799,99998,1,1,P
7,LOHL632-633:Phase Voltage B/Terminal i,,,kV,0.00010000000,-6.221231,0.000000,12927,99998,1,1,P
8,LOHL632-633:Phase Voltage C/Terminal i,,,kV,0.00010000000,-5.649105,0.000000,13624,99998,1,1,P
9,LOHL645-646:Phase Voltage B/Terminal i,,,kV,0.00010000000,-6.249935,0.000000,13516,99998,1,1,P
10,LOHL645-646:Phase Voltage C/Terminal i,,,kV,0.00010000000,-5.661685,0.000000,13877,99998,1,1,P
50
1
15000.000000,3001
11/11/2020,18:20:26.000000
11/11/2020,18:20:26.000000
ASCII
1.000000
0000000001,0000000000,077932,050538,077963,026476,050516,084996,029716,059961,030202,060028
0000000002,0000000067,078446,049713,078477,026880,049689,085493,030124,059098,030606,059168
0000000003,0000000133,078947,048886,078979,027298,048860,085976,030547,058234,031024,058307
0000000004,0000000200,079435,048058,079468,027732,048031,086445,030986,057369,031457,057446
0000000005,0000000267,079897,047228,079931,028196,047199,086887,031453,056503,031920,056583
0000000006,0000000333,080346,046398,080380,028675,046367,087314,031936,055638,032397,055721
0000000007,0000000400,080781,045567,080816,029168,045534,087727,032433,054773,032889,054858
0000000008,0000000467,081190,044737,081224,029690,044702,088111,032958,053909,033409,053998
0000000009,0000000533,081584,043908,081619,030226,043871,088480,033496,053047,033942,053139
0000000010,0000000600,081963,043080,081999,030776,043041,088834,034049,052186,034489,052281
0000000011,0000000667,082315,042254,082351,031353,042214,089158,034628,051329,035062,051428
0000000012,0000000733,082652,041430,082688,031943,041389,089467,035220,050475,035648,050577
0000000013,0000000800,082974,040609,083011,032547,040566,089761,035825,049624,036247,049729
0000000014,0000000867,083267,039792,083304,033176,039748,090023,036455,048779,036871,048887
0000000015,0000000933,083545,038979,083582,033817,038933,090270,037097,047938,037507,048049
0000000016,0000001000,083808,038169,083845,034470,038122,090501,037751,047101,038155,047215
0000000017,0000001067,084041,037367,084078,035147,037318,090700,038428,046272,038826,046390
0000000018,0000001133,084258,036568,084295,035836,036518,090883,039116,045449,039508,045570
0000000019,0000001200,084460,035774,084497,036536,035723,091051,039816,044631,040202,044755
0000000020,0000001267,084631,034990,084668,037258,034938,091185,040536,043824,040916,043951
0000000021,0000001333,084787,034211,084824,037990,034158,091304,041267,043023,041640,043154
0000000022,0000001400,084927,033438,084963,038732,033384,091407,042008,042228,042375,042362
0000000023,0000001467,085035,032677,085072,039494,032621,091477,042768,041447,043128,041584
0000000024,0000001533,085128,031922,085164,040265,031866,091530,043537,040673,043890,040814
0000000025,0000001600,085205,031174,085241,041046,031117,091567,044315,039907,044662,040050
0000000026,0000001667,085250,030440,085286,041844,030381,091571,045110,039156,045450,039303
0000000027,0000001733,085280,029713,085315,042650,029654,091559,045913,038414,046247,038563
0000000028,0000001800,085293,028994,085329,043465,028935,091531,046724,037679,047051,037833
0000000029,0000001867,085275,028292,085310,044294,028231,091470,047549,036963,047870,037120
0000000030,0000001933,085241,027597,085276,045131,027536,091392,048382,036256,048695,036416
0000000031,0000002000,085191,026912,085225,045974,026850,091298,049221,035559,049527,035722
0000000032,0000002067,085109,026245,085143,046831,026182,091172,050072,034881,050372,035047
0000000033,0000002133,085012,025587,085045,047693,025524,091029,050929,034214,051222,034383
0000000034,0000002200,084899,024939,084931,048561,024875,090870,051791,033558,052078,033729
0000000035,0000002267,084754,024310,084786,049439,024247,090679,052664,032923,052943,033097
0000000036,0000002333,084594,023693,084626,050322,023629,090473,053541,032299,053813,032477
0000000037,0000002400,084419,023086,084449,051210,023022,090250,054422,031686,054687,031867
0000000038,0000002467,084212,022500,084242,052105,022436,089996,055310,031098,055569,031281
0000000039,0000002533,083990,021926,084020,053003,021862,089726,056201,030521,056454,030707
0000000040,0000002600,083753,021363,083782,053905,021299,089440,057096,029956,057341,030146
0000000041,0000002667,083486,020824,083514,054812,020759,089124,057995,029417,058234,029609
0000000042,0000002733,083204,020297,083230,055721,020232,088793,058896,028890,059128,029085
0000000043,0000002800,082906,019781,082932,056632,019717,088446,059799,028377,060025,028575
0000000044,0000002867,082580,019291,082605,057546,019227,088070,060704,027890,060923,028091
0000000045,0000002933,082239,018814,082263,058460,018750,087679,061610,027417,061822,027620
0000000046,0000003000,081883,018349,081906,059375,018286,087274,062516,026957,062722,027163
0000000047,0000003067,081499,017911,081521,060290,017848,086839,063422,026526,063621,026734
0000000048,0000003133,081101,017486,081122,061205,017424,086391,064327,026109,064520,026319
0000000049,0000003200,080689,017075,080709,062118,017013,085929,065231,025706,065418,025919
0000000050,0000003267,080249,016691,080268,063030,016629,085439,066132,025332,066313,025547
0000000051,0000003333,079797,016321,079814,063939,016260,084936,067032,024973,067206,025191
0000000052,0000003400,079330,015965,079347,064847,015905,084420,067929,024629,068097,024849
0000000053,0000003467,078838,015638,078854,065749,015578,083877,068821,024315,068983,024537
0000000054,0000003533,078333,015325,078347,066648,015266,083322,069709,024016,069865,024241
0000000055,0000003600,077816,015027,077829,067545,014969,082755,070594,023733,070745,023960
0000000056,0000003667,077274,014758,077285,068433,014701,082163,071472,023481,071616,023709
0000000057,0000003733,076720,014504,076730,069317,014448,081559,072344,023244,072483,023475
0000000058,0000003800,076154,014265,076163,070196,014210,080943,073212,023024,073345,023256
0000000059,0000003867,075564,014056,075572,071066,014002,080305,074070,022834,074197,023069
0000000060,0000003933,074964,013863,074970,071929,013810,079656,074922,022661,075043,022897
0000000061,0000004000,074353,013684,074358,072787,013632,078995,075768,022504,075884,022742
0000000062,0000004067,073720,013536,073724,073633,013486,078314,076601,022379,076712,022618
0000000063,0000004133,073077,013404,073079,074471,013355,077623,077427,022270,077533,022511
0000000064,0000004200,072424,013287,072425,075303,013239,076923,078246,022178,078347,022420
0000000065,0000004267,071751,013202,071750,076120,013155,076203,079050,022118,079146,022361
0000000066,0000004333,071069,013131,071067,076928,013086,075474,079846,022074,079937,022319
0000000067,0000004400,070378,013077,070374,077729,013033,074736,080633,022046,080720,022293
0000000068,0000004467,069669,013054,069664,078512,013011,073982,081404,022052,081486,022299
0000000069,0000004533,068951,013046,068945,079286,013005,073219,082164,022073,082242,022321
0000000070,0000004600,068226,013054,068218,080051,013015,072449,082916,022111,082990,022360
0000000071,0000004667,067485,013093,067475,080796,013056,071664,083648,022181,083718,022432
0000000072,0000004733,066736,013148,066725,081531,013112,070872,084370,022268,084436,022519
0000000073,0000004800,065981,013219,065968,082256,013185,070074,085081,022371,085143,022623
0000000074,0000004867,065212,013321,065197,082959,013288,069263,085771,022506,085829,022758
0000000075,0000004933,064436,013438,064420,083651,013407,068446,086449,022657,086504,022910
0000000076,0000005000,063655,013571,063637,084331,013542,067624,087117,022824,087168,023078
0000000077,0000005067,062862,013734,062843,084988,013707,066792,087760,023023,087808,023277
0000000078,0000005133,062065,013913,062044,085633,013888,065955,088391,023238,088436,023493
0000000079,0000005200,061262,014107,061240,086265,014084,065114,089010,023469,089052,023724
0000000080,0000005267,060450,014331,060427,086872,014310,064265,089604,023731,089643,023986
0000000081,0000005333,059635,014571,059609,087466,014552,063413,090184,024008,090220,024264
0000000082,0000005400,058815,014825,058788,088047,014808,062557,090751,024301,090785,024557
0000000083,0000005467,057989,015109,057961,088601,015094,061697,091292,024625,091323,024880
0000000084,0000005533,057160,015408,057130,089141,015395,060834,091818,024963,091847,025218
0000000085,0000005600,056329,015721,056297,089667,015710,059969,092331,025317,092358,025572
0000000086,0000005667,055493,016063,055460,090164,016055,059102,092814,025700,092840,025954
0000000087,0000005733,054656,016419,054621,090646,016413,058233,093284,026097,093308,026352
0000000088,0000005800,053817,016790,053780,091114,016785,057364,093738,026509,093761,026763
0000000089,0000005867,052976,017188,052938,091552,017186,056495,094163,026950,094184,027203
0000000090,0000005933,052135,017599,052095,091975,017600,055626,094573,027404,094593,027657
0000000091,0000006000,051293,018025,051252,092382,018027,054757,094967,027872,094986,028124
0000000092,0000006067,050452,018476,050410,092758,018481,053891,095330,028368,095348,028619
0000000093,0000006133,049612,018941,049568,093118,018948,053026,095678,028876,095695,029127
0000000094,0000006200,048773,019419,048727,093463,019429,052163,096010,029398,096026,029647
0000000095,0000006267,047936,019922,047889,093775,019934,051304,096309,029945,096326,030194
0000000096,0000006333,047102,020438,047053,094071,020452,050448,096593,030505,096609,030752
0000000097,0000006400,046269,020965,046219,094350,020982,049595,096860,031077,096876,031324
0000000098,0000006467,045442,021517,045391,094597,021535,048749,097095,031674,097111,031919
0000000099,0000006533,044618,022080,044565,094827,022101,047908,097312,032282,097329,032525
0000000100,0000006600,043797,022654,043743,095040,022678,047070,097514,032901,097531,033144
0000000101,0000006667,042984,023251,042928,095219,023277,046242,097682,033543,097700,033784
0000000102,0000006733,042175,023858,042118,095382,023886,045419,097833,034196,097852,034435
0000000103,0000006800,041371,024476,041312,095527,024507,044601,097967,034859,097987,035097
0000000104,0000006867,040576,025115,040516,095639,025148,043795,098067,035543,098089,035779
0000000105,0000006933,039787,025763,039726,095733,025798,042995,098151,036237,098173,036471
0000000106,0000007000,039003,026421,038941,095810,026459,042202,098217,036940,098241,037173
0000000107,0000007067,038232,027098,038168,095853,027138,041423,098249,037662,098275,037893
0000000108,0000007133,037467,027783,037402,095878,027826,040651,098264,038393,098292,038621
0000000109,0000007200,036709,028478,036643,095886,028523,039887,098262,039132,098292,039359
0000000110,0000007267,035965,029189,035898,095860,029236,039139,098226,039888,098258,040113
0000000111,0000007333,035229,029908,035160,095817,029957,038400,098173,040651,098208,040874
0000000112,0000007400,034500,030635,034430,095756,030687,037669,098103,041423,098140,041643
0000000113,0000007467,033788,031376,033717,095661,031430,036957,097999,042208,098039,042426
0000000114,0000007533,033084,032124,033013,095548,032181,036254,097878,043000,097920,043216
0000000115,0000007600,032390,032879,032317,095419,032938,035561,097740,043799,097785,044012
0000000116,0000007667,031713,033647,031639,095256,033708,034889,097568,044610,097617,044820
0000000117,0000007733,031047,034420,030972,095075,034483,034226,097380,045426,097432,045634
0000000118,0000007800,030390,035199,030314,094878,035264,033575,097175,046247,097230,046453
0000000119,0000007867,029753,035988,029676,094647,036056,032946,096937,047078,096995,047282
0000000120,0000007933,029127,036782,029049,094400,036852,032328,096682,047914,096745,048115
0000000121,0000008000,028512,037581,028433,094136,037653,031722,096411,048754,096477,048952
0000000122,0000008067,027918,038387,027839,093839,038461,031139,096108,049601,096178,049796
0000000123,0000008133,027336,039197,027256,093525,039273,030570,095788,050451,095863,050644
0000000124,0000008200,026766,040011,026685,093196,040089,030012,095453,051304,095532,051494
0000000125,0000008267,026219,040830,026137,092835,040910,029480,095086,052162,095169,052349
0000000126,0000008333,025684,041651,025602,092458,041734,028961,094704,053022,094791,053206
0000000127,0000008400,025162,042475,025079,092065,042560,028455,094306,053884,094398,054065
0000000128,0000008467,024665,043302,024581,091641,043389,027977,093877,054749,093975,054927
0000000129,0000008533,024181,044131,024097,091203,044219,027512,093434,055613,093536,055789
0000000130,0000008600,023710,044960,023625,090749,045050,027061,092976,056479,093083,056651
0000000131,0000008667,023266,045791,023180,090265,045883,026638,092489,057345,092601,057514
0000000132,0000008733,022835,046621,022749,089767,046715,026230,091987,058210,092105,058376
0000000133,0000008800,022418,047452,022331,089255,047547,025836,091472,059074,091595,059237
0000000134,0000008867,022028,048281,021941,088714,048378,025472,090928,059936,091057,060096
0000000135,0000008933,021653,049109,021566,088159,049208,025123,090372,060796,090506,060952
0000000136,0000009000,021292,049936,021204,087591,050036,024789,089801,061654,089941,061808
0000000137,0000009067,020960,050759,020872,086996,050861,024485,089205,062507,089350,062658
0000000138,0000009133,020642,051580,020554,086389,051683,024197,088596,063358,088747,063505
0000000139,0000009200,020340,052398,020251,085768,052503,023924,087974,064205,088131,064349
0000000140,0000009267,020067,053210,019978,085123,053317,023683,087328,065045,087491,065186
0000000141,0000009333,019809,054019,019720,084465,054127,023457,086670,065881,086839,066018
0000000142,0000009400,019566,054824,019477,083796,054933,023247,086000,066712,086176,066846
0000000143,0000009467,019354,055621,019265,083103,055732,023069,085308,067534,085490,067665
0000000144,0000009533,019157,056413,019068,082400,056525,022907,084605,068350,084793,068478
0000000145,0000009600,018976,057201,018887,081685,057314,022762,083891,069161,084086,069285
0000000146,0000009667,018825,057978,018737,080949,058092,022648,083157,069960,083358,070081
0000000147,0000009733,018691,058749,018602,080204,058864,022551,082413,070752,082620,070870
0000000148,0000009800,018572,059514,018484,079448,059630,022471,081659,071538,081873,071653
0000000149,0000009867,018484,060267,018396,078674,060384,022423,080887,072309,081108,072421
0000000150,0000009933,018413,061013,018325,077890,061131,022391,080106,073073,080333,073181
0000000151,0000010000,018357,061752,018269,077098,061870,022376,079317,073829,079551,073934
0000000152,0000010067,018333,062476,018245,076289,062595,022393,078511,074569,078752,074671
0000000153,0000010133,018325,063192,018238,075472,063312,022427,077698,075300,077945,075399
0000000154,0000010200,018332,063900,018245,074647,064021,022478,076877,076022,077131,076118
0000000155,0000010267,018372,064591,018285,073808,064713,022561,076043,076726,076303,076818
0000000156,0000010333,018427,065273,018341,072963,065396,022660,075202,077420,075469,077509
0000000157,0000010400,018498,065947,018412,072110,066070,022776,074354,078104,074628,078190
0000000158,0000010467,018600,066601,018515,071246,066725,022924,073495,078768,073776,078851
0000000159,0000010533,018718,067246,018634,070377,067370,023088,072631,079421,072919,079501
0000000160,0000010600,018852,067881,018769,069502,068005,023268,071762,080063,072057,080140
0000000161,0000010667,019018,068495,018935,068617,068620,023480,070884,080683,071185,080757
0000000162,0000010733,019198,069099,019116,067729,069223,023708,070002,081292,070310,081362
0000000163,0000010800,019394,069692,019313,066836,069816,023952,069116,081888,069431,081956
0000000164,0000010867,019621,070262,019540,065936,070387,024227,068223,082461,068545,082526
0000000165,0000010933,019863,070821,019783,065034,070946,024517,067328,083021,067657,083084
0000000166,0000011000,020121,071368,020041,064128,071493,024823,066430,083569,066765,083629
0000000167,0000011067,020408,071891,020330,063219,072016,025159,065529,084091,065870,084148
0000000168,0000011133,020710,072402,020632,062307,072527,025511,064625,084600,064974,084654
0000000169,0000011200,021027,072901,020950,061394,073025,025877,063721,085096,064076,085147
0000000170,0000011267,021373,073374,021297,060480,073498,026273,062815,085565,063176,085614
0000000171,0000011333,021733,073834,021659,059565,073958,026683,061909,086020,062277,086066
0000000172,0000011400,022108,074281,022034,058649,074405,027108,061003,086461,061377,086504
0000000173,0000011467,022511,074702,022438,057735,074825,027561,060098,086873,060479,086914
0000000174,0000011533,022927,075108,022856,056822,075231,028028,059194,087271,059581,087310
0000000175,0000011600,023358,075502,023287,055909,075624,028508,058292,087655,058685,087691
0000000176,0000011667,023815,075867,023746,055000,075988,029016,057393,088009,057793,088043
0000000177,0000011733,024285,076218,024217,054093,076339,029537,056496,088348,056902,088380
0000000178,0000011800,024769,076555,024702,053189,076675,030071,055603,088672,056015,088701
0000000179,0000011867,025278,076863,025213,052291,076982,030630,054715,088966,055133,088993
0000000180,0000011933,025800,077156,025735,051396,077275,031202,053831,089244,054255,089269
0000000181,0000012000,026334,077435,026271,050505,077553,031786,052951,089506,053381,089530
0000000182,0000012067,026892,077684,026830,049622,077801,032394,052080,089738,052516,089759
0000000183,0000012133,027462,077918,027402,048744,078034,033013,051214,089953,051655,089973
0000000184,0000012200,028044,078137,027984,047871,078252,033644,050353,090153,050799,090171
0000000185,0000012267,028648,078326,028590,047009,078439,034297,049503,090321,049955,090337
0000000186,0000012333,029263,078499,029206,046154,078612,034961,048659,090473,049116,090487
0000000187,0000012400,029889,078657,029833,045304,078768,035635,047821,090609,048284,090621
0000000188,0000012467,030535,078784,030481,044468,078894,036329,046997,090712,047465,090723
0000000189,0000012533,031192,078896,031139,043639,079005,037033,046181,090799,046654,090809
0000000190,0000012600,031858,078992,031807,042817,079099,037747,045372,090870,045849,090878
0000000191,0000012667,032543,079057,032494,042011,079163,038479,044579,090908,045061,090915
0000000192,0000012733,033237,079106,033189,041213,079211,039219,043794,090930,044281,090936
0000000193,0000012800,033941,079140,033894,040424,079243,039968,043018,090936,043510,090941
0000000194,0000012867,034661,079143,034616,039654,079244,040733,042260,090909,042756,090913
0000000195,0000012933,035389,079129,035345,038892,079229,041506,041512,090866,042012,090868
0000000196,0000013000,036125,079100,036083,038140,079199,042286,040773,090807,041277,090808
0000000197,0000013067,036876,079040,036835,037409,079137,043080,040055,090715,040563,090715
0000000198,0000013133,037634,078964,037595,036688,079059,043881,039347,090606,039859,090606
0000000199,0000013200,038398,078873,038361,035977,078966,044688,038650,090482,039166,090481
0000000200,0000013267,039176,078751,039140,035289,078842,045506,037975,090325,038495,090324
0000000201,0000013333,039959,078613,039925,034613,078702,046330,037312,090153,037835,090151
0000000202,0000013400,040748,078459,040715,033948,078547,047159,036661,089964,037187,089962
0000000203,0000013467,041547,078275,041516,033307,078361,047998,036034,089744,036563,089741
