DIgSILENT PowerFactory,20000410,2000
10,10A,00D
1,LC684-652A:Phase Voltage A/Terminal i,,,kV,0.00010000000,-6.565817,0.000000,22392,99998,1,1,P
2,LC684-652A:Phase Voltage C/Terminal i,,,kV,0.00010000000,-5.787861,0.000000,18892,99998,1,1,P
3,LC692-675:Phase Voltage A/Terminal i,,,kV,0.00010000000,-6.557845,0.000000,22062,99998,1,1,P
4,LC692-675:Phase Voltage B/Terminal i,,,kV,0.00010000000,-5.636166,0.000000,13461,99998,1,1,P
5,LC692-675:Phase Voltage C/Terminal i,,,kV,0.00010000000,-5.799835,0.000000,19023,99998,1,1,P
6,LOHL632-633:Phase Voltage A/Terminal i,,,kV,0.00010000000,-6.450595,0.000000,23368,99998,1,1,P
7,LOHL632-633:Phase Voltage B/Terminal i,,,kV,0.00010000000,-6.079436,0.000000,21660,99998,1,1,P
8,LOHL632-633:Phase Voltage C/Terminal i,,,kV,0.00010000000,-5.997654,0.000000,22591,99998,1,1,P
9,LOHL645-646:Phase Voltage B/Terminal i,,,kV,0.00010000000,-6.105191,0.000000,22184,99998,1,1,P
10,LOHL645-646:Phase Voltage C/Terminal i,,,kV,0.00010000000,-6.010396,0.000000,22851,99998,1,1,P
50
1
15000.000000,3001
11/11/2020,18:32:15.000000
11/11/2020,18:32:15.000000
ASCII
1.000000
0000000001,0000000000,091784,062322,091761,023368,062390,092526,028298,063446,028755,063515
0000000002,0000000067,092298,061497,092276,023772,061563,093022,028706,062583,029158,062655
0000000003,0000000133,092799,060671,092777,024190,060734,093506,029129,061719,029577,061794
0000000004,0000000200,093287,059843,093266,024624,059905,093975,029568,060855,030010,060933
0000000005,0000000267,093750,059013,093729,025088,059073,094417,030035,059989,030473,060070
0000000006,0000000333,094198,058182,094178,025567,058241,094844,030518,059123,030950,059208
0000000007,0000000400,094634,057352,094614,026060,057408,095257,031015,058258,031442,058346
0000000008,0000000467,095042,056522,095023,026582,056576,095641,031540,057395,031961,057485
0000000009,0000000533,095436,055692,095417,027118,055745,096010,032078,056532,032494,056626
0000000010,0000000600,095816,054864,095797,027668,054915,096364,032631,055672,033041,055768
0000000011,0000000667,096167,054038,096149,028245,054088,096688,033210,054815,033615,054915
0000000012,0000000733,096504,053215,096486,028835,053263,096997,033802,053961,034201,054064
0000000013,0000000800,096826,052393,096809,029438,052440,097290,034407,053110,034800,053216
0000000014,0000000867,097119,051577,097102,030067,051622,097553,035037,052265,035424,052374
0000000015,0000000933,097397,050764,097380,030709,050807,097800,035679,051424,036060,051536
0000000016,0000001000,097660,049954,097643,031362,049996,098031,036333,050586,036708,050702
0000000017,0000001067,097893,049151,097876,032039,049192,098230,037010,049758,037379,049877
0000000018,0000001133,098110,048353,098093,032728,048392,098413,037698,048935,038061,049057
0000000019,0000001200,098312,047559,098295,033428,047597,098580,038398,048116,038754,048242
0000000020,0000001267,098483,046775,098467,034149,046812,098715,039118,047309,039468,047438
0000000021,0000001333,098639,045996,098622,034881,046032,098834,039849,046509,040193,046641
0000000022,0000001400,098779,045223,098762,035624,045258,098936,040590,045714,040927,045849
0000000023,0000001467,098887,044461,098870,036386,044495,099006,041350,044933,041681,045071
0000000024,0000001533,098980,043707,098963,037157,043740,099060,042119,044159,042443,044301
0000000025,0000001600,099057,042958,099040,037938,042990,099097,042897,043392,043214,043537
0000000026,0000001667,099102,042224,099085,038736,042255,099101,043692,042641,044003,042790
0000000027,0000001733,099132,041498,099114,039542,041528,099089,044495,041899,044799,042051
0000000028,0000001800,099145,040779,099127,040356,040809,099061,045306,041165,045603,041320
0000000029,0000001867,099127,040076,099108,041186,040105,098999,046131,040449,046422,040607
0000000030,0000001933,099093,039382,099074,042023,039410,098922,046964,039742,047248,039903
0000000031,0000002000,099043,038697,099023,042866,038724,098828,047803,039044,048080,039209
0000000032,0000002067,098962,038029,098941,043723,038056,098701,048654,038367,048925,038534
0000000033,0000002133,098864,037371,098844,044585,037398,098559,049511,037700,049775,037870
0000000034,0000002200,098751,036723,098730,045453,036749,098400,050374,037043,050630,037216
0000000035,0000002267,098607,036095,098585,046331,036121,098209,051246,036408,051496,036584
0000000036,0000002333,098447,035477,098424,047214,035503,098002,052123,035784,052366,035964
0000000037,0000002400,098271,034870,098248,048101,034895,097780,053004,035172,053240,035354
0000000038,0000002467,098064,034285,098041,048997,034310,097525,053892,034583,054122,034768
0000000039,0000002533,097843,033710,097818,049895,033736,097255,054783,034006,055006,034195
0000000040,0000002600,097606,033148,097580,050797,033173,096970,055678,033442,055894,033633
0000000041,0000002667,097338,032608,097312,051704,032633,096654,056577,032902,056787,033096
0000000042,0000002733,097056,032081,097029,052613,032106,096323,057478,032376,057681,032573
0000000043,0000002800,096759,031566,096731,053524,031591,095976,058381,031862,058577,032062
0000000044,0000002867,096432,031076,096403,054438,031101,095600,059286,031376,059476,031578
0000000045,0000002933,096091,030598,096061,055352,030624,095209,060192,030902,060375,031107
0000000046,0000003000,095735,030134,095704,056267,030160,094803,061098,030443,061275,030650
0000000047,0000003067,095351,029696,095319,057182,029722,094369,062004,030011,062174,030221
0000000048,0000003133,094953,029271,094920,058097,029298,093921,062909,029594,063072,029806
0000000049,0000003200,094541,028859,094507,059010,028887,093459,063813,029191,063970,029406
0000000050,0000003267,094102,028475,094066,059922,028503,092969,064715,028817,064865,029035
0000000051,0000003333,093649,028106,093613,060831,028134,092466,065614,028458,065759,028678
0000000052,0000003400,093183,027750,093145,061739,027779,091950,066511,028114,066650,028336
0000000053,0000003467,092691,027423,092652,062641,027452,091407,067403,027801,067535,028024
0000000054,0000003533,092186,027110,092146,063540,027140,090852,068291,027502,068418,027728
0000000055,0000003600,091668,026811,091627,064436,026843,090284,069176,027219,069297,027447
0000000056,0000003667,091126,026543,091084,065325,026575,089692,070054,026966,070168,027197
0000000057,0000003733,090572,026289,090528,066209,026322,089089,070926,026730,071035,026962
0000000058,0000003800,090006,026050,089961,067088,026084,088473,071794,026509,071898,026743
0000000059,0000003867,089417,025841,089370,067958,025876,087835,072652,026320,072750,026556
0000000060,0000003933,088816,025647,088769,068821,025684,087185,073504,026147,073596,026384
0000000061,0000004000,088205,025469,088156,069679,025506,086525,074350,025990,074437,026229
0000000062,0000004067,087572,025321,087522,070525,025360,085844,075183,025865,075265,026106
0000000063,0000004133,086929,025189,086878,071363,025229,085153,076009,025756,076086,025998
0000000064,0000004200,086276,025072,086223,072195,025113,084452,076828,025663,076900,025907
0000000065,0000004267,085603,024986,085549,073011,025029,083732,077632,025603,077699,025848
0000000066,0000004333,084921,024916,084865,073820,024960,083004,078428,025559,078490,025806
0000000067,0000004400,084230,024861,084172,074620,024907,082266,079215,025532,079273,025780
0000000068,0000004467,083521,024838,083462,075404,024885,081511,079986,025537,080039,025786
0000000069,0000004533,082804,024831,082743,076178,024879,080749,080747,025559,080795,025809
0000000070,0000004600,082078,024839,082016,076942,024889,079979,081498,025596,081542,025847
0000000071,0000004667,081337,024878,081273,077688,024930,079194,082230,025667,082270,025919
0000000072,0000004733,080589,024933,080523,078423,024986,078402,082952,025753,082988,026006
0000000073,0000004800,079833,025003,079766,079147,025059,077603,083663,025856,083696,026110
0000000074,0000004867,079064,025105,078996,079851,025162,076792,084353,025991,084382,026245
0000000075,0000004933,078289,025222,078219,080542,025281,075976,085031,026142,085057,026397
0000000076,0000005000,077507,025355,077436,081223,025416,075154,085699,026310,085720,026565
0000000077,0000005067,076715,025519,076642,081880,025581,074321,086342,026509,086360,026765
0000000078,0000005133,075917,025697,075842,082525,025762,073485,086973,026724,086989,026980
0000000079,0000005200,075114,025892,075038,083157,025958,072643,087592,026954,087604,027211
0000000080,0000005267,074302,026116,074225,083764,026184,071795,088186,027216,088195,027473
0000000081,0000005333,073487,026355,073408,084358,026426,070942,088766,027494,088773,027751
0000000082,0000005400,072667,026610,072587,084939,026682,070087,089334,027787,089338,028044
0000000083,0000005467,071841,026894,071759,085493,026968,069226,089874,028110,089876,028367
0000000084,0000005533,071013,027192,070929,086033,027269,068364,090400,028449,090400,028706
0000000085,0000005600,070181,027506,070096,086558,027584,067499,090913,028802,090910,029059
0000000086,0000005667,069345,027848,069258,087056,027929,066632,091396,029185,091392,029442
0000000087,0000005733,068508,028204,068419,087538,028287,065763,091866,029583,091860,029839
0000000088,0000005800,067669,028574,067579,088006,028659,064894,092320,029995,092313,030250
0000000089,0000005867,066828,028972,066736,088444,029060,064025,092745,030435,092737,030690
0000000090,0000005933,065987,029384,065894,088867,029474,063156,093155,030890,093145,031144
0000000091,0000006000,065145,029809,065051,089274,029901,062287,093549,031358,093538,031611
0000000092,0000006067,064304,030261,064208,089650,030355,061420,093912,031853,093901,032106
0000000093,0000006133,063464,030726,063366,090010,030822,060556,094260,032362,094248,032614
0000000094,0000006200,062625,031204,062525,090355,031303,059692,094592,032883,094579,033134
0000000095,0000006267,061788,031707,061688,090667,031808,058834,094891,033431,094878,033681
0000000096,0000006333,060954,032222,060852,090963,032326,057978,095175,033991,095162,034240
0000000097,0000006400,060121,032750,060018,091242,032856,057125,095442,034563,095429,034811
0000000098,0000006467,059294,033301,059189,091489,033409,056279,095677,035159,095664,035406
0000000099,0000006533,058470,033864,058364,091719,033975,055437,095894,035767,095882,036012
0000000100,0000006600,057649,034439,057541,091932,034552,054600,096096,036387,096084,036631
0000000101,0000006667,056836,035035,056727,092111,035151,053771,096264,037029,096252,037271
0000000102,0000006733,056027,035643,055916,092274,035760,052948,096415,037681,096404,037922
0000000103,0000006800,055223,036261,055111,092419,036381,052131,096549,038345,096539,038584
0000000104,0000006867,054428,036899,054315,092531,037022,051325,096649,039029,096641,039266
0000000105,0000006933,053639,037548,053524,092625,037672,050525,096733,039722,096726,039958
0000000106,0000007000,052856,038206,052739,092702,038333,049732,096799,040426,096794,040660
0000000107,0000007067,052084,038882,051967,092745,039012,048953,096831,041148,096828,041380
0000000108,0000007133,051319,039568,051201,092770,039700,048181,096846,041878,096845,042108
0000000109,0000007200,050561,040262,050441,092778,040397,047417,096845,042618,096845,042846
0000000110,0000007267,049817,040973,049696,092752,041110,046669,096809,043373,096811,043600
0000000111,0000007333,049081,041692,048958,092708,041831,045930,096755,044137,096760,044361
0000000112,0000007400,048352,042419,048229,092648,042561,045199,096685,044908,096693,045130
0000000113,0000007467,047640,043161,047515,092553,043304,044487,096581,045694,096591,045913
0000000114,0000007533,046937,043909,046811,092440,044055,043784,096460,046486,096473,046703
0000000115,0000007600,046242,044664,046115,092311,044812,043091,096322,047284,096338,047499
0000000116,0000007667,045566,045431,045438,092147,045582,042418,096150,048095,096169,048308
0000000117,0000007733,044899,046205,044770,091967,046357,041756,095962,048911,095984,049121
0000000118,0000007800,044242,046983,044112,091770,047138,041105,095757,049733,095783,049940
0000000119,0000007867,043605,047773,043475,091539,047930,040475,095519,050564,095548,050769
0000000120,0000007933,042979,048567,042848,091291,048726,039858,095264,051399,095297,051602
0000000121,0000008000,042364,049365,042231,091027,049527,039251,094993,052239,095030,052439
0000000122,0000008067,041770,050172,041637,090730,050335,038669,094690,053086,094731,053283
0000000123,0000008133,041188,050982,041054,090417,051147,038099,094370,053936,094415,054131
0000000124,0000008200,040618,051795,040483,090088,051963,037542,094035,054790,094084,054981
0000000125,0000008267,040071,052614,039936,089727,052784,037010,093668,055648,093722,055836
0000000126,0000008333,039537,053436,039400,089350,053608,036491,093286,056508,093344,056693
0000000127,0000008400,039015,054260,038877,088957,054433,035985,092888,057370,092951,057552
0000000128,0000008467,038517,055087,038380,088533,055263,035507,092459,058234,092527,058414
0000000129,0000008533,038033,055915,037895,088095,056093,035042,092016,059099,092089,059276
0000000130,0000008600,037562,056745,037424,087641,056924,034591,091558,059965,091636,060138
0000000131,0000008667,037118,057575,036979,087157,057757,034168,091071,060830,091154,061001
0000000132,0000008733,036687,058406,036547,086659,058589,033760,090570,061695,090658,061863
0000000133,0000008800,036270,059237,036130,086147,059421,033366,090054,062559,090147,062724
0000000134,0000008867,035880,060066,035740,085606,060252,033002,089510,063421,089610,063583
0000000135,0000008933,035505,060894,035364,085051,061082,032653,088954,064281,089058,064440
0000000136,0000009000,035144,061720,035003,084483,061910,032319,088383,065140,088494,065295
0000000137,0000009067,034812,062544,034670,083888,062735,032015,087787,065993,087903,066145
0000000138,0000009133,034495,063364,034353,083281,063557,031727,087178,066843,087300,066992
0000000139,0000009200,034192,064183,034050,082660,064377,031454,086556,067690,086684,067836
0000000140,0000009267,033919,064995,033777,082015,065191,031212,085910,068530,086044,068673
0000000141,0000009333,033661,065804,033519,081357,066001,030987,085252,069366,085392,069505
0000000142,0000009400,033418,066609,033276,080688,066807,030777,084582,070198,084728,070333
0000000143,0000009467,033206,067406,033064,079995,067606,030599,083890,071019,084042,071152
0000000144,0000009533,033009,068198,032867,079292,068399,030437,083187,071836,083346,071965
0000000145,0000009600,032828,068985,032685,078577,069188,030291,082473,072646,082638,072772
0000000146,0000009667,032678,069762,032535,077841,069966,030178,081739,073445,081911,073568
0000000147,0000009733,032543,070534,032401,077096,070738,030081,080995,074238,081173,074357
0000000148,0000009800,032424,071299,032282,076340,071504,030001,080241,075023,080426,075140
0000000149,0000009867,032337,072052,032195,075565,072258,029953,079469,075795,079660,075908
0000000150,0000009933,032265,072797,032123,074782,073005,029921,078688,076559,078886,076668
0000000151,0000010000,032209,073536,032068,073990,073744,029906,077899,077315,078103,077421
0000000152,0000010067,032185,074260,032044,073181,074469,029923,077093,078055,077304,078158
0000000153,0000010133,032177,074976,032036,072364,075186,029957,076280,078786,076498,078886
0000000154,0000010200,032184,075684,032044,071539,075895,030007,075459,079508,075684,079605
0000000155,0000010267,032224,076376,032084,070700,076587,030090,074625,080211,074856,080305
0000000156,0000010333,032279,077058,032139,069854,077270,030190,073784,080905,074022,080996
0000000157,0000010400,032350,077731,032211,069002,077944,030305,072936,081590,073181,081677
0000000158,0000010467,032452,078386,032314,068138,078599,030453,072077,082253,072329,082338
0000000159,0000010533,032571,079031,032433,067268,079244,030617,071213,082906,071472,082988
0000000160,0000010600,032705,079666,032567,066394,079879,030798,070344,083549,070609,083627
0000000161,0000010667,032870,080280,032733,065509,080494,031010,069466,084169,069738,084244
0000000162,0000010733,033051,080883,032914,064621,081097,031238,068584,084777,068863,084850
0000000163,0000010800,033247,081476,033111,063728,081690,031481,067698,085374,067983,085443
0000000164,0000010867,033474,082046,033339,062828,082261,031756,066805,085947,067098,086013
0000000165,0000010933,033716,082605,033582,061926,082820,032047,065910,086507,066209,086571
0000000166,0000011000,033973,083152,033840,061020,083367,032353,065012,087055,065318,087116
0000000167,0000011067,034260,083676,034128,060111,083890,032689,064111,087577,064423,087635
0000000168,0000011133,034562,084187,034431,059199,084401,033041,063207,088086,063526,088141
0000000169,0000011200,034879,084685,034749,058286,084899,033407,062303,088582,062628,088635
0000000170,0000011267,035225,085158,035096,057372,085372,033803,061397,089051,061729,089101
0000000171,0000011333,035585,085619,035457,056457,085832,034213,060491,089505,060830,089553
0000000172,0000011400,035960,086066,035833,055541,086279,034638,059585,089946,059930,089991
0000000173,0000011467,036363,086486,036236,054627,086699,035091,058680,090359,059031,090401
0000000174,0000011533,036780,086893,036654,053713,087105,035558,057776,090757,058134,090797
0000000175,0000011600,037210,087286,037086,052801,087498,036038,056874,091141,057238,091178
0000000176,0000011667,037667,087651,037544,051892,087862,036546,055975,091495,056345,091530
0000000177,0000011733,038138,088003,038016,050985,088213,037067,055078,091834,055455,091867
0000000178,0000011800,038621,088339,038500,050081,088549,037600,054185,092158,054567,092189
0000000179,0000011867,039131,088647,039011,049183,088856,038160,053297,092451,053686,092480
0000000180,0000011933,039652,088941,039534,048288,089149,038731,052413,092729,052808,092756
0000000181,0000012000,040186,089220,040069,047397,089427,039315,051533,092992,051934,093017
0000000182,0000012067,040745,089469,040629,046514,089675,039923,050662,093223,051068,093246
0000000183,0000012133,041314,089703,041200,045636,089908,040543,049796,093439,050208,093460
0000000184,0000012200,041896,089922,041783,044763,090126,041174,048935,093639,049352,093658
0000000185,0000012267,042500,090110,042388,043901,090313,041827,048085,093806,048507,093824
0000000186,0000012333,043115,090284,043005,043045,090486,042490,047241,093958,047669,093974
0000000187,0000012400,043741,090442,043632,042196,090642,043165,046403,094094,046837,094108
0000000188,0000012467,044387,090569,044280,041359,090768,043859,045579,094197,046018,094210
0000000189,0000012533,045044,090681,044937,040530,090879,044563,044763,094285,045206,094296
0000000190,0000012600,045710,090777,045605,039709,090973,045277,043954,094356,044402,094365
0000000191,0000012667,046395,090842,046292,038903,091037,046009,043161,094394,043614,094402
0000000192,0000012733,047090,090891,046988,038105,091085,046749,042376,094416,042834,094423
0000000193,0000012800,047793,090925,047692,037316,091117,047498,041600,094422,042062,094428
0000000194,0000012867,048513,090927,048414,036545,091118,048263,040842,094395,041309,094400
0000000195,0000012933,049241,090914,049144,035784,091103,049036,040094,094352,040565,094355
0000000196,0000013000,049977,090885,049881,035032,091073,049816,039355,094292,039830,094295
0000000197,0000013067,050728,090825,050634,034301,091011,050610,038637,094200,039116,094202
0000000198,0000013133,051486,090749,051393,033580,090933,051411,037929,094092,038412,094093
0000000199,0000013200,052251,090658,052159,032869,090840,052218,037232,093968,037719,093968
0000000200,0000013267,053028,090535,052938,032181,090716,053036,036557,093811,037047,093811
0000000201,0000013333,053811,090397,053723,031505,090576,053860,035894,093638,036388,093638
0000000202,0000013400,054600,090244,054513,030840,090421,054689,035243,093450,035740,093449
0000000203,0000013467,055400,090060,055315,030199,090235,055527,034616,093230,035116,093228
