DIgSILENT PowerFactory,20000410,2000
10,10A,00D
1,LC684-652A:Phase Voltage A/Terminal i,,,kV,0.00010000000,-6.544416,0.000000,22527,99998,1,1,P
2,LC684-652A:Phase Voltage C/Terminal i,,,kV,0.00010000000,-5.813190,0.000000,18290,99998,1,1,P
3,LC692-675:Phase Voltage A/Terminal i,,,kV,0.00010000000,-6.536614,0.000000,22309,99998,1,1,P
4,LC692-675:Phase Voltage B/Terminal i,,,kV,0.00010000000,-5.725318,0.000000,15315,99998,1,1,P
5,LC692-675:Phase Voltage C/Terminal i,,,kV,0.00010000000,-5.826700,0.000000,18483,99998,1,1,P
6,LOHL632-633:Phase Voltage A/Terminal i,,,kV,0.00010000000,-6.452668,0.000000,23882,99998,1,1,P
7,LOHL632-633:Phase Voltage B/Terminal i,,,kV,0.00010000000,-6.129798,0.000000,22681,99998,1,1,P
8,LOHL632-633:Phase Voltage C/Terminal i,,,kV,0.00010000000,-6.034439,0.000000,22498,99998,1,1,P
9,LOHL645-646:Phase Voltage B/Terminal i,,,kV,0.00010000000,-6.154985,0.000000,23197,99998,1,1,P
10,LOHL645-646:Phase Voltage C/Terminal i,,,kV,0.00010000000,-6.047579,0.000000,22760,99998,1,1,P
50
1
15000.000000,3001
11/11/2020,18:03:08.000000
11/11/2020,18:03:08.000000
ASCII
1.000000
0000000001,0000000000,091570,062576,091549,024260,062659,092546,028801,063814,029253,063887
0000000002,0000000067,092084,061750,092063,024663,061832,093043,029210,062951,029656,063027
0000000003,0000000133,092585,060924,092565,025082,061003,093526,029633,062087,030074,062166
0000000004,0000000200,093073,060096,093054,025516,060173,093996,030071,061223,030508,061305
0000000005,0000000267,093536,059266,093517,025980,059341,094437,030539,060357,030971,060442
0000000006,0000000333,093984,058436,093966,026458,058509,094865,031021,059491,031448,059579
0000000007,0000000400,094420,057605,094402,026951,057677,095277,031518,058626,031939,058717
0000000008,0000000467,094828,056775,094810,027473,056845,095661,032043,057762,032459,057857
0000000009,0000000533,095222,055946,095205,028009,056014,096030,032582,056900,032992,056998
0000000010,0000000600,095602,055117,095585,028559,055184,096385,033134,056040,033539,056140
0000000011,0000000667,095953,054292,095937,029136,054357,096709,033713,055183,034113,055287
0000000012,0000000733,096290,053468,096274,029727,053532,097018,034305,054329,034699,054436
0000000013,0000000800,096612,052647,096597,030330,052709,097311,034910,053477,035298,053588
0000000014,0000000867,096905,051830,096890,030959,051891,097574,035540,052632,035922,052746
0000000015,0000000933,097183,051017,097168,031600,051076,097820,036182,051791,036558,051908
0000000016,0000001000,097446,050207,097431,032254,050265,098051,036836,050954,037206,051074
0000000017,0000001067,097679,049404,097664,032931,049461,098251,037514,050126,037877,050249
0000000018,0000001133,097896,048606,097881,033619,048661,098434,038202,049303,038559,049429
0000000019,0000001200,098098,047812,098083,034319,047866,098601,038901,048484,039252,048614
0000000020,0000001267,098269,047028,098254,035041,047081,098736,039622,047677,039966,047810
0000000021,0000001333,098425,046249,098410,035773,046301,098855,040353,046876,040691,047012
0000000022,0000001400,098565,045476,098550,036515,045526,098957,041093,046082,041425,046221
0000000023,0000001467,098673,044715,098658,037277,044764,099027,041853,045301,042178,045443
0000000024,0000001533,098766,043960,098750,038049,044008,099080,042622,044527,042941,044673
0000000025,0000001600,098843,043212,098827,038829,043259,099118,043401,043760,043712,043909
0000000026,0000001667,098888,042478,098872,039627,042524,099122,044196,043009,044501,043162
0000000027,0000001733,098918,041751,098901,040434,041797,099110,044999,042267,045297,042422
0000000028,0000001800,098931,041032,098915,041248,041077,099081,045809,041533,046101,041691
0000000029,0000001867,098913,040329,098896,042078,040374,099020,046635,040817,046920,040978
0000000030,0000001933,098879,039635,098862,042914,039679,098943,047467,040110,047746,040275
0000000031,0000002000,098829,038950,098811,043758,038993,098849,048306,039412,048578,039580
0000000032,0000002067,098748,038282,098729,044614,038325,098722,049158,038735,049422,038906
0000000033,0000002133,098650,037625,098631,045476,037667,098580,050015,038068,050273,038242
0000000034,0000002200,098537,036976,098518,046344,037018,098421,050877,037411,051128,037588
0000000035,0000002267,098393,036348,098372,047223,036390,098230,051750,036776,051994,036956
0000000036,0000002333,098233,035731,098212,048106,035772,098023,052626,036152,052864,036336
0000000037,0000002400,098057,035123,098035,048993,035164,097800,053507,035540,053738,035726
0000000038,0000002467,097850,034538,097828,049888,034578,097546,054396,034951,054620,035140
0000000039,0000002533,097629,033964,097606,050787,034004,097276,055287,034374,055504,034566
0000000040,0000002600,097392,033401,097368,051688,033441,096991,056181,033810,056392,034005
0000000041,0000002667,097124,032862,097100,052596,032902,096675,057081,033270,057285,033468
0000000042,0000002733,096842,032334,096816,053505,032375,096343,057982,032744,058179,032944
0000000043,0000002800,096545,031819,096518,054415,031860,095997,058885,032230,059075,032434
0000000044,0000002867,096218,031329,096191,055329,031370,095621,059790,031743,059974,031949
0000000045,0000002933,095877,030852,095849,056243,030893,095230,060696,031270,060873,031479
0000000046,0000003000,095521,030387,095492,057158,030429,094824,061602,030811,061772,031022
0000000047,0000003067,095137,029949,095107,058074,029991,094390,062507,030379,062672,030593
0000000048,0000003133,094739,029524,094708,058988,029566,093942,063413,029962,063570,030178
0000000049,0000003200,094327,029113,094295,059902,029155,093479,064317,029559,064468,029778
0000000050,0000003267,093888,028729,093854,060813,028772,092990,065218,029185,065363,029406
0000000051,0000003333,093435,028359,093400,061723,028403,092487,066117,028826,066256,029050
0000000052,0000003400,092969,028003,092933,062630,028048,091970,067015,028482,067148,028708
0000000053,0000003467,092477,027676,092440,063533,027721,091428,067906,028168,068033,028396
0000000054,0000003533,091972,027363,091934,064432,027409,090873,068795,027870,068916,028100
0000000055,0000003600,091454,027065,091415,065328,027112,090305,069680,027586,069795,027819
0000000056,0000003667,090912,026796,090871,066216,026844,089713,070557,027334,070666,027568
0000000057,0000003733,090358,026542,090316,067100,026591,089109,071430,027098,071533,027334
0000000058,0000003800,089792,026303,089749,067980,026353,088494,072298,026877,072396,027115
0000000059,0000003867,089203,026094,089158,068849,026145,087855,073155,026688,073248,026928
0000000060,0000003933,088602,025900,088557,069713,025952,087206,074007,026515,074094,026756
0000000061,0000004000,087991,025722,087944,070571,025775,086546,074853,026357,074935,026601
0000000062,0000004067,087358,025574,087310,071416,025628,085865,075686,026233,075763,026477
0000000063,0000004133,086715,025442,086665,072255,025497,085174,076513,026124,076584,026370
0000000064,0000004200,086062,025325,086011,073086,025382,084473,077332,026031,077398,026279
0000000065,0000004267,085389,025239,085336,073903,025298,083753,078136,025971,078197,026220
0000000066,0000004333,084707,025169,084653,074712,025229,083024,078931,025927,078988,026178
0000000067,0000004400,084016,025115,083960,075512,025176,082287,079719,025900,079771,026152
0000000068,0000004467,083307,025091,083250,076295,025154,081532,080489,025905,080536,026158
0000000069,0000004533,082590,025084,082531,077069,025148,080770,081250,025926,081293,026180
0000000070,0000004600,081864,025092,081804,077834,025157,079999,082002,025964,082040,026219
0000000071,0000004667,081123,025131,081061,078579,025198,079214,082734,026035,082768,026290
0000000072,0000004733,080374,025186,080311,079314,025255,078423,083456,026121,083486,026378
0000000073,0000004800,079619,025257,079554,080039,025327,077624,084167,026224,084194,026481
0000000074,0000004867,078850,025358,078783,080742,025431,076813,084857,026359,084880,026617
0000000075,0000004933,078075,025476,078007,081434,025550,075996,085535,026510,085554,026769
0000000076,0000005000,077293,025608,077224,082115,025684,075174,086202,026677,086218,026937
0000000077,0000005067,076500,025772,076429,082772,025850,074342,086846,026877,086858,027136
0000000078,0000005133,075703,025951,075630,083416,026031,073505,087477,027092,087486,027352
0000000079,0000005200,074900,026145,074826,084049,026227,072664,088096,027322,088102,027583
0000000080,0000005267,074088,026369,074013,084656,026453,071815,088689,027584,088693,027845
0000000081,0000005333,073273,026609,073195,085250,026694,070963,089270,027862,089271,028123
0000000082,0000005400,072453,026863,072374,085831,026951,070108,089837,028155,089836,028416
0000000083,0000005467,071627,027147,071547,086384,027237,069247,090377,028478,090374,028739
0000000084,0000005533,070799,027446,070716,086924,027538,068384,090904,028817,090898,029077
0000000085,0000005600,069967,027759,069883,087450,027853,067520,091416,029170,091408,029431
0000000086,0000005667,069131,028101,069046,087947,028197,066652,091900,029553,091890,029813
0000000087,0000005733,068294,028457,068207,088430,028556,065784,092369,029951,092358,030211
0000000088,0000005800,067455,028827,067366,088898,028928,064915,092824,030363,092811,030622
0000000089,0000005867,066614,029225,066524,089336,029328,064045,093249,030803,093235,031062
0000000090,0000005933,065773,029637,065681,089758,029742,063176,093658,031257,093643,031516
0000000091,0000006000,064931,030062,064838,090165,030170,062308,094053,031726,094036,031983
0000000092,0000006067,064090,030514,063996,090542,030624,061441,094416,032221,094399,032478
0000000093,0000006133,063250,030979,063154,090902,031091,060576,094763,032729,094746,032985
0000000094,0000006200,062411,031457,062313,091246,031571,059713,095095,033251,095077,033506
0000000095,0000006267,061574,031960,061475,091558,032077,058854,095395,033799,095376,034053
0000000096,0000006333,060740,032475,060639,091854,032594,057999,095678,034358,095660,034611
0000000097,0000006400,059907,033003,059805,092134,033124,057146,095946,034931,095927,035183
0000000098,0000006467,059080,033554,058977,092380,033678,056300,096180,035527,096162,035778
0000000099,0000006533,058256,034117,058151,092610,034243,055458,096398,036135,096380,036384
0000000100,0000006600,057435,034692,057329,092823,034820,054620,096599,036755,096582,037003
0000000101,0000006667,056622,035289,056514,093003,035419,053792,096767,037397,096750,037643
0000000102,0000006733,055813,035896,055704,093165,036029,052969,096918,038049,096902,038294
0000000103,0000006800,055009,036514,054898,093311,036650,052151,097053,038713,097037,038956
0000000104,0000006867,054214,037152,054102,093422,037290,051345,097153,039396,097139,039638
0000000105,0000006933,053425,037801,053312,093516,037941,050546,097236,040090,097224,040330
0000000106,0000007000,052642,038459,052527,093594,038602,049752,097303,040793,097292,041032
0000000107,0000007067,051870,039136,051754,093636,039281,048973,097335,041515,097326,041752
0000000108,0000007133,051105,039821,050988,093662,039969,048202,097350,042246,097343,042480
0000000109,0000007200,050347,040516,050229,093670,040665,047438,097348,042985,097343,043218
0000000110,0000007267,049603,041227,049484,093643,041379,046690,097312,043741,097309,043971
0000000111,0000007333,048867,041946,048746,093600,042100,045950,097259,044505,097258,044733
0000000112,0000007400,048138,042672,048016,093539,042829,045220,097189,045276,097191,045502
0000000113,0000007467,047426,043414,047303,093444,043573,044507,097085,046061,097089,046285
0000000114,0000007533,046723,044162,046599,093332,044323,043805,096964,046854,096971,047075
0000000115,0000007600,046028,044917,045903,093202,045081,043112,096826,047652,096836,047871
0000000116,0000007667,045352,045685,045225,093039,045850,042439,096654,048463,096667,048679
0000000117,0000007733,044685,046458,044558,092859,046626,041777,096466,049279,096482,049493
0000000118,0000007800,044028,047237,043900,092661,047407,041125,096260,050101,096281,050312
0000000119,0000007867,043391,048026,043262,092430,048199,040496,096022,050932,096046,051141
0000000120,0000007933,042765,048820,042635,092183,048995,039878,095768,051767,095795,051974
0000000121,0000008000,042150,049618,042019,091919,049795,039272,095497,052607,095528,052811
0000000122,0000008067,041556,050425,041425,091622,050604,038690,095193,053454,095229,053655
0000000123,0000008133,040974,051235,040842,091309,051416,038120,094874,054304,094913,054502
0000000124,0000008200,040404,052048,040271,090980,052232,037562,094538,055158,094582,055353
0000000125,0000008267,039857,052868,039723,090618,053053,037030,094172,056016,094220,056208
0000000126,0000008333,039323,053689,039188,090241,053876,036512,093789,056876,093842,057065
0000000127,0000008400,038801,054513,038665,089848,054702,036006,093391,057738,093449,057924
0000000128,0000008467,038303,055340,038167,089425,055531,035527,092963,058602,093025,058786
0000000129,0000008533,037819,056169,037683,088986,056362,035062,092520,059467,092587,059648
0000000130,0000008600,037348,056998,037211,088532,057193,034611,092062,060332,092134,060510
0000000131,0000008667,036904,057829,036766,088049,058025,034189,091575,061198,091652,061373
0000000132,0000008733,036473,058659,036335,087551,058858,033781,091073,062063,091156,062234
0000000133,0000008800,036056,059490,035917,087038,059690,033387,090557,062927,090645,063096
0000000134,0000008867,035666,060319,035527,086497,060521,033023,090014,063789,090107,063954
0000000135,0000008933,035291,061147,035152,085943,061351,032674,089457,064649,089556,064811
0000000136,0000009000,034930,061974,034791,085375,062179,032339,088887,065507,088991,065666
0000000137,0000009067,034598,062797,034458,084780,063004,032036,088290,066361,088401,066517
0000000138,0000009133,034281,063618,034140,084172,063826,031747,087681,067211,087798,067364
0000000139,0000009200,033978,064436,033837,083552,064646,031475,087060,068058,087182,068208
0000000140,0000009267,033705,065248,033564,082906,065459,031233,086413,068898,086542,069044
0000000141,0000009333,033447,066057,033306,082249,066269,031007,085756,069734,085890,069877
0000000142,0000009400,033204,066862,033064,081579,067076,030798,085086,070565,085226,070705
0000000143,0000009467,032992,067659,032851,080887,067874,030620,084394,071387,084540,071524
0000000144,0000009533,032795,068451,032654,080183,068668,030458,083691,072203,083844,072337
0000000145,0000009600,032614,069239,032473,079468,069456,030312,082977,073014,083136,073144
0000000146,0000009667,032464,070016,032323,078733,070234,030199,082243,073813,082409,073940
0000000147,0000009733,032329,070787,032188,077987,071007,030102,081499,074606,081671,074729
0000000148,0000009800,032210,071552,032070,077232,071773,030021,080745,075391,080924,075511
0000000149,0000009867,032123,072305,031982,076457,072527,029973,079973,076163,080158,076280
0000000150,0000009933,032051,073051,031911,075674,073273,029942,079192,076927,079384,077040
0000000151,0000010000,031995,073789,031855,074881,074013,029926,078403,077683,078601,077793
0000000152,0000010067,031971,074513,031832,074072,074738,029944,077597,078422,077802,078530
0000000153,0000010133,031963,075230,031824,073255,075455,029978,076784,079153,076996,079257
0000000154,0000010200,031970,075938,031832,072431,076164,030028,075963,079876,076182,079977
0000000155,0000010267,032010,076629,031871,071592,076855,030111,075128,080579,075354,080677
0000000156,0000010333,032065,077311,031927,070746,077538,030210,074287,081273,074519,081368
0000000157,0000010400,032136,077985,031998,069894,078212,030326,073440,081958,073679,082049
0000000158,0000010467,032238,078639,032101,069030,078867,030474,072581,082621,072827,082710
0000000159,0000010533,032357,079284,032220,068160,079513,030638,071717,083274,071970,083360
0000000160,0000010600,032491,079919,032355,067285,080148,030818,070848,083917,071107,083999
0000000161,0000010667,032656,080533,032521,066401,080762,031030,069970,084537,070236,084616
0000000162,0000010733,032837,081137,032702,065512,081366,031258,069088,085145,069361,085221
0000000163,0000010800,033033,081729,032899,064619,081959,031502,068202,085742,068481,085815
0000000164,0000010867,033260,082300,033127,063720,082529,031777,067309,086314,067596,086385
0000000165,0000010933,033502,082859,033369,062817,083088,032068,066414,086875,066707,086943
0000000166,0000011000,033759,083406,033627,061912,083635,032373,065516,087423,065816,087488
0000000167,0000011067,034046,083929,033916,061002,084159,032710,064614,087945,064921,088007
0000000168,0000011133,034348,084440,034219,060091,084669,033061,063711,088454,064024,088513
0000000169,0000011200,034665,084939,034536,059178,085168,033428,062807,088950,063126,089006
0000000170,0000011267,035011,085412,034883,058263,085641,033823,061901,089418,062227,089472
0000000171,0000011333,035371,085872,035245,057348,086101,034234,060995,089873,061327,089925
0000000172,0000011400,035746,086319,035620,056433,086547,034658,060088,090314,060428,090363
0000000173,0000011467,036149,086739,036024,055518,086967,035111,059183,090727,059529,090773
0000000174,0000011533,036566,087146,036442,054605,087374,035578,058280,091125,058632,091169
0000000175,0000011600,036996,087539,036873,053693,087766,036059,057377,091508,057736,091550
0000000176,0000011667,037453,087905,037332,052784,088131,036567,056478,091862,056843,091902
0000000177,0000011733,037924,088256,037803,051877,088481,037087,055582,092201,055953,092239
0000000178,0000011800,038407,088593,038288,050973,088818,037621,054688,092525,055065,092560
0000000179,0000011867,038917,088901,038799,050074,089125,038180,053801,092819,054184,092852
0000000180,0000011933,039438,089194,039321,049179,089418,038752,052917,093097,053306,093128
0000000181,0000012000,039972,089473,039857,048288,089695,039336,052037,093360,052432,093388
0000000182,0000012067,040531,089722,040416,047406,089944,039944,051166,093591,051566,093618
0000000183,0000012133,041100,089956,040988,046528,090177,040564,050299,093807,050705,093832
0000000184,0000012200,041682,090175,041570,045655,090395,041194,049438,094006,049850,094029
0000000185,0000012267,042286,090364,042176,044793,090582,041847,048588,094174,049005,094196
0000000186,0000012333,042901,090537,042792,043937,090754,042511,047744,094326,048167,094346
0000000187,0000012400,043527,090695,043419,043087,090911,043185,046907,094462,047335,094480
0000000188,0000012467,044173,090822,044067,042251,091037,043880,046083,094565,046516,094582
0000000189,0000012533,044830,090934,044725,041422,091147,044584,045266,094652,045704,094667
0000000190,0000012600,045496,091030,045393,040600,091242,045297,044457,094723,044900,094737
0000000191,0000012667,046181,091095,046080,039794,091306,046029,043664,094762,044112,094774
0000000192,0000012733,046876,091144,046775,038997,091354,046770,042880,094784,043332,094795
0000000193,0000012800,047579,091178,047480,038208,091386,047519,042103,094790,042560,094799
0000000194,0000012867,048299,091180,048202,037437,091387,048284,041346,094763,041806,094771
0000000195,0000012933,049027,091167,048931,036676,091372,049057,040597,094719,041062,094727
0000000196,0000013000,049763,091138,049669,035924,091341,049837,039859,094660,040328,094667
0000000197,0000013067,050514,091078,050421,035192,091279,050631,039140,094568,039614,094574
0000000198,0000013133,051272,091002,051181,034471,091202,051431,038433,094460,038910,094465
0000000199,0000013200,052037,090911,051947,033761,091109,052238,037736,094335,038216,094340
0000000200,0000013267,052814,090788,052726,033073,090984,053057,037061,094179,037545,094183
0000000201,0000013333,053597,090651,053511,032396,090845,053881,036398,094006,036886,094010
0000000202,0000013400,054386,090497,054301,031731,090690,054710,035747,093818,036238,093821
0000000203,0000013467,055186,090313,055102,031091,090504,055548,035119,093597,035614,093600
