DIgSILENT PowerFactory,20000410,2000
10,10A,00D
1,LC684-652A:Phase Voltage A/Terminal i,,,kV,0.00010000000,-6.498631,0.000000,21021,99998,1,1,P
2,LC684-652A:Phase Voltage C/Terminal i,,,kV,0.00010000000,-5.885074,0.000000,20476,99998,1,1,P
3,LC692-675:Phase Voltage A/Terminal i,,,kV,0.00010000000,-6.490541,0.000000,20787,99998,1,1,P
4,LC692-675:Phase Voltage B/Terminal i,,,kV,0.00010000000,-5.746236,0.000000,17242,99998,1,1,P
5,LC692-675:Phase Voltage C/Terminal i,,,kV,0.00010000000,-5.896811,0.000000,20703,99998,1,1,P
6,LOHL632-633:Phase Voltage A/Terminal i,,,kV,0.00010000000,-6.412336,0.000000,22725,99998,1,1,P
7,LOHL632-633:Phase Voltage B/Terminal i,,,kV,0.00010000000,-5.703509,0.000000,15800,99998,1,1,P
8,LOHL632-633:Phase Voltage C/Terminal i,,,kV,0.00010000000,-6.026492,0.000000,20965,99998,1,1,P
9,LOHL645-646:Phase Voltage B/Terminal i,,,kV,0.00010000000,-5.729134,0.000000,16286,99998,1,1,P
10,LOHL645-646:Phase Voltage C/Terminal i,,,kV,0.00010000000,-6.036846,0.000000,21179,99998,1,1,P
50
1
15000.000000,3001
11/11/2020,17:32:34.000000
11/11/2020,17:32:34.000000
ASCII
1.000000
0000000001,0000000000,091112,063294,091088,024469,063360,092143,024539,063734,024994,063780
0000000002,0000000067,091626,062469,091603,024872,062533,092640,024947,062872,025398,062920
0000000003,0000000133,092127,061643,092104,025291,061704,093123,025370,062008,025816,062059
0000000004,0000000200,092616,060815,092593,025725,060874,093592,025808,061143,026249,061197
0000000005,0000000267,093078,059985,093056,026189,060042,094034,026276,060277,026712,060335
0000000006,0000000333,093527,059155,093505,026667,059210,094461,026759,059412,027189,059472
0000000007,0000000400,093962,058324,093941,027161,058378,094874,027255,058547,027681,058610
0000000008,0000000467,094370,057494,094350,027683,057546,095258,027780,057683,028201,057749
0000000009,0000000533,094764,056665,094744,028219,056715,095627,028319,056821,028734,056890
0000000010,0000000600,095144,055836,095124,028768,055885,095981,028871,055960,029281,056033
0000000011,0000000667,095495,055011,095476,029346,055058,096305,029451,055103,029854,055179
0000000012,0000000733,095832,054187,095813,029936,054233,096614,030043,054249,030440,054328
0000000013,0000000800,096155,053365,096136,030539,053410,096908,030648,053398,031039,053480
0000000014,0000000867,096448,052549,096429,031168,052592,097170,031277,052553,031663,052639
0000000015,0000000933,096725,051736,096707,031809,051777,097417,031919,051712,032299,051801
0000000016,0000001000,096988,050926,096970,032463,050966,097648,032573,050875,032947,050967
0000000017,0000001067,097221,050123,097203,033140,050162,097847,033251,050046,033618,050142
0000000018,0000001133,097438,049325,097420,033829,049362,098030,033939,049223,034300,049322
0000000019,0000001200,097640,048531,097622,034528,048567,098198,034638,048405,034994,048507
0000000020,0000001267,097812,047747,097794,035250,047782,098333,035359,047598,035708,047703
0000000021,0000001333,097967,046968,097949,035982,047002,098451,036090,046797,036432,046905
0000000022,0000001400,098107,046195,098089,036724,046227,098554,036831,046002,037167,046114
0000000023,0000001467,098216,045434,098197,037487,045465,098624,037591,045221,037920,045336
0000000024,0000001533,098308,044679,098290,038258,044709,098677,038360,044447,038682,044565
0000000025,0000001600,098385,043931,098366,039038,043960,098714,039138,043681,039454,043802
0000000026,0000001667,098431,043196,098412,039837,043225,098719,039933,042930,040242,043054
0000000027,0000001733,098460,042470,098441,040643,042498,098707,040736,042187,041039,042315
0000000028,0000001800,098474,041751,098454,041457,041778,098678,041546,041453,041843,041584
0000000029,0000001867,098455,041048,098435,042287,041075,098617,042372,040737,042661,040871
0000000030,0000001933,098421,040354,098401,043123,040380,098539,043204,040030,043487,040167
0000000031,0000002000,098371,039669,098350,043967,039694,098445,044043,039333,044319,039473
0000000032,0000002067,098290,039001,098268,044823,039026,098319,044895,038655,045164,038799
0000000033,0000002133,098192,038343,098171,045686,038368,098176,045752,037988,046014,038135
0000000034,0000002200,098079,037695,098057,046554,037719,098018,046614,037331,046870,037481
0000000035,0000002267,097935,037067,097912,047432,037091,097827,047487,036696,047735,036849
0000000036,0000002333,097775,036449,097751,048315,036473,097620,048363,036073,048605,036228
0000000037,0000002400,097599,035842,097575,049202,035865,097397,049244,035460,049479,035619
0000000038,0000002467,097393,035257,097368,050097,035280,097143,050133,034871,050361,035033
0000000039,0000002533,097171,034683,097145,050996,034705,096873,051024,034295,051246,034459
0000000040,0000002600,096934,034120,096907,051898,034143,096588,051919,033730,052133,033897
0000000041,0000002667,096666,033580,096639,052805,033603,096271,052818,033191,053026,033361
0000000042,0000002733,096384,033053,096356,053714,033076,095940,053719,032664,053920,032837
0000000043,0000002800,096087,032538,096058,054625,032561,095594,054622,032151,054817,032326
0000000044,0000002867,095760,032048,095730,055538,032071,095217,055527,031664,055715,031842
0000000045,0000002933,095419,031571,095388,056453,031594,094826,056433,031191,056614,031372
0000000046,0000003000,095063,031106,095031,057368,031130,094421,057339,030731,057514,030915
0000000047,0000003067,094679,030668,094646,058283,030692,093987,058245,030300,058413,030486
0000000048,0000003133,094281,030243,094247,059197,030267,093538,059150,029882,059312,030071
0000000049,0000003200,093869,029832,093834,060111,029856,093076,060054,029479,060210,029670
0000000050,0000003267,093430,029448,093393,061022,029473,092586,060955,029106,061105,029299
0000000051,0000003333,092977,029078,092940,061932,029104,092083,061855,028747,061998,028942
0000000052,0000003400,092511,028722,092472,062839,028749,091567,062752,028403,062889,028601
0000000053,0000003467,092019,028395,091979,063742,028422,091025,063644,028089,063775,028289
0000000054,0000003533,091514,028082,091473,064641,028110,090469,064532,027790,064657,027992
0000000055,0000003600,090996,027784,090954,065537,027813,089902,065417,027507,065536,027711
0000000056,0000003667,090454,027515,090411,066426,027545,089310,066294,027255,066408,027461
0000000057,0000003733,089900,027261,089855,067310,027292,088706,067167,027018,067275,027227
0000000058,0000003800,089334,027022,089288,068189,027054,088090,068035,026797,068137,027008
0000000059,0000003867,088745,026813,088697,069058,026846,087452,068893,026608,068989,026820
0000000060,0000003933,088145,026619,088096,069922,026653,086803,069744,026435,069835,026649
0000000061,0000004000,087533,026441,087483,070780,026476,086143,070590,026278,070676,026493
0000000062,0000004067,086900,026293,086849,071625,026330,085462,071423,026153,071504,026370
0000000063,0000004133,086257,026161,086205,072464,026199,084771,072250,026044,072325,026263
0000000064,0000004200,085604,026044,085550,073296,026083,084070,073069,025952,073139,026172
0000000065,0000004267,084931,025958,084876,074112,025999,083350,073873,025892,073938,026113
0000000066,0000004333,084249,025888,084192,074921,025930,082621,074669,025848,074729,026071
0000000067,0000004400,083558,025834,083499,075721,025877,081883,075456,025820,075512,026044
0000000068,0000004467,082849,025810,082789,076504,025855,081129,076226,025826,076278,026051
0000000069,0000004533,082132,025803,082070,077278,025849,080366,076987,025847,077034,026073
0000000070,0000004600,081406,025811,081343,078043,025859,079596,077739,025885,077782,026112
0000000071,0000004667,080665,025850,080600,078788,025900,078811,078471,025955,078510,026183
0000000072,0000004733,079917,025905,079850,079523,025956,078019,079193,026042,079228,026271
0000000073,0000004800,079161,025976,079093,080248,026028,077221,079904,026144,079935,026374
0000000074,0000004867,078392,026077,078323,080951,026132,076410,080594,026280,080621,026510
0000000075,0000004933,077617,026195,077546,081643,026251,075593,081272,026431,081296,026662
0000000076,0000005000,076835,026327,076763,082324,026386,074771,081939,026598,081960,026830
0000000077,0000005067,076043,026491,075969,082981,026551,073939,082583,026797,082600,027029
0000000078,0000005133,075245,026670,075169,083625,026732,073102,083214,027012,083228,027244
0000000079,0000005200,074442,026864,074365,084258,026928,072261,083833,027243,083844,027475
0000000080,0000005267,073631,027088,073552,084865,027154,071412,084426,027505,084435,027738
0000000081,0000005333,072815,027327,072735,085459,027396,070560,085007,027782,085012,028015
0000000082,0000005400,071996,027582,071914,086040,027652,069704,085574,028075,085577,028308
0000000083,0000005467,071169,027866,071086,086594,027938,068844,086114,028399,086115,028632
0000000084,0000005533,070341,028164,070256,087133,028239,067981,086641,028737,086639,028970
0000000085,0000005600,069509,028478,069423,087659,028554,067116,087153,029091,087150,029323
0000000086,0000005667,068673,028820,068585,088156,028898,066249,087637,029474,087632,029706
0000000087,0000005733,067836,029176,067746,088639,029257,065381,088106,029871,088100,030103
0000000088,0000005800,066997,029546,066906,089107,029629,064511,088561,030283,088553,030515
0000000089,0000005867,066156,029944,066063,089545,030029,063642,088986,030724,088976,030955
0000000090,0000005933,065315,030356,065221,089967,030443,062773,089395,031178,089385,031408
0000000091,0000006000,064474,030781,064378,090375,030871,061904,089790,031646,089778,031876
0000000092,0000006067,063633,031233,063535,090751,031325,061038,090153,032141,090140,032370
0000000093,0000006133,062792,031698,062693,091111,031792,060173,090501,032650,090487,032878
0000000094,0000006200,061953,032176,061852,091455,032272,059310,090832,033172,090818,033399
0000000095,0000006267,061117,032679,061014,091768,032778,058451,091132,033719,091118,033945
0000000096,0000006333,060282,033194,060179,092063,033295,057595,091416,034279,091401,034504
0000000097,0000006400,059450,033722,059345,092343,033825,056742,091683,034851,091668,035075
0000000098,0000006467,058622,034273,058516,092590,034379,055897,091917,035448,091903,035670
0000000099,0000006533,057798,034836,057691,092819,034945,055055,092135,036056,092121,036277
0000000100,0000006600,056978,035411,056868,093033,035521,054217,092337,036675,092323,036895
0000000101,0000006667,056164,036007,056054,093212,036120,053389,092504,037317,092492,037536
0000000102,0000006733,055356,036615,055243,093374,036730,052566,092655,037970,092644,038187
0000000103,0000006800,054551,037233,054438,093520,037351,051748,092790,038633,092779,038849
0000000104,0000006867,053756,037871,053642,093631,037992,050942,092890,039317,092881,039531
0000000105,0000006933,052967,038520,052851,093726,038642,050142,092973,040011,092965,040223
0000000106,0000007000,052184,039178,052066,093803,039303,049349,093040,040714,093033,040924
0000000107,0000007067,051412,039854,051294,093845,039982,048570,093072,041436,093067,041644
0000000108,0000007133,050647,040540,050527,093871,040670,047798,093087,042167,093084,042373
0000000109,0000007200,049889,041234,049768,093879,041366,047034,093085,042906,093084,043110
0000000110,0000007267,049145,041946,049023,093853,042080,046286,093049,043662,093050,043864
0000000111,0000007333,048409,042664,048285,093809,042801,045547,092996,044425,093000,044626
0000000112,0000007400,047680,043391,047556,093748,043530,044816,092926,045197,092932,045395
0000000113,0000007467,046968,044133,046842,093653,044274,044104,092822,045982,092831,046178
0000000114,0000007533,046265,044881,046138,093541,045024,043401,092701,046774,092712,046968
0000000115,0000007600,045570,045636,045442,093412,045782,042708,092563,047573,092577,047764
0000000116,0000007667,044894,046403,044765,093248,046552,042036,092391,048383,092409,048572
0000000117,0000007733,044227,047177,044097,093068,047327,041374,092203,049200,092224,049386
0000000118,0000007800,043570,047956,043439,092870,048108,040722,091998,050021,092022,050205
0000000119,0000007867,042933,048745,042802,092640,048900,040093,091759,050852,091787,051033
0000000120,0000007933,042307,049539,042175,092392,049696,039475,091505,051688,091537,051866
0000000121,0000008000,041692,050337,041558,092128,050496,038869,091234,052528,091269,052703
0000000122,0000008067,041099,051144,040964,091831,051305,038287,090930,053375,090970,053548
0000000123,0000008133,040517,051954,040381,091518,052117,037717,090611,054225,090655,054395
0000000124,0000008200,039946,052767,039810,091189,052933,037159,090276,055078,090324,055246
0000000125,0000008267,039399,053586,039263,090827,053754,036627,089909,055936,089961,056101
0000000126,0000008333,038865,054408,038727,090450,054577,036108,089526,056796,089583,056958
0000000127,0000008400,038343,055232,038204,090058,055403,035603,089128,057658,089190,057817
0000000128,0000008467,037846,056059,037707,089634,056232,035124,088700,058522,088767,058678
0000000129,0000008533,037362,056887,037222,089195,057063,034659,088257,059387,088328,059540
0000000130,0000008600,036891,057717,036751,088741,057894,034208,087799,060253,087875,060403
0000000131,0000008667,036446,058548,036306,088258,058727,033786,087312,061118,087393,061265
0000000132,0000008733,036015,059378,035874,087760,059559,033377,086810,061983,086897,062127
0000000133,0000008800,035598,060209,035457,087247,060391,032984,086295,062848,086387,062988
0000000134,0000008867,035209,061038,035067,086706,061222,032619,085751,063710,085849,063847
0000000135,0000008933,034833,061866,034691,086152,062052,032270,085194,064570,085298,064704
0000000136,0000009000,034472,062693,034330,085584,062880,031936,084624,065428,084733,065559
0000000137,0000009067,034140,063516,033997,084989,063705,031632,084028,066281,084142,066409
0000000138,0000009133,033823,064336,033680,084381,064527,031344,083418,067132,083539,067256
0000000139,0000009200,033520,065155,033377,083761,065347,031071,082797,067979,082923,068100
0000000140,0000009267,033247,065967,033104,083115,066160,030830,082151,068819,082283,068937
0000000141,0000009333,032989,066776,032846,082458,066971,030604,081493,069654,081631,069770
0000000142,0000009400,032747,067581,032603,081788,067777,030394,080823,070486,080968,070598
0000000143,0000009467,032534,068378,032391,081096,068575,030216,080131,071308,080282,071416
0000000144,0000009533,032338,069170,032194,080392,069369,030055,079428,072124,079585,072229
0000000145,0000009600,032156,069958,032012,079678,070157,029909,078714,072935,078878,073037
0000000146,0000009667,032006,070735,031862,078942,070936,029796,077980,073734,078150,073833
0000000147,0000009733,031871,071506,031728,078196,071708,029699,077236,074526,077412,074622
0000000148,0000009800,031752,072271,031609,077441,072474,029618,076482,075312,076665,075404
0000000149,0000009867,031665,073024,031522,076666,073228,029570,075710,076083,075900,076172
0000000150,0000009933,031593,073769,031450,075883,073974,029538,074929,076847,075125,076933
0000000151,0000010000,031537,074508,031395,075090,074714,029523,074140,077603,074343,077686
0000000152,0000010067,031513,075232,031371,074281,075439,029541,073334,078343,073544,078422
0000000153,0000010133,031505,075948,031363,073464,076156,029575,072521,079074,072737,079150
0000000154,0000010200,031513,076656,031371,072640,076865,029625,071700,079796,071923,079869
0000000155,0000010267,031552,077348,031411,071801,077557,029708,070865,080500,071095,080570
0000000156,0000010333,031607,078030,031466,070955,078240,029807,070024,081194,070261,081261
0000000157,0000010400,031678,078704,031538,070103,078913,029923,069177,081878,069420,081942
0000000158,0000010467,031781,079358,031641,069239,079569,030071,068318,082542,068568,082602
0000000159,0000010533,031899,080003,031760,068369,080214,030235,067454,083195,067711,083252
0000000160,0000010600,032033,080638,031894,067494,080849,030415,066585,083837,066849,083892
0000000161,0000010667,032198,081252,032060,066610,081463,030627,065707,084457,065977,084509
0000000162,0000010733,032379,081855,032241,065721,082067,030855,064825,085066,065102,085114
0000000163,0000010800,032575,082448,032438,064829,082660,031099,063939,085662,064223,085708
0000000164,0000010867,032802,083019,032666,063929,083231,031374,063046,086235,063337,086278
0000000165,0000010933,033044,083577,032909,063026,083789,031664,062151,086795,062449,086835
0000000166,0000011000,033301,084125,033167,062121,084337,031970,061253,087343,061557,087380
0000000167,0000011067,033588,084648,033455,061211,084860,032307,060351,087865,060662,087900
0000000168,0000011133,033890,085159,033758,060300,085371,032658,059448,088374,059766,088406
0000000169,0000011200,034207,085657,034076,059387,085869,033024,058544,088870,058868,088899
0000000170,0000011267,034553,086131,034423,058472,086342,033420,057638,089339,057968,089365
0000000171,0000011333,034914,086591,034784,057557,086802,033830,056732,089794,057069,089817
0000000172,0000011400,035288,087038,035160,056642,087249,034255,055826,090235,056169,090256
0000000173,0000011467,035691,087458,035563,055728,087669,034708,054921,090647,055271,090666
0000000174,0000011533,036108,087865,035981,054814,088075,035175,054017,091045,054373,091062
0000000175,0000011600,036538,088258,036413,053902,088468,035656,053114,091429,053477,091443
0000000176,0000011667,036995,088624,036871,052993,088832,036163,052216,091783,052585,091794
0000000177,0000011733,037466,088975,037343,052086,089183,036684,051319,092122,051694,092131
0000000178,0000011800,037949,089312,037827,051182,089519,037218,050425,092446,050807,092453
0000000179,0000011867,038459,089620,038338,050283,089826,037777,049538,092740,049925,092744
0000000180,0000011933,038980,089913,038861,049389,090119,038349,048654,093018,049047,093021
0000000181,0000012000,039514,090192,039396,048497,090397,038933,047774,093280,048173,093281
0000000182,0000012067,040073,090441,039956,047615,090645,039541,046903,093512,047308,093511
0000000183,0000012133,040643,090675,040527,046737,090878,040160,046037,093727,046447,093724
0000000184,0000012200,041224,090894,041110,045864,091096,040791,045175,093927,045591,093922
0000000185,0000012267,041828,091083,041715,045002,091283,041444,044325,094095,044747,094088
0000000186,0000012333,042443,091256,042331,044146,091455,042108,043482,094247,043908,094238
0000000187,0000012400,043069,091414,042959,043296,091612,042782,042644,094382,043076,094373
0000000188,0000012467,043715,091541,043607,042460,091738,043476,041820,094486,042257,094474
0000000189,0000012533,044372,091653,044264,041631,091848,044180,041004,094573,041446,094560
0000000190,0000012600,045038,091749,044932,040809,091943,044894,040194,094644,040641,094630
0000000191,0000012667,045724,091814,045619,040004,092007,045626,039401,094682,039853,094667
0000000192,0000012733,046418,091863,046315,039206,092055,046366,038617,094704,039073,094688
0000000193,0000012800,047121,091897,047019,038417,092087,047115,037841,094710,038302,094692
0000000194,0000012867,047841,091899,047741,037646,092088,047881,037083,094683,037548,094664
0000000195,0000012933,048569,091886,048471,036885,092073,048653,036334,094640,036804,094620
0000000196,0000013000,049305,091857,049208,036133,092042,049434,035596,094580,036069,094559
0000000197,0000013067,050056,091797,049961,035401,091980,050228,034877,094488,035355,094467
0000000198,0000013133,050814,091721,050720,034680,091903,051028,034170,094380,034651,094358
0000000199,0000013200,051579,091630,051486,033970,091810,051835,033473,094256,033958,094233
0000000200,0000013267,052356,091507,052265,033282,091686,052654,032798,094099,033287,094075
0000000201,0000013333,053139,091369,053050,032605,091546,053477,032135,093927,032627,093902
0000000202,0000013400,053928,091216,053840,031940,091391,054306,031484,093738,031979,093713
0000000203,0000013467,054728,091032,054641,031300,091205,055145,030856,093518,031355,093493
