DIgSILENT PowerFactory,20000410,2000
10,10A,00D
1,LC684-652A:Phase Voltage A/Terminal i,,,kV,0.00010000000,-5.494483,0.000000,-4767,99998,1,1,P
2,LC684-652A:Phase Voltage C/Terminal i,,,kV,0.00010000000,-5.408520,0.000000,12222,99998,1,1,P
3,LC692-675:Phase Voltage A/Terminal i,,,kV,0.00010000000,-5.488614,0.000000,-5016,99998,1,1,P
4,LC692-675:Phase Voltage B/Terminal i,,,kV,0.00010000000,-5.986314,0.000000,8719,99998,1,1,P
5,LC692-675:Phase Voltage C/Terminal i,,,kV,0.00010000000,-5.436548,0.000000,12690,99998,1,1,P
6,LOHL632-633:Phase Voltage A/Terminal i,,,kV,0.00010000000,-5.787728,0.000000,6824,99998,1,1,P
7,LOHL632-633:Phase Voltage B/Terminal i,,,kV,0.00010000000,-6.245551,0.000000,16833,99998,1,1,P
8,LOHL632-633:Phase Voltage C/Terminal i,,,kV,0.00010000000,-5.745942,0.000000,17454,99998,1,1,P
9,LOHL645-646:Phase Voltage B/Terminal i,,,kV,0.00010000000,-6.274328,0.000000,17437,99998,1,1,P
10,LOHL645-646:Phase Voltage C/Terminal i,,,kV,0.00010000000,-5.756623,0.000000,17678,99998,1,1,P
50
1
15000.000000,3001
11/11/2020,18:16:15.000000
11/11/2020,18:16:15.000000
ASCII
1.000000
0000000001,0000000000,081071,058529,081069,026870,058757,085897,029959,060929,030446,060978
0000000002,0000000067,081585,057704,081583,027273,057930,086394,030367,060066,030849,060118
0000000003,0000000133,082086,056877,082085,027692,057102,086877,030790,059202,031268,059257
0000000004,0000000200,082574,056049,082574,028125,056272,087346,031229,058338,031701,058395
0000000005,0000000267,083036,055219,083037,028589,055440,087788,031697,057472,032164,057532
0000000006,0000000333,083485,054389,083486,029068,054608,088215,032179,056606,032641,056670
0000000007,0000000400,083920,053558,083922,029561,053775,088628,032676,055741,033133,055808
0000000008,0000000467,084328,052728,084330,030083,052943,089012,033201,054878,033653,054947
0000000009,0000000533,084722,051899,084725,030619,052112,089381,033739,054015,034186,054088
0000000010,0000000600,085102,051071,085105,031169,051282,089735,034292,053155,034733,053231
0000000011,0000000667,085454,050245,085457,031746,050455,090059,034871,052298,035306,052377
0000000012,0000000733,085791,049421,085794,032337,049630,090368,035463,051444,035892,051526
0000000013,0000000800,086113,048600,086117,032940,048807,090662,036068,050592,036491,050678
0000000014,0000000867,086406,047783,086410,033569,047989,090924,036698,049747,037115,049836
0000000015,0000000933,086684,046970,086688,034210,047174,091171,037340,048906,037751,048998
0000000016,0000001000,086947,046160,086951,034864,046363,091402,037994,048069,038399,048164
0000000017,0000001067,087180,045358,087184,035541,045559,091601,038671,047241,039070,047339
0000000018,0000001133,087397,044559,087401,036229,044760,091784,039359,046418,039752,046519
0000000019,0000001200,087599,043766,087603,036929,043964,091952,040059,045599,040446,045704
0000000020,0000001267,087770,042981,087774,037651,043179,092087,040779,044792,041160,044901
0000000021,0000001333,087926,042203,087930,038383,042399,092205,041510,043991,041884,044103
0000000022,0000001400,088066,041429,088070,039125,041625,092308,042251,043197,042618,043312
0000000023,0000001467,088174,040668,088178,039887,040862,092378,043011,042416,043372,042534
0000000024,0000001533,088267,039913,088270,040659,040107,092431,043780,041642,044134,041763
0000000025,0000001600,088344,039165,088347,041439,039358,092468,044558,040875,044906,041000
0000000026,0000001667,088389,038431,088392,042237,038623,092473,045353,040124,045694,040252
0000000027,0000001733,088418,037704,088421,043044,037895,092460,046156,039382,046490,039513
0000000028,0000001800,088432,036986,088435,043858,037176,092432,046967,038648,047295,038782
0000000029,0000001867,088414,036283,088416,044688,036472,092371,047792,037932,048113,038069
0000000030,0000001933,088380,035589,088382,045524,035777,092293,048625,037225,048939,037365
0000000031,0000002000,088330,034903,088331,046368,035091,092199,049464,036527,049771,036671
0000000032,0000002067,088248,034236,088249,047224,034423,092073,050315,035850,050616,035997
0000000033,0000002133,088151,033578,088151,048086,033765,091930,051172,035183,051466,035332
0000000034,0000002200,088038,032930,088038,048954,033117,091771,052035,034526,052322,034679
0000000035,0000002267,087893,032302,087892,049833,032488,091581,052907,033891,053187,034047
0000000036,0000002333,087733,031684,087732,050716,031870,091374,053784,033267,054057,033426
0000000037,0000002400,087558,031077,087555,051603,031263,091151,054665,032655,054931,032817
0000000038,0000002467,087351,030491,087348,052498,030677,090897,055553,032066,055813,032231
0000000039,0000002533,087129,029917,087126,053397,030103,090627,056445,031489,056698,031657
0000000040,0000002600,086892,029354,086888,054298,029540,090341,057339,030925,057585,031095
0000000041,0000002667,086625,028815,086620,055205,029001,090025,058238,030385,058478,030559
0000000042,0000002733,086343,028288,086336,056114,028473,089694,059139,029859,059372,030035
0000000043,0000002800,086045,027773,086038,057025,027958,089347,060042,029345,060269,029524
0000000044,0000002867,085719,027282,085711,057939,027468,088971,060947,028858,061167,029040
0000000045,0000002933,085377,026805,085369,058853,026991,088580,061853,028385,062066,028569
0000000046,0000003000,085022,026340,085012,059768,026527,088175,062759,027926,062966,028112
0000000047,0000003067,084638,025902,084627,060684,026089,087741,063665,027494,063865,027683
0000000048,0000003133,084240,025477,084228,061598,025665,087292,064570,027077,064764,027269
0000000049,0000003200,083828,025066,083815,062512,025254,086830,065474,026674,065662,026868
0000000050,0000003267,083388,024682,083374,063423,024871,086340,066376,026300,066557,026497
0000000051,0000003333,082935,024312,082920,064333,024501,085837,067275,025941,067450,026140
0000000052,0000003400,082469,023956,082453,065240,024146,085321,068172,025597,068341,025798
0000000053,0000003467,081977,023629,081960,066143,023820,084778,069064,025283,069227,025487
0000000054,0000003533,081472,023316,081454,067042,023508,084223,069952,024985,070109,025190
0000000055,0000003600,080955,023018,080935,067938,023210,083656,070838,024702,070988,024909
0000000056,0000003667,080413,022749,080391,068826,022942,083064,071715,024449,071860,024659
0000000057,0000003733,079858,022495,079836,069710,022689,082460,072587,024213,072727,024424
0000000058,0000003800,079292,022256,079269,070590,022451,081844,073455,023992,073589,024205
0000000059,0000003867,078703,022047,078678,071459,022243,081206,074313,023803,074441,024018
0000000060,0000003933,078103,021854,078077,072323,022051,080557,075165,023630,075287,023847
0000000061,0000004000,077492,021675,077464,073181,021873,079897,076011,023473,076128,023691
0000000062,0000004067,076859,021528,076830,074026,021727,079215,076844,023348,076956,023568
0000000063,0000004133,076216,021395,076185,074865,021596,078525,077670,023239,077777,023461
0000000064,0000004200,075563,021278,075531,075696,021480,077824,078489,023146,078591,023369
0000000065,0000004267,074890,021193,074856,076513,021396,077104,079293,023086,079390,023311
0000000066,0000004333,074208,021123,074173,077321,021327,076375,080089,023042,080181,023268
0000000067,0000004400,073517,021068,073480,078122,021274,075637,080877,023015,080964,023242
0000000068,0000004467,072808,021045,072770,078905,021252,074883,081647,023020,081730,023248
0000000069,0000004533,072090,021037,072051,079679,021246,074120,082408,023041,082486,023271
0000000070,0000004600,071365,021045,071324,080444,021256,073350,083159,023079,083234,023310
0000000071,0000004667,070624,021085,070581,081189,021297,072565,083891,023150,083962,023381
0000000072,0000004733,069875,021139,069831,081924,021354,071773,084613,023236,084679,023468
0000000073,0000004800,069119,021210,069074,082649,021426,070975,085325,023339,085387,023572
0000000074,0000004867,068350,021312,068303,083352,021529,070164,086014,023474,086073,023708
0000000075,0000004933,067575,021429,067527,084044,021648,069347,086693,023625,086748,023859
0000000076,0000005000,066794,021562,066744,084724,021783,068525,087360,023792,087412,024027
0000000077,0000005067,066001,021725,065949,085381,021948,067693,088003,023992,088052,024227
0000000078,0000005133,065203,021904,065150,086026,022129,066856,088634,024207,088680,024442
0000000079,0000005200,064401,022098,064346,086659,022325,066015,089253,024437,089296,024673
0000000080,0000005267,063589,022323,063533,087266,022551,065166,089847,024699,089887,024935
0000000081,0000005333,062774,022562,062715,087860,022793,064314,090427,024977,090464,025213
0000000082,0000005400,061954,022816,061894,088441,023049,063458,090995,025270,091029,025506
0000000083,0000005467,061128,023100,061067,088994,023335,062598,091535,025593,091567,025829
0000000084,0000005533,060299,023399,060236,089534,023636,061735,092061,025932,092091,026168
0000000085,0000005600,059468,023712,059403,090060,023951,060870,092574,026285,092602,026521
0000000086,0000005667,058632,024054,058566,090557,024296,060003,093058,026668,093084,026904
0000000087,0000005733,057794,024410,057727,091040,024654,059135,093527,027066,093551,027301
0000000088,0000005800,056956,024781,056886,091508,025027,058265,093982,027478,094005,027713
0000000089,0000005867,056115,025179,056044,091945,025427,057396,094406,027918,094428,028152
0000000090,0000005933,055274,025590,055201,092368,025841,056527,094816,028372,094836,028606
0000000091,0000006000,054432,026016,054358,092775,026268,055658,095210,028841,095230,029074
0000000092,0000006067,053591,026468,053516,093151,026722,054792,095574,029336,095592,029568
0000000093,0000006133,052751,026932,052674,093512,027190,053927,095921,029844,095939,030076
0000000094,0000006200,051912,027410,051833,093856,027670,053064,096253,030366,096270,030597
0000000095,0000006267,051075,027913,050995,094168,028175,052205,096552,030914,096570,031143
0000000096,0000006333,050241,028429,050159,094464,028693,051349,096836,031473,096853,031702
0000000097,0000006400,049408,028956,049325,094744,029223,050496,097103,032046,097120,032273
0000000098,0000006467,048581,029508,048497,094990,029777,049651,097338,032642,097355,032868
0000000099,0000006533,047757,030071,047671,095220,030342,048809,097556,033250,097573,033475
0000000100,0000006600,046936,030645,046849,095433,030919,047971,097757,033870,097775,034093
0000000101,0000006667,046123,031242,046034,095613,031518,047143,097925,034512,097944,034733
0000000102,0000006733,045314,031849,045224,095775,032128,046320,098076,035164,098096,035385
0000000103,0000006800,044510,032467,044418,095921,032748,045502,098210,035828,098231,036046
0000000104,0000006867,043715,033106,043622,096032,033389,044696,098310,036511,098332,036729
0000000105,0000006933,042926,033754,042832,096126,034040,043896,098394,037205,098417,037420
0000000106,0000007000,042142,034412,042047,096203,034700,043103,098460,037908,098485,038122
0000000107,0000007067,041371,035089,041274,096246,035379,042324,098492,038630,098519,038842
0000000108,0000007133,040606,035775,040508,096272,036067,041552,098508,039361,098536,039571
0000000109,0000007200,039848,036469,039749,096280,036764,040788,098506,040100,098536,040308
0000000110,0000007267,039104,037180,039004,096253,037477,040040,098470,040856,098502,041062
0000000111,0000007333,038368,037899,038266,096210,038199,039301,098417,041620,098452,041823
0000000112,0000007400,037639,038626,037536,096149,038928,038570,098346,042391,098384,042592
0000000113,0000007467,036927,039367,036823,096054,039671,037858,098242,043177,098283,043376
0000000114,0000007533,036223,040115,036119,095942,040422,037155,098121,043969,098164,044165
0000000115,0000007600,035529,040870,035423,095812,041179,036462,097983,044767,098029,044962
0000000116,0000007667,034852,041638,034745,095649,041949,035790,097812,045578,097861,045770
0000000117,0000007733,034186,042411,034078,095469,042724,035128,097623,046394,097676,046583
0000000118,0000007800,033529,043190,033420,095271,043506,034476,097418,047216,097474,047403
0000000119,0000007867,032892,043979,032782,095040,044297,033847,097180,048047,097239,048231
0000000120,0000007933,032266,044773,032155,094793,045093,033229,096925,048882,096989,049064
0000000121,0000008000,031650,045572,031539,094529,045894,032623,096654,049722,096721,049901
0000000122,0000008067,031057,046378,030945,094232,046702,032041,096351,050569,096422,050746
0000000123,0000008133,030475,047188,030362,093919,047515,031471,096031,051419,096107,051593
0000000124,0000008200,029905,048002,029791,093590,048330,030913,095696,052273,095776,052443
0000000125,0000008267,029358,048821,029243,093228,049151,030381,095329,053131,095413,053299
0000000126,0000008333,028823,049642,028708,092851,049975,029862,094947,053991,095035,054156
0000000127,0000008400,028301,050466,028185,092458,050801,029357,094549,054853,094642,055015
0000000128,0000008467,027804,051294,027687,092035,051630,028878,094121,055717,094219,055876
0000000129,0000008533,027320,052122,027203,091596,052460,028413,093677,056582,093780,056738
0000000130,0000008600,026849,052951,026731,091142,053292,027962,093219,057447,093327,057601
0000000131,0000008667,026405,053782,026286,090659,054124,027539,092732,058313,092845,058463
0000000132,0000008733,025974,054613,025855,090160,054956,027131,092231,059178,092349,059325
0000000133,0000008800,025557,055443,025437,089648,055788,026738,091715,060042,091839,060186
0000000134,0000008867,025167,056272,025047,089107,056619,026373,091172,060904,091301,061045
0000000135,0000008933,024792,057100,024672,088553,057449,026024,090615,061764,090750,061902
0000000136,0000009000,024431,057927,024311,087985,058277,025690,090044,062622,090185,062757
0000000137,0000009067,024099,058750,023978,087390,059102,025386,089448,063476,089594,063607
0000000138,0000009133,023781,059571,023660,086782,059924,025098,088839,064326,088991,064454
0000000139,0000009200,023479,060389,023357,086162,060744,024825,088217,065173,088375,065298
0000000140,0000009267,023206,061201,023084,085516,061558,024584,087571,066013,087735,066135
0000000141,0000009333,022948,062010,022826,084859,062368,024358,086913,066849,087083,066967
0000000142,0000009400,022705,062815,022584,084189,063174,024148,086243,067680,086420,067796
0000000143,0000009467,022493,063612,022371,083497,063973,023970,085551,068502,085734,068614
0000000144,0000009533,022296,064404,022174,082793,064766,023808,084848,069318,085037,069427
0000000145,0000009600,022115,065192,021993,082078,065555,023663,084135,070129,084330,070235
0000000146,0000009667,021964,065969,021843,081343,066333,023550,083400,070928,083602,071030
0000000147,0000009733,021830,066740,021708,080597,067105,023453,082656,071721,082864,071819
0000000148,0000009800,021711,067505,021590,079842,067872,023372,081903,072506,082117,072602
0000000149,0000009867,021623,068258,021502,079067,068625,023324,081130,073278,081352,073370
0000000150,0000009933,021552,069004,021431,078283,069372,023292,080350,074042,080577,074131
0000000151,0000010000,021496,069743,021375,077491,070112,023277,079560,074798,079795,074884
0000000152,0000010067,021472,070467,021352,076682,070836,023295,078754,075537,078996,075620
0000000153,0000010133,021464,071183,021344,075865,071553,023328,077941,076268,078189,076348
0000000154,0000010200,021471,071891,021352,075041,072262,023379,077120,076991,077375,077067
0000000155,0000010267,021510,072582,021391,074202,072954,023462,076286,077694,076547,077768
0000000156,0000010333,021566,073265,021447,073356,073637,023561,075445,078388,075713,078458
0000000157,0000010400,021637,073938,021518,072504,074311,023677,074597,079073,074872,079139
0000000158,0000010467,021739,074593,021621,071640,074966,023825,073739,079736,074020,079800
0000000159,0000010533,021857,075237,021740,070770,075611,023989,072875,080389,073163,080450
0000000160,0000010600,021991,075872,021875,069895,076246,024169,072005,081032,072301,081089
0000000161,0000010667,022157,076486,022041,069011,076861,024381,071127,081652,071429,081706
0000000162,0000010733,022337,077090,022222,068122,077465,024609,070245,082260,070554,082312
0000000163,0000010800,022533,077683,022419,067229,078057,024853,069359,082857,069675,082906
0000000164,0000010867,022760,078253,022647,066330,078628,025128,068467,083430,068789,083476
0000000165,0000010933,023002,078812,022889,065427,079187,025418,067571,083990,067901,084033
0000000166,0000011000,023260,079359,023147,064522,079734,025724,066674,084538,067009,084578
0000000167,0000011067,023547,079882,023436,063612,080257,026060,065772,085060,066114,085097
0000000168,0000011133,023849,080393,023739,062701,080768,026412,064869,085569,065218,085604
0000000169,0000011200,024166,080892,024056,061788,081266,026778,063964,086065,064320,086097
0000000170,0000011267,024512,081365,024403,060873,081739,027174,063058,086533,063420,086563
0000000171,0000011333,024872,081825,024765,059958,082199,027584,062152,086988,062521,087015
0000000172,0000011400,025247,082272,025140,059043,082646,028009,061246,087429,061621,087454
0000000173,0000011467,025650,082693,025544,058128,083066,028462,060341,087842,060723,087864
0000000174,0000011533,026066,083100,025962,057215,083472,028929,059437,088240,059825,088259
0000000175,0000011600,026497,083493,026393,056303,083865,029410,058535,088623,058929,088640
0000000176,0000011667,026954,083858,026852,055394,084230,029917,057636,088977,058037,088992
0000000177,0000011733,027424,084209,027323,054487,084580,030438,056740,089316,057146,089329
0000000178,0000011800,027908,084546,027808,053582,084916,030972,055846,089641,056259,089651
0000000179,0000011867,028417,084854,028319,052684,085223,031531,054958,089934,055377,089942
0000000180,0000011933,028939,085147,028841,051789,085516,032103,054075,090212,054499,090218
0000000181,0000012000,029473,085426,029377,050898,085794,032687,053194,090475,053625,090479
0000000182,0000012067,030031,085675,029936,050015,086042,033295,052323,090706,052760,090708
0000000183,0000012133,030601,085909,030508,049138,086275,033914,051457,090922,051899,090922
0000000184,0000012200,031183,086128,031090,048265,086493,034545,050596,091121,051043,091120
0000000185,0000012267,031787,086317,031696,047403,086681,035198,049746,091289,050199,091286
0000000186,0000012333,032402,086490,032312,046547,086853,035862,048902,091441,049360,091436
0000000187,0000012400,033027,086648,032939,045697,087010,036536,048064,091577,048528,091570
0000000188,0000012467,033674,086776,033587,044861,087135,037230,047241,091680,047709,091672
0000000189,0000012533,034330,086887,034245,044032,087246,037934,046424,091767,046898,091758
0000000190,0000012600,034997,086983,034913,043210,087341,038648,045615,091838,046093,091827
0000000191,0000012667,035682,087048,035600,042404,087404,039380,044822,091877,045305,091865
0000000192,0000012733,036376,087098,036295,041607,087452,040120,044037,091899,044525,091885
0000000193,0000012800,037080,087131,037000,040818,087484,040869,043261,091905,043753,091890
0000000194,0000012867,037800,087134,037722,040047,087485,041635,042503,091878,043000,091862
0000000195,0000012933,038528,087120,038451,039285,087470,042407,041755,091834,042256,091818
0000000196,0000013000,039264,087092,039189,038534,087440,043187,041016,091775,041521,091757
0000000197,0000013067,040015,087031,039941,037802,087378,043982,040298,091683,040807,091664
0000000198,0000013133,040773,086956,040701,037081,087300,044782,039590,091575,040103,091555
0000000199,0000013200,041537,086864,041467,036371,087207,045589,038893,091450,039410,091430
0000000200,0000013267,042315,086742,042246,035683,087083,046408,038219,091294,038739,091273
0000000201,0000013333,043098,086604,043031,035006,086943,047231,037555,091121,038079,091100
0000000202,0000013400,043887,086451,043821,034341,086788,048060,036904,090933,037431,090911
0000000203,0000013467,044686,086267,044622,033700,086602,048899,036277,090712,036807,090690
