DIgSILENT PowerFactory,20000410,2000
10,10A,00D
1,LC684-652A:Phase Voltage A/Terminal i,,,kV,0.00010000000,-6.069643,0.000000,21361,99998,1,1,P
2,LC684-652A:Phase Voltage C/Terminal i,,,kV,0.00010000000,-5.330599,0.000000,17519,99998,1,1,P
3,LC692-675:Phase Voltage A/Terminal i,,,kV,0.00010000000,-6.112811,0.000000,22273,99998,1,1,P
4,LC692-675:Phase Voltage B/Terminal i,,,kV,0.00010000000,-5.860902,0.000000,10154,99998,1,1,P
5,LC692-675:Phase Voltage C/Terminal i,,,kV,0.00010000000,-5.375106,0.000000,18024,99998,1,1,P
6,LOHL632-633:Phase Voltage A/Terminal i,,,kV,0.00010000000,-6.322987,0.000000,26511,99998,1,1,P
7,LOHL632-633:Phase Voltage B/Terminal i,,,kV,0.00010000000,-6.160406,0.000000,18438,99998,1,1,P
8,LOHL632-633:Phase Voltage C/Terminal i,,,kV,0.00010000000,-5.758774,0.000000,22036,99998,1,1,P
9,LOHL645-646:Phase Voltage B/Terminal i,,,kV,0.00010000000,-6.186787,0.000000,18994,99998,1,1,P
10,LOHL645-646:Phase Voltage C/Terminal i,,,kV,0.00010000000,-5.773573,0.000000,22292,99998,1,1,P
50
1
15000.000000,3001
11/11/2020,18:42:45.000000
11/11/2020,18:42:45.000000
ASCII
1.000000
0000000001,0000000000,086822,057750,087311,025616,058143,091250,029108,061057,029571,061147
0000000002,0000000067,087336,056925,087825,026019,057316,091746,029516,060194,029974,060287
0000000003,0000000133,087837,056098,088327,026438,056487,092229,029939,059331,030392,059426
0000000004,0000000200,088326,055270,088816,026871,055657,092699,030377,058466,030826,058565
0000000005,0000000267,088788,054440,089279,027335,054825,093140,030845,057600,031289,057702
0000000006,0000000333,089237,053610,089728,027814,053993,093568,031328,056735,031766,056839
0000000007,0000000400,089672,052779,090164,028307,053161,093981,031824,055870,032257,055977
0000000008,0000000467,090080,051949,090572,028829,052329,094365,032349,055006,032777,055117
0000000009,0000000533,090474,051120,090967,029365,051498,094734,032888,054144,033310,054258
0000000010,0000000600,090854,050291,091347,029915,050668,095088,033440,053283,033857,053400
0000000011,0000000667,091205,049466,091699,030492,049841,095412,034020,052426,034431,052547
0000000012,0000000733,091542,048642,092036,031082,049016,095721,034612,051572,035017,051696
0000000013,0000000800,091865,047821,092359,031686,048193,096014,035216,050721,035616,050848
0000000014,0000000867,092158,047004,092652,032315,047375,096277,035846,049876,036240,050006
0000000015,0000000933,092436,046191,092930,032956,046560,096523,036488,049035,036876,049168
0000000016,0000001000,092698,045381,093193,033609,045749,096754,037142,048198,037524,048334
0000000017,0000001067,092931,044578,093426,034287,044945,096954,037820,047369,038195,047509
0000000018,0000001133,093149,043780,093643,034975,044145,097137,038508,046546,038877,046689
0000000019,0000001200,093350,042986,093845,035675,043350,097304,039207,045728,039570,045874
0000000020,0000001267,093522,042202,094016,036397,042565,097439,039928,044921,040284,045070
0000000021,0000001333,093677,041423,094172,037129,041785,097558,040659,044120,041009,044272
0000000022,0000001400,093817,040650,094311,037871,041010,097660,041400,043325,041743,043481
0000000023,0000001467,093926,039889,094420,038633,040248,097730,042160,042544,042497,042703
0000000024,0000001533,094018,039134,094512,039405,039492,097784,042929,041770,043259,041932
0000000025,0000001600,094095,038386,094589,040185,038743,097821,043707,041003,044030,041169
0000000026,0000001667,094141,037652,094634,040983,038008,097825,044502,040253,044819,040422
0000000027,0000001733,094170,036925,094663,041789,037281,097813,045305,039510,045615,039682
0000000028,0000001800,094183,036206,094677,042604,036561,097785,046115,038776,046419,038951
0000000029,0000001867,094166,035504,094658,043433,035858,097723,046941,038060,047238,038238
0000000030,0000001933,094131,034809,094624,044270,035163,097646,047773,037353,048064,037535
0000000031,0000002000,094081,034124,094573,045114,034477,097552,048612,036656,048896,036840
0000000032,0000002067,094000,033457,094491,045970,033809,097425,049464,035978,049740,036166
0000000033,0000002133,093903,032799,094393,046832,033151,097283,050321,035311,050591,035502
0000000034,0000002200,093789,032151,094279,047700,032502,097124,051183,034654,051446,034848
0000000035,0000002267,093645,031522,094134,048579,031874,096933,052056,034019,052312,034216
0000000036,0000002333,093485,030905,093974,049461,031256,096726,052932,033396,053182,033596
0000000037,0000002400,093309,030297,093797,050349,030648,096504,053813,032783,054056,032986
0000000038,0000002467,093103,029712,093590,051244,030063,096249,054702,032194,054938,032400
0000000039,0000002533,092881,029138,093368,052143,029488,095979,055593,031618,055822,031826
0000000040,0000002600,092644,028575,093130,053044,028926,095694,056488,031053,056710,031265
0000000041,0000002667,092377,028036,092862,053951,028386,095378,057387,030514,057603,030728
0000000042,0000002733,092094,027508,092578,054860,027859,095046,058288,029987,058497,030204
0000000043,0000002800,091797,026993,092280,055771,027344,094700,059191,029474,059393,029694
0000000044,0000002867,091470,026503,091953,056685,026854,094324,060096,028987,060292,029209
0000000045,0000002933,091129,026026,091611,057599,026377,093933,061002,028514,061191,028739
0000000046,0000003000,090773,025561,091254,058514,025913,093527,061908,028054,062090,028282
0000000047,0000003067,090389,025123,090869,059429,025475,093093,062814,027623,062990,027853
0000000048,0000003133,089991,024698,090470,060344,025050,092645,063719,027205,063888,027438
0000000049,0000003200,089579,024287,090057,061258,024639,092183,064623,026802,064786,027038
0000000050,0000003267,089140,023903,089616,062169,024256,091693,065524,026429,065681,026666
0000000051,0000003333,088687,023533,089162,063079,023887,091190,066424,026070,066575,026310
0000000052,0000003400,088221,023177,088695,063986,023532,090673,067321,025726,067466,025968
0000000053,0000003467,087729,022850,088202,064888,023205,090131,068213,025412,068351,025656
0000000054,0000003533,087224,022537,087696,065788,022893,089576,069101,025113,069234,025360
0000000055,0000003600,086706,022239,087177,066684,022596,089008,069986,024830,070113,025079
0000000056,0000003667,086164,021970,086633,067572,022328,088416,070863,024578,070984,024828
0000000057,0000003733,085610,021716,086078,068456,022075,087812,071736,024341,071851,024594
0000000058,0000003800,085044,021477,085511,069336,021837,087197,072604,024120,072714,024375
0000000059,0000003867,084455,021268,084920,070205,021629,086558,073462,023931,073566,024188
0000000060,0000003933,083855,021075,084319,071069,021436,085909,074313,023758,074412,024016
0000000061,0000004000,083243,020896,083706,071927,021259,085249,075159,023601,075253,023861
0000000062,0000004067,082611,020748,083072,072772,021113,084568,075992,023476,076081,023737
0000000063,0000004133,081968,020616,082427,073611,020981,083877,076819,023367,076902,023630
0000000064,0000004200,081314,020499,081773,074442,020866,083176,077638,023275,077716,023539
0000000065,0000004267,080642,020414,081098,075259,020782,082456,078442,023214,078515,023480
0000000066,0000004333,079959,020343,080415,076067,020713,081728,079237,023171,079306,023438
0000000067,0000004400,079268,020289,079722,076868,020660,080990,080025,023143,080089,023412
0000000068,0000004467,078559,020266,079012,077651,020638,080235,080795,023148,080854,023418
0000000069,0000004533,077842,020258,078293,078425,020632,079473,081556,023170,081611,023440
0000000070,0000004600,077116,020266,077566,079190,020642,078703,082308,023208,082358,023479
0000000071,0000004667,076375,020305,076823,079935,020683,077917,083040,023278,083086,023550
0000000072,0000004733,075627,020360,076073,080670,020739,077126,083762,023364,083804,023638
0000000073,0000004800,074871,020431,075316,081395,020811,076327,084473,023467,084512,023741
0000000074,0000004867,074102,020533,074545,082098,020915,075516,085163,023602,085198,023877
0000000075,0000004933,073327,020650,073768,082790,021034,074700,085841,023754,085872,024029
0000000076,0000005000,072546,020783,072986,083470,021168,073878,086508,023921,086536,024197
0000000077,0000005067,071753,020946,072191,084127,021334,073045,087152,024120,087176,024396
0000000078,0000005133,070955,021125,071392,084772,021515,072208,087783,024335,087804,024612
0000000079,0000005200,070153,021319,070588,085405,021711,071367,088402,024566,088420,024843
0000000080,0000005267,069341,021543,069775,086012,021937,070518,088995,024828,089011,025105
0000000081,0000005333,068525,021783,068957,086606,022178,069666,089576,025105,089589,025383
0000000082,0000005400,067706,022037,068136,087186,022435,068811,090143,025398,090154,025676
0000000083,0000005467,066880,022321,067309,087740,022721,067950,090683,025722,090692,025999
0000000084,0000005533,066051,022620,066478,088280,023022,067088,091210,026060,091216,026337
0000000085,0000005600,065219,022933,065645,088806,023337,066223,091722,026414,091726,026691
0000000086,0000005667,064383,023275,064808,089303,023681,065355,092206,026797,092208,027073
0000000087,0000005733,063546,023631,063969,089786,024040,064487,092675,027194,092676,027471
0000000088,0000005800,062707,024001,063128,090253,024412,063618,093130,027606,093129,027882
0000000089,0000005867,061866,024400,062286,090691,024812,062748,093555,028046,093553,028322
0000000090,0000005933,061025,024811,061443,091114,025226,061879,093964,028501,093961,028776
0000000091,0000006000,060184,025236,060600,091521,025654,061011,094359,028969,094354,029243
0000000092,0000006067,059343,025688,059758,091897,026108,060144,094722,029464,094717,029738
0000000093,0000006133,058502,026153,058916,092258,026575,059279,095070,029973,095064,030245
0000000094,0000006200,057663,026631,058075,092602,027055,058416,095401,030495,095395,030766
0000000095,0000006267,056827,027134,057237,092914,027561,057558,095701,031042,095694,031313
0000000096,0000006333,055992,027649,056401,093210,028078,056702,095985,031602,095978,031871
0000000097,0000006400,055160,028177,055567,093490,028608,055849,096252,032174,096245,032443
0000000098,0000006467,054332,028729,054739,093736,029162,055003,096486,032770,096480,033038
0000000099,0000006533,053508,029291,053913,093966,029728,054161,096704,033378,096698,033644
0000000100,0000006600,052688,029866,053091,094179,030304,053324,096905,033998,096900,034263
0000000101,0000006667,051874,030463,052276,094359,030903,052495,097073,034640,097068,034903
0000000102,0000006733,051066,031070,051466,094521,031513,051672,097224,035293,097220,035554
0000000103,0000006800,050261,031688,050660,094667,032134,050854,097359,035956,097355,036216
0000000104,0000006867,049467,032327,049864,094778,032774,050048,097459,036640,097457,036898
0000000105,0000006933,048677,032975,049074,094872,033425,049249,097542,037333,097542,037590
0000000106,0000007000,047894,033633,048289,094949,034086,048456,097609,038037,097610,038292
0000000107,0000007067,047122,034310,047516,094992,034765,047676,097641,038759,097644,039012
0000000108,0000007133,046358,034995,046750,095017,035453,046905,097656,039489,097661,039740
0000000109,0000007200,045599,035690,045991,095026,036149,046141,097654,040229,097661,040478
0000000110,0000007267,044855,036401,045246,094999,036863,045393,097618,040985,097627,041231
0000000111,0000007333,044119,037120,044508,094956,037584,044654,097565,041748,097576,041993
0000000112,0000007400,043391,037847,043778,094895,038313,043923,097495,042519,097509,042762
0000000113,0000007467,042678,038588,043065,094800,039057,043211,097391,043305,097407,043545
0000000114,0000007533,041975,039336,042361,094688,039807,042508,097270,044097,097289,044335
0000000115,0000007600,041280,040091,041665,094558,040565,041815,097132,044896,097154,045131
0000000116,0000007667,040604,040859,040987,094395,041335,041142,096960,045706,096985,045939
0000000117,0000007733,039937,041632,040320,094214,042110,040480,096772,046522,096800,046753
0000000118,0000007800,039280,042411,039662,094017,042891,039829,096567,047344,096599,047572
0000000119,0000007867,038644,043200,039024,093786,043683,039199,096328,048175,096364,048401
0000000120,0000007933,038017,043994,038397,093539,044479,038582,096074,049011,096113,049234
0000000121,0000008000,037402,044792,037781,093275,045279,037975,095803,049850,095846,050071
0000000122,0000008067,036809,045599,037187,092978,046088,037393,095499,050698,095547,050915
0000000123,0000008133,036227,046409,036604,092665,046900,036823,095180,051548,095231,051762
0000000124,0000008200,035656,047222,036033,092335,047716,036266,094845,052401,094900,052613
0000000125,0000008267,035109,048042,035485,091974,048537,035734,094478,053259,094538,053468
0000000126,0000008333,034575,048863,034950,091597,049360,035215,094095,054119,094160,054325
0000000127,0000008400,034053,049687,034427,091204,050186,034709,093697,054981,093767,055184
0000000128,0000008467,033556,050514,033929,090781,051015,034230,093269,055845,093343,056046
0000000129,0000008533,033072,051343,033445,090342,051846,033766,092826,056710,092905,056907
0000000130,0000008600,032601,052172,032973,089888,052677,033315,092368,057576,092452,057770
0000000131,0000008667,032156,053003,032528,089404,053510,032892,091881,058441,091970,058633
0000000132,0000008733,031725,053833,032097,088906,054342,032484,091379,059306,091474,059494
0000000133,0000008800,031308,054664,031679,088394,055174,032090,090864,060171,090963,060356
0000000134,0000008867,030919,055493,031289,087853,056005,031726,090320,061033,090425,061214
0000000135,0000008933,030543,056321,030914,087299,056835,031377,089763,061893,089874,062071
0000000136,0000009000,030183,057148,030552,086731,057663,031042,089193,062751,089309,062926
0000000137,0000009067,029850,057971,030220,086136,058488,030739,088597,063604,088719,063777
0000000138,0000009133,029533,058792,029902,085528,059310,030451,087987,064454,088116,064624
0000000139,0000009200,029230,059610,029599,084907,060130,030178,087366,065302,087500,065468
0000000140,0000009267,028957,060422,029326,084262,060943,029936,086720,066142,086860,066304
0000000141,0000009333,028699,061231,029068,083604,061754,029711,086062,066977,086208,067137
0000000142,0000009400,028457,062036,028825,082935,062560,029501,085392,067809,085544,067965
0000000143,0000009467,028244,062833,028613,082242,063358,029323,084700,068630,084858,068784
0000000144,0000009533,028048,063625,028416,081539,064152,029161,083997,069447,084162,069597
0000000145,0000009600,027866,064413,028235,080824,064940,029015,083283,070258,083454,070404
0000000146,0000009667,027716,065190,028085,080089,065719,028902,082549,071057,082727,071200
0000000147,0000009733,027581,065961,027950,079343,066491,028805,081805,071849,081989,071989
0000000148,0000009800,027462,066726,027832,078587,067257,028724,081051,072635,081242,072771
0000000149,0000009867,027375,067479,027744,077813,068011,028676,080279,073406,080476,073540
0000000150,0000009933,027303,068225,027673,077029,068757,028645,079498,074170,079702,074300
0000000151,0000010000,027248,068963,027617,076237,069497,028630,078709,074926,078919,075053
0000000152,0000010067,027223,069688,027593,075428,070222,028647,077903,075666,078120,075790
0000000153,0000010133,027215,070404,027586,074611,070939,028681,077090,076397,077314,076517
0000000154,0000010200,027223,071112,027594,073786,071648,028731,076269,077119,076500,077236
0000000155,0000010267,027262,071803,027633,072947,072340,028814,075434,077823,075672,077937
0000000156,0000010333,027317,072485,027689,072102,073022,028914,074593,078517,074837,078628
0000000157,0000010400,027388,073159,027760,071250,073696,029029,073746,079201,073997,079309
0000000158,0000010467,027491,073813,027863,070385,074352,029177,072887,079865,073145,079970
0000000159,0000010533,027609,074458,027982,069516,074997,029341,072023,080518,072288,080620
0000000160,0000010600,027743,075093,028117,068641,075632,029521,071154,081160,071425,081259
0000000161,0000010667,027908,075707,028283,067756,076246,029734,070276,081780,070554,081876
0000000162,0000010733,028089,076311,028464,066868,076850,029962,069394,082388,069679,082481
0000000163,0000010800,028285,076903,028661,065975,077443,030205,068508,082985,068799,083075
0000000164,0000010867,028512,077474,028888,065076,078014,030480,067615,083558,067914,083645
0000000165,0000010933,028754,078033,029131,064173,078572,030771,066720,084118,067025,084202
0000000166,0000011000,029011,078580,029389,063268,079120,031077,065822,084666,066134,084747
0000000167,0000011067,029298,079103,029678,062358,079643,031413,064920,085188,065239,085267
0000000168,0000011133,029600,079614,029980,061447,080154,031764,064017,085697,064342,085773
0000000169,0000011200,029917,080113,030298,060534,080652,032131,063113,086193,063444,086266
0000000170,0000011267,030263,080586,030645,059619,081125,032527,062207,086662,062545,086732
0000000171,0000011333,030624,081046,031007,058704,081585,032937,061301,087117,061645,087185
0000000172,0000011400,030998,081493,031382,057789,082032,033362,060394,087557,060746,087623
0000000173,0000011467,031401,081914,031786,056874,082452,033815,059490,087970,059847,088033
0000000174,0000011533,031818,082320,032204,055961,082858,034281,058586,088368,058950,088429
0000000175,0000011600,032248,082713,032635,055048,083250,034762,057683,088752,058054,088810
0000000176,0000011667,032706,083079,033094,054139,083615,035270,056784,089106,057161,089162
0000000177,0000011733,033176,083430,033565,053233,083966,035790,055888,089445,056271,089499
0000000178,0000011800,033660,083767,034050,052328,084302,036324,054994,089769,055383,089820
0000000179,0000011867,034169,084075,034561,051430,084609,036884,054107,090062,054502,090112
0000000180,0000011933,034690,084368,035083,050535,084902,037455,053223,090340,053624,090388
0000000181,0000012000,035225,084647,035619,049644,085179,038039,052343,090603,052750,090648
0000000182,0000012067,035783,084896,036178,048761,085428,038647,051472,090835,051884,090878
0000000183,0000012133,036353,085130,036750,047884,085661,039267,050606,091050,051024,091092
0000000184,0000012200,036934,085349,037332,047011,085879,039898,049744,091250,050168,091289
0000000185,0000012267,037538,085538,037938,046149,086066,040551,048894,091418,049323,091456
0000000186,0000012333,038153,085711,038554,045293,086238,041214,048051,091569,048485,091606
0000000187,0000012400,038779,085869,039181,044443,086395,041888,047213,091705,047653,091740
0000000188,0000012467,039426,085996,039829,043607,086521,042583,046389,091809,046834,091842
0000000189,0000012533,040082,086108,040487,042778,086631,043287,045573,091896,046022,091927
0000000190,0000012600,040748,086204,041155,041956,086726,044001,044763,091967,045218,091997
0000000191,0000012667,041434,086269,041842,041150,086790,044732,043970,092005,044430,092034
0000000192,0000012733,042128,086318,042537,040353,086838,045473,043186,092027,043650,092055
0000000193,0000012800,042831,086352,043242,039564,086870,046222,042410,092033,042878,092059
0000000194,0000012867,043551,086355,043964,038793,086871,046987,041652,092006,042124,092031
0000000195,0000012933,044279,086341,044693,038031,086856,047760,040903,091963,041380,091987
0000000196,0000013000,045015,086312,045431,037280,086825,048540,040165,091903,040646,091927
0000000197,0000013067,045766,086252,046183,036548,086763,049334,039446,091811,039932,091834
0000000198,0000013133,046524,086176,046943,035827,086686,050135,038739,091703,039228,091725
0000000199,0000013200,047289,086085,047709,035117,086593,050942,038042,091579,038535,091600
0000000200,0000013267,048066,085963,048488,034428,086468,051760,037367,091422,037863,091443
0000000201,0000013333,048849,085825,049273,033752,086329,052584,036704,091250,037204,091270
0000000202,0000013400,049638,085671,050063,033087,086174,053413,036053,091061,036556,091081
0000000203,0000013467,050438,085487,050864,032446,085988,054251,035425,090841,035932,090860
