DIgSILENT PowerFactory,20000410,2000
10,10A,00D
1,LC684-652A:Phase Voltage A/Terminal i,,,kV,0.00010000000,-6.221894,0.000000,13040,99998,1,1,P
2,LC684-652A:Phase Voltage C/Terminal i,,,kV,0.00010000000,-4.652228,0.000000,10217,99998,1,1,P
3,LC692-675:Phase Voltage A/Terminal i,,,kV,0.00010000000,-6.214790,0.000000,12730,99998,1,1,P
4,LC692-675:Phase Voltage B/Terminal i,,,kV,0.00010000000,-5.594594,0.000000,8218,99998,1,1,P
5,LC692-675:Phase Voltage C/Terminal i,,,kV,0.00010000000,-4.708422,0.000000,10800,99998,1,1,P
6,LOHL632-633:Phase Voltage A/Terminal i,,,kV,0.00010000000,-6.374723,0.000000,16800,99998,1,1,P
7,LOHL632-633:Phase Voltage B/Terminal i,,,kV,0.00010000000,-5.745348,0.000000,15091,99998,1,1,P
8,LOHL632-633:Phase Voltage C/Terminal i,,,kV,0.00010000000,-5.372726,0.000000,17793,99998,1,1,P
9,LOHL645-646:Phase Voltage B/Terminal i,,,kV,0.00010000000,-5.774027,0.000000,15652,99998,1,1,P
10,LOHL645-646:Phase Voltage C/Terminal i,,,kV,0.00010000000,-5.387459,0.000000,18054,99998,1,1,P
50
1
15000.000000,3001
11/11/2020,17:48:36.000000
11/11/2020,17:48:36.000000
ASCII
1.000000
0000000001,0000000000,088345,050966,088331,022953,051476,091767,024957,057197,025443,057286
0000000002,0000000067,088859,050141,088845,023356,050649,092264,025365,056334,025846,056426
0000000003,0000000133,089360,049314,089347,023774,049820,092747,025788,055470,026265,055565
0000000004,0000000200,089848,048486,089836,024208,048990,093216,026227,054605,026698,054703
0000000005,0000000267,090310,047656,090299,024672,048159,093658,026695,053740,027161,053841
0000000006,0000000333,090759,046826,090748,025151,047326,094085,027177,052874,027638,052978
0000000007,0000000400,091195,045996,091184,025644,046494,094498,027674,052009,028130,052116
0000000008,0000000467,091603,045165,091592,026166,045662,094882,028199,051145,028650,051256
0000000009,0000000533,091997,044336,091986,026702,044831,095251,028737,050283,029183,050397
0000000010,0000000600,092376,043508,092367,027252,044001,095605,029290,049422,029730,049539
0000000011,0000000667,092728,042682,092719,027829,043174,095929,029869,048566,030303,048685
0000000012,0000000733,093065,041859,093056,028419,042349,096238,030461,047712,030889,047835
0000000013,0000000800,093387,041037,093378,029023,041526,096532,031066,046860,031488,046986
0000000014,0000000867,093680,040221,093672,029652,040708,096794,031696,046015,032112,046145
0000000015,0000000933,093958,039407,093950,030293,039893,097041,032338,045174,032748,045307
0000000016,0000001000,094221,038597,094213,030946,039082,097272,032992,044337,033396,044473
0000000017,0000001067,094454,037795,094446,031624,038278,097471,033669,043509,034067,043648
0000000018,0000001133,094671,036996,094663,032312,037478,097654,034357,042685,034749,042828
0000000019,0000001200,094873,036203,094865,033012,036683,097822,035057,041867,035443,042013
0000000020,0000001267,095044,035418,095036,033734,035898,097957,035777,041060,036157,041209
0000000021,0000001333,095200,034640,095192,034466,035118,098075,036508,040259,036881,040411
0000000022,0000001400,095340,033866,095331,035208,034344,098178,037249,039465,037615,039620
0000000023,0000001467,095448,033105,095440,035970,033581,098248,038009,038683,038369,038842
0000000024,0000001533,095541,032350,095532,036741,032825,098301,038778,037910,039131,038071
0000000025,0000001600,095618,031602,095609,037522,032076,098338,039556,037143,039903,037308
0000000026,0000001667,095663,030868,095654,038320,031341,098342,040351,036392,040691,036560
0000000027,0000001733,095693,030141,095683,039126,030614,098330,041154,035650,041487,035821
0000000028,0000001800,095706,029423,095696,039941,029894,098302,041965,034916,042292,035090
0000000029,0000001867,095688,028720,095678,040770,029191,098241,042790,034199,043110,034377
0000000030,0000001933,095654,028026,095643,041607,028496,098163,043623,033493,043936,033674
0000000031,0000002000,095604,027340,095593,042451,027810,098069,044462,032795,044768,032979
0000000032,0000002067,095522,026673,095511,043307,027142,097943,045313,032118,045613,032305
0000000033,0000002133,095425,026015,095413,044169,026484,097800,046170,031451,046463,031641
0000000034,0000002200,095312,025367,095299,045037,025835,097641,047033,030794,047319,030987
0000000035,0000002267,095167,024739,095154,045916,025207,097450,047905,030159,048184,030355
0000000036,0000002333,095007,024121,094994,046798,024589,097244,048782,029535,049054,029734
0000000037,0000002400,094832,023514,094817,047686,023981,097021,049663,028923,049928,029125
0000000038,0000002467,094625,022928,094610,048581,023396,096767,050551,028334,050810,028539
0000000039,0000002533,094403,022354,094387,049479,022821,096497,051442,027757,051695,027965
0000000040,0000002600,094166,021791,094150,050381,022259,096211,052337,027192,052582,027403
0000000041,0000002667,093899,021252,093881,051288,021719,095895,053236,026653,053475,026867
0000000042,0000002733,093617,020725,093598,052197,021192,095564,054137,026127,054369,026343
0000000043,0000002800,093319,020210,093300,053108,020677,095217,055040,025613,055266,025832
0000000044,0000002867,092993,019719,092972,054022,020187,094841,055945,025126,056164,025348
0000000045,0000002933,092652,019242,092630,054936,019710,094450,056851,024653,057063,024878
0000000046,0000003000,092296,018778,092274,055851,019246,094045,057757,024194,057963,024421
0000000047,0000003067,091912,018339,091889,056766,018808,093610,058663,023762,058862,023992
0000000048,0000003133,091514,017914,091489,057681,018383,093162,059568,023345,059761,023577
0000000049,0000003200,091102,017503,091076,058595,017973,092700,060472,022942,060659,023176
0000000050,0000003267,090662,017119,090636,059506,017589,092210,061374,022568,061554,022805
0000000051,0000003333,090210,016749,090182,060415,017220,091707,062273,022209,062447,022449
0000000052,0000003400,089743,016394,089715,061323,016865,091191,063170,021865,063338,022107
0000000053,0000003467,089251,016066,089221,062225,016538,090648,064062,021551,064224,021795
0000000054,0000003533,088746,015753,088715,063125,016226,090093,064950,021253,065106,021499
0000000055,0000003600,088229,015455,088197,064021,015929,089526,065836,020969,065985,021217
0000000056,0000003667,087687,015186,087653,064909,015661,088934,066713,020717,066857,020967
0000000057,0000003733,087133,014932,087098,065793,015408,088330,067585,020481,067724,020733
0000000058,0000003800,086567,014693,086530,066673,015170,087714,068453,020260,068586,020514
0000000059,0000003867,085977,014484,085940,067542,014962,087076,069311,020071,069438,020326
0000000060,0000003933,085377,014291,085338,068406,014769,086427,070163,019898,070284,020155
0000000061,0000004000,084766,014112,084726,069264,014592,085766,071009,019740,071125,019999
0000000062,0000004067,084133,013965,084091,070109,014446,085085,071842,019615,071953,019876
0000000063,0000004133,083490,013832,083447,070948,014315,084394,072668,019507,072774,019769
0000000064,0000004200,082837,013716,082792,071779,014199,083694,073487,019414,073588,019678
0000000065,0000004267,082164,013630,082118,072596,014115,082974,074291,019354,074387,019619
0000000066,0000004333,081482,013560,081435,073404,014046,082245,075087,019310,075178,019577
0000000067,0000004400,080791,013505,080742,074205,013993,081507,075875,019283,075961,019550
0000000068,0000004467,080082,013482,080031,074988,013971,080753,076645,019288,076727,019557
0000000069,0000004533,079364,013474,079313,075762,013965,079990,077406,019309,077483,019579
0000000070,0000004600,078639,013482,078585,076527,013975,079220,078157,019347,078231,019618
0000000071,0000004667,077898,013522,077843,077272,014016,078435,078889,019417,078959,019689
0000000072,0000004733,077149,013577,077093,078007,014072,077643,079611,019504,079676,019777
0000000073,0000004800,076394,013647,076336,078732,014145,076845,080322,019607,080384,019880
0000000074,0000004867,075625,013749,075565,079435,014248,076034,081012,019742,081070,020016
0000000075,0000004933,074849,013866,074788,080127,014367,075217,081691,019893,081745,020168
0000000076,0000005000,074068,013999,074005,080807,014502,074395,082358,020060,082409,020336
0000000077,0000005067,073275,014162,073211,081464,014667,073563,083001,020259,083049,020535
0000000078,0000005133,072478,014341,072412,082109,014848,072726,083632,020474,083677,020751
0000000079,0000005200,071675,014535,071608,082742,015044,071885,084251,020705,084293,020982
0000000080,0000005267,070863,014760,070794,083349,015270,071036,084845,020967,084884,021244
0000000081,0000005333,070048,014999,069977,083943,015512,070184,085425,021245,085461,021521
0000000082,0000005400,069228,015253,069156,084523,015768,069328,085993,021538,086026,021814
0000000083,0000005467,068402,015537,068329,085077,016054,068468,086533,021861,086564,022138
0000000084,0000005533,067573,015836,067498,085617,016355,067605,087059,022200,087088,022476
0000000085,0000005600,066742,016149,066665,086143,016670,066740,087572,022553,087599,022830
0000000086,0000005667,065906,016491,065828,086640,017014,065873,088056,022936,088081,023212
0000000087,0000005733,065069,016847,064989,087122,017373,065004,088525,023334,088548,023609
0000000088,0000005800,064230,017218,064148,087590,017745,064135,088980,023746,089002,024021
0000000089,0000005867,063389,017616,063306,088028,018146,063266,089404,024186,089425,024461
0000000090,0000005933,062548,018027,062463,088451,018559,062397,089814,024640,089833,024915
0000000091,0000006000,061706,018453,061620,088858,018987,061528,090208,025109,090227,025382
0000000092,0000006067,060865,018905,060778,089234,019441,060662,090571,025604,090589,025877
0000000093,0000006133,060025,019369,059936,089595,019908,059797,090919,026112,090936,026384
0000000094,0000006200,059186,019847,059095,089939,020388,058934,091251,026634,091267,026905
0000000095,0000006267,058349,020350,058257,090251,020894,058075,091550,027181,091567,027451
0000000096,0000006333,057515,020866,057421,090547,021412,057219,091834,027741,091850,028010
0000000097,0000006400,056682,021393,056587,090827,021942,056366,092101,028314,092117,028581
0000000098,0000006467,055855,021945,055758,091073,022495,055520,092336,028910,092352,029176
0000000099,0000006533,055031,022508,054933,091303,023061,054679,092554,029518,092570,029783
0000000100,0000006600,054210,023082,054111,091516,023638,053841,092755,030138,092772,030401
0000000101,0000006667,053397,023679,053296,091696,024237,053013,092923,030779,092941,031042
0000000102,0000006733,052588,024286,052486,091858,024846,052190,093074,031432,093093,031693
0000000103,0000006800,051784,024904,051680,092004,025467,051372,093208,032095,093228,032355
0000000104,0000006867,050989,025543,050884,092115,026108,050566,093308,032779,093329,033037
0000000105,0000006933,050200,026191,050094,092209,026758,049766,093392,033473,093414,033729
0000000106,0000007000,049416,026849,049309,092286,027419,048973,093458,034176,093482,034430
0000000107,0000007067,048645,027526,048536,092329,028098,048194,093490,034898,093516,035150
0000000108,0000007133,047880,028212,047770,092354,028786,047422,093506,035629,093533,035879
0000000109,0000007200,047122,028906,047011,092363,029483,046658,093504,036368,093533,036617
0000000110,0000007267,046378,029617,046265,092336,030196,045910,093468,037124,093499,037370
0000000111,0000007333,045642,030336,045528,092293,030917,045171,093415,037888,093449,038132
0000000112,0000007400,044913,031063,044798,092232,031646,044440,093344,038659,093381,038901
0000000113,0000007467,044201,031804,044085,092137,032390,043728,093240,039444,093280,039684
0000000114,0000007533,043497,032552,043380,092025,033141,043025,093119,040236,093161,040474
0000000115,0000007600,042803,033307,042685,091895,033898,042332,092981,041035,093026,041270
0000000116,0000007667,042126,034075,042007,091732,034668,041660,092809,041846,092858,042078
0000000117,0000007733,041460,034848,041340,091551,035443,040997,092621,042662,092673,042892
0000000118,0000007800,040803,035627,040682,091354,036224,040346,092416,043483,092471,043711
0000000119,0000007867,040166,036416,040044,091123,037016,039717,092178,044315,092236,044540
0000000120,0000007933,039540,037210,039417,090876,037812,039099,091923,045150,091986,045372
0000000121,0000008000,038925,038009,038801,090612,038612,038493,091652,045990,091718,046210
0000000122,0000008067,038331,038815,038206,090315,039421,037910,091349,046837,091419,047054
0000000123,0000008133,037749,039625,037624,090002,040233,037341,091029,047687,091104,047901
0000000124,0000008200,037179,040439,037053,089672,041049,036783,090694,048540,090773,048752
0000000125,0000008267,036632,041258,036505,089311,041870,036251,090327,049399,090410,049607
0000000126,0000008333,036098,042080,035970,088934,042694,035732,089945,050259,090032,050464
0000000127,0000008400,035575,042903,035447,088541,043519,035226,089547,051120,089639,051323
0000000128,0000008467,035078,043731,034949,088118,044349,034748,089119,051985,089216,052184
0000000129,0000008533,034594,044559,034465,087679,045179,034283,088675,052850,088777,053046
0000000130,0000008600,034123,045389,033993,087225,046010,033832,088217,053715,088324,053909
0000000131,0000008667,033679,046219,033548,086741,046843,033409,087730,054581,087842,054771
0000000132,0000008733,033248,047050,033117,086243,047675,033001,087229,055446,087346,055633
0000000133,0000008800,032831,047880,032699,085731,048507,032607,086713,056310,086836,056495
0000000134,0000008867,032441,048709,032309,085190,049338,032243,086170,057172,086298,057353
0000000135,0000008933,032066,049537,031934,084636,050168,031894,085613,058032,085747,058210
0000000136,0000009000,031705,050364,031572,084067,050996,031560,085042,058890,085182,059065
0000000137,0000009067,031373,051187,031240,083473,051821,031256,084446,059744,084591,059915
0000000138,0000009133,031055,052008,030922,082865,052643,030968,083837,060594,083988,060763
0000000139,0000009200,030753,052826,030619,082244,053463,030695,083215,061441,083372,061607
0000000140,0000009267,030480,053639,030346,081599,054277,030454,082569,062281,082732,062443
0000000141,0000009333,030222,054447,030088,080941,055087,030228,081911,063117,082080,063276
0000000142,0000009400,029979,055252,029845,080272,055893,030018,081241,063948,081417,064104
0000000143,0000009467,029767,056049,029633,079579,056691,029840,080549,064770,080731,064922
0000000144,0000009533,029570,056842,029436,078876,057485,029678,079846,065586,080034,065735
0000000145,0000009600,029389,057629,029255,078161,058274,029533,079133,066397,079327,066543
0000000146,0000009667,029239,058406,029105,077426,059052,029419,078398,067196,078599,067339
0000000147,0000009733,029104,059177,028970,076680,059824,029322,077654,067988,077861,068128
0000000148,0000009800,028985,059943,028851,075924,060590,029242,076901,068774,077114,068910
0000000149,0000009867,028898,060695,028764,075150,061344,029194,076128,069546,076349,069679
0000000150,0000009933,028826,061441,028693,074366,062091,029162,075348,070309,075574,070439
0000000151,0000010000,028770,062180,028637,073574,062830,029147,074558,071066,074792,071192
0000000152,0000010067,028746,062904,028613,072765,063555,029164,073752,071805,073993,071929
0000000153,0000010133,028738,063620,028605,071948,064272,029198,072939,072536,073186,072656
0000000154,0000010200,028745,064328,028613,071123,064981,029249,072118,073258,072372,073375
0000000155,0000010267,028785,065019,028653,070284,065673,029332,071284,073962,071544,074076
0000000156,0000010333,028840,065702,028709,069439,066356,029431,070443,074656,070710,074767
0000000157,0000010400,028911,066375,028780,068587,067030,029547,069595,075340,069869,075448
0000000158,0000010467,029013,067030,028883,067722,067685,029695,068737,076004,069017,076109
0000000159,0000010533,029131,067674,029002,066853,068330,029859,067873,076657,068160,076758
0000000160,0000010600,029265,068309,029137,065978,068965,030039,067003,077299,067298,077398
0000000161,0000010667,029431,068924,029302,065093,069580,030251,066125,077919,066426,078015
0000000162,0000010733,029611,069527,029484,064205,070183,030479,065243,078528,065551,078620
0000000163,0000010800,029807,070120,029681,063312,070776,030723,064357,079125,064672,079214
0000000164,0000010867,030034,070690,029908,062412,071347,030998,063465,079697,063786,079784
0000000165,0000010933,030276,071249,030151,061510,071906,031288,062569,080258,062897,080341
0000000166,0000011000,030534,071796,030409,060605,072453,031594,061672,080806,062006,080886
0000000167,0000011067,030821,072319,030697,059695,072976,031930,060770,081328,061111,081406
0000000168,0000011133,031123,072830,031000,058783,073487,032282,059867,081837,060215,081912
0000000169,0000011200,031440,073329,031318,057871,073985,032648,058962,082333,059317,082405
0000000170,0000011267,031786,073802,031665,056956,074458,033044,058056,082801,058417,082871
0000000171,0000011333,032146,074262,032026,056041,074918,033454,057150,083256,057518,083324
0000000172,0000011400,032521,074709,032402,055126,075365,033879,056244,083697,056618,083762
0000000173,0000011467,032924,075130,032806,054211,075785,034332,055339,084110,055720,084172
0000000174,0000011533,033340,075537,033224,053298,076191,034799,054435,084508,054822,084568
0000000175,0000011600,033771,075930,033655,052385,076584,035279,053533,084891,053926,084949
0000000176,0000011667,034228,076295,034114,051476,076948,035787,052634,085245,053034,085301
0000000177,0000011733,034698,076646,034585,050570,077299,036308,051738,085584,052143,085637
0000000178,0000011800,035182,076983,035070,049665,077635,036842,050844,085908,051256,085959
0000000179,0000011867,035691,077291,035580,048767,077942,037401,049956,086202,050374,086251
0000000180,0000011933,036213,077585,036103,047872,078235,037973,049072,086480,049496,086527
0000000181,0000012000,036747,077863,036639,046981,078513,038557,048192,086743,048622,086787
0000000182,0000012067,037305,078112,037198,046098,078761,039165,047321,086974,047757,087017
0000000183,0000012133,037875,078346,037769,045220,078994,039784,046455,087190,046896,087230
0000000184,0000012200,038457,078565,038352,044348,079212,040415,045594,087389,046040,087428
0000000185,0000012267,039061,078754,038958,043486,079399,041068,044744,087557,045196,087594
0000000186,0000012333,039676,078927,039574,042630,079571,041732,043900,087709,044357,087745
0000000187,0000012400,040302,079085,040201,041780,079728,042406,043062,087845,043525,087879
0000000188,0000012467,040948,079213,040849,040944,079854,043100,042238,087948,042706,087981
0000000189,0000012533,041605,079324,041507,040115,079965,043804,041422,088035,041895,088066
0000000190,0000012600,042271,079420,042175,039293,080059,044518,040613,088106,041090,088136
0000000191,0000012667,042956,079485,042861,038487,080123,045250,039820,088145,040302,088173
0000000192,0000012733,043650,079535,043557,037690,080171,045990,039035,088167,039522,088194
0000000193,0000012800,044354,079568,044262,036901,080203,046739,038259,088172,038750,088198
0000000194,0000012867,045074,079571,044984,036130,080204,047504,037501,088146,037997,088170
0000000195,0000012933,045802,079558,045713,035368,080189,048277,036753,088102,037253,088126
0000000196,0000013000,046538,079529,046451,034616,080158,049057,036014,088043,036518,088066
0000000197,0000013067,047289,079468,047203,033885,080097,049851,035296,087951,035804,087973
0000000198,0000013133,048047,079393,047962,033164,080019,050652,034588,087843,035100,087864
0000000199,0000013200,048811,079301,048729,032453,079926,051459,033891,087718,034407,087739
0000000200,0000013267,049589,079179,049508,031765,079802,052277,033216,087562,033736,087582
0000000201,0000013333,050372,079041,050292,031089,079662,053101,032553,087389,033076,087408
0000000202,0000013400,051161,078888,051083,030424,079507,053930,031902,087201,032428,087219
0000000203,0000013467,051960,078704,051884,029783,079321,054769,031275,086980,031804,086999
