DIgSILENT PowerFactory,20000410,2000
10,10A,00D
1,LC684-652A:Phase Voltage A/Terminal i,,,kV,0.00010000000,-6.538862,0.000000,21678,99998,1,1,P
2,LC684-652A:Phase Voltage C/Terminal i,,,kV,0.00010000000,-5.741893,0.000000,17181,99998,1,1,P
3,LC692-675:Phase Voltage A/Terminal i,,,kV,0.00010000000,-6.530906,0.000000,21453,99998,1,1,P
4,LC692-675:Phase Voltage B/Terminal i,,,kV,0.00010000000,-5.680642,0.000000,14396,99998,1,1,P
5,LC692-675:Phase Voltage C/Terminal i,,,kV,0.00010000000,-5.756391,0.000000,17379,99998,1,1,P
6,LOHL632-633:Phase Voltage A/Terminal i,,,kV,0.00010000000,-6.445615,0.000000,23342,99998,1,1,P
7,LOHL632-633:Phase Voltage B/Terminal i,,,kV,0.00010000000,-6.104448,0.000000,22195,99998,1,1,P
8,LOHL632-633:Phase Voltage C/Terminal i,,,kV,0.00010000000,-5.988224,0.000000,21855,99998,1,1,P
9,LOHL645-646:Phase Voltage B/Terminal i,,,kV,0.00010000000,-6.130091,0.000000,22716,99998,1,1,P
10,LOHL645-646:Phase Voltage C/Terminal i,,,kV,0.00010000000,-6.001500,0.000000,22119,99998,1,1,P
50
1
15000.000000,3001
11/11/2020,18:01:52.000000
11/11/2020,18:01:52.000000
ASCII
1.000000
0000000001,0000000000,091515,061863,091492,023813,061956,092476,028548,063352,029004,063426
0000000002,0000000067,092029,061038,092006,024216,061128,092973,028956,062489,029407,062566
0000000003,0000000133,092530,060211,092508,024635,060300,093456,029379,061625,029826,061706
0000000004,0000000200,093018,059383,092997,025069,059470,093925,029818,060760,030259,060844
0000000005,0000000267,093480,058553,093460,025533,058638,094367,030286,059895,030722,059981
0000000006,0000000333,093929,057723,093909,026011,057806,094794,030768,059029,031199,059119
0000000007,0000000400,094364,056892,094345,026505,056974,095207,031265,058164,031691,058257
0000000008,0000000467,094772,056062,094753,027027,056142,095591,031790,057300,032210,057396
0000000009,0000000533,095166,055233,095148,027563,055311,095960,032328,056438,032743,056537
0000000010,0000000600,095546,054404,095528,028112,054481,096314,032881,055577,033290,055679
0000000011,0000000667,095898,053579,095880,028690,053654,096638,033460,054721,033864,054826
0000000012,0000000733,096235,052755,096217,029280,052828,096947,034052,053867,034450,053975
0000000013,0000000800,096557,051934,096540,029883,052005,097241,034657,053015,035049,053127
0000000014,0000000867,096850,051117,096833,030512,051187,097503,035287,052170,035673,052285
0000000015,0000000933,097128,050304,097111,031153,050373,097750,035929,051329,036309,051447
0000000016,0000001000,097391,049494,097374,031807,049561,097981,036583,050492,036957,050613
0000000017,0000001067,097623,048691,097607,032484,048757,098180,037260,049664,037628,049788
0000000018,0000001133,097841,047893,097824,033173,047958,098363,037948,048840,038310,048968
0000000019,0000001200,098043,047099,098026,033872,047163,098530,038648,048022,039003,048153
0000000020,0000001267,098214,046315,098197,034594,046377,098665,039368,047215,039717,047349
0000000021,0000001333,098369,045536,098353,035326,045598,098784,040099,046414,040442,046552
0000000022,0000001400,098509,044763,098492,036069,044823,098887,040840,045620,041176,045760
0000000023,0000001467,098618,044002,098601,036831,044061,098956,041600,044838,041930,044982
0000000024,0000001533,098711,043247,098693,037602,043305,099010,042369,044065,042692,044212
0000000025,0000001600,098788,042499,098770,038382,042556,099047,043147,043298,043463,043448
0000000026,0000001667,098833,041765,098815,039181,041821,099051,043942,042547,044252,042701
0000000027,0000001733,098862,041038,098844,039987,041094,099039,044745,041805,045048,041962
0000000028,0000001800,098876,040319,098858,040801,040374,099011,045556,041071,045852,041231
0000000029,0000001867,098858,039616,098839,041631,039671,098950,046381,040354,046671,040518
0000000030,0000001933,098824,038922,098804,042468,038976,098872,047214,039648,047497,039814
0000000031,0000002000,098774,038237,098754,043311,038290,098778,048053,038950,048329,039120
0000000032,0000002067,098692,037569,098672,044168,037622,098652,048904,038273,049174,038445
0000000033,0000002133,098595,036912,098574,045030,036964,098509,049761,037606,050024,037781
0000000034,0000002200,098482,036263,098460,045898,036315,098350,050624,036949,050879,037127
0000000035,0000002267,098337,035635,098315,046776,035686,098159,051496,036314,051745,036496
0000000036,0000002333,098177,035018,098155,047659,035068,097953,052373,035690,052615,035875
0000000037,0000002400,098002,034410,097978,048546,034461,097730,053254,035078,053489,035265
0000000038,0000002467,097795,033825,097771,049441,033875,097476,054142,034489,054371,034679
0000000039,0000002533,097573,033251,097549,050340,033301,097206,055033,033912,055255,034106
0000000040,0000002600,097336,032688,097311,051242,032738,096920,055928,033347,056143,033544
0000000041,0000002667,097069,032149,097043,052149,032199,096604,056827,032808,057036,033007
0000000042,0000002733,096786,031621,096759,053058,031672,096273,057728,032282,057930,032484
0000000043,0000002800,096489,031106,096461,053969,031157,095926,058631,031768,058826,031973
0000000044,0000002867,096162,030616,096134,054882,030667,095550,059536,031281,059725,031489
0000000045,0000002933,095821,030139,095792,055797,030190,095159,060442,030808,060624,031018
0000000046,0000003000,095466,029674,095435,056712,029725,094754,061348,030349,061524,030561
0000000047,0000003067,095081,029236,095050,057627,029288,094319,062254,029917,062423,030132
0000000048,0000003133,094683,028811,094651,058541,028863,093871,063159,029500,063321,029717
0000000049,0000003200,094271,028400,094238,059455,028452,093409,064063,029097,064219,029317
0000000050,0000003267,093832,028016,093797,060366,028069,092919,064965,028723,065114,028946
0000000051,0000003333,093379,027646,093343,061276,027700,092416,065864,028364,066008,028589
0000000052,0000003400,092913,027290,092876,062183,027345,091900,066761,028020,066899,028247
0000000053,0000003467,092421,026963,092383,063086,027018,091357,067653,027706,067784,027935
0000000054,0000003533,091916,026650,091876,063985,026706,090802,068541,027408,068667,027639
0000000055,0000003600,091399,026352,091358,064881,026409,090235,069427,027124,069546,027358
0000000056,0000003667,090856,026083,090814,065770,026141,089643,070304,026872,070417,027108
0000000057,0000003733,090302,025829,090259,066654,025888,089039,071176,026636,071284,026873
0000000058,0000003800,089736,025590,089692,067533,025650,088423,072044,026415,072147,026654
0000000059,0000003867,089147,025381,089101,068402,025442,087785,072902,026226,072999,026467
0000000060,0000003933,088547,025187,088499,069266,025249,087136,073754,026053,073845,026295
0000000061,0000004000,087935,025009,087887,070124,025072,086475,074600,025895,074686,026140
0000000062,0000004067,087303,024861,087253,070970,024925,085794,075433,025770,075514,026017
0000000063,0000004133,086660,024729,086608,071808,024794,085103,076259,025662,076335,025909
0000000064,0000004200,086007,024612,085954,072640,024679,084402,077078,025569,077149,025818
0000000065,0000004267,085334,024526,085279,073456,024594,083683,077882,025509,077948,025760
0000000066,0000004333,084652,024456,084596,074265,024526,082954,078678,025465,078739,025717
0000000067,0000004400,083960,024402,083903,075065,024473,082216,079466,025438,079522,025691
0000000068,0000004467,083251,024379,083193,075848,024451,081462,080236,025443,080288,025697
0000000069,0000004533,082534,024371,082474,076622,024445,080699,080997,025464,081044,025720
0000000070,0000004600,081808,024379,081747,077387,024454,079929,081748,025502,081791,025758
0000000071,0000004667,081067,024418,081004,078132,024495,079144,082480,025572,082519,025830
0000000072,0000004733,080319,024473,080254,078867,024552,078352,083202,025659,083237,025917
0000000073,0000004800,079563,024544,079497,079592,024624,077553,083913,025762,083945,026021
0000000074,0000004867,078794,024645,078726,080295,024728,076743,084603,025897,084631,026156
0000000075,0000004933,078019,024763,077949,080987,024847,075926,085282,026048,085306,026308
0000000076,0000005000,077238,024895,077166,081668,024981,075104,085949,026215,085969,026476
0000000077,0000005067,076445,025059,076372,082325,025147,074271,086592,026414,086609,026676
0000000078,0000005133,075647,025238,075573,082970,025327,073435,087223,026629,087238,026891
0000000079,0000005200,074845,025432,074769,083602,025524,072594,087842,026860,087853,027122
0000000080,0000005267,074033,025656,073955,084209,025750,071745,088436,027122,088444,027384
0000000081,0000005333,073217,025896,073138,084803,025991,070893,089016,027400,089022,027662
0000000082,0000005400,072398,026150,072317,085384,026248,070037,089584,027693,089587,027955
0000000083,0000005467,071572,026434,071490,085938,026534,069177,090124,028016,090125,028278
0000000084,0000005533,070743,026733,070659,086477,026835,068314,090650,028355,090649,028617
0000000085,0000005600,069911,027046,069826,087003,027150,067449,091163,028708,091159,028970
0000000086,0000005667,069076,027388,068989,087500,027494,066582,091647,029091,091641,029353
0000000087,0000005733,068238,027744,068150,087983,027852,065713,092116,029489,092109,029750
0000000088,0000005800,067399,028114,067309,088451,028225,064844,092571,029901,092562,030161
0000000089,0000005867,066559,028512,066467,088889,028625,063975,092995,030341,092986,030601
0000000090,0000005933,065717,028924,065624,089311,029039,063106,093405,030795,093394,031055
0000000091,0000006000,064876,029349,064781,089719,029467,062237,093799,031263,093787,031522
0000000092,0000006067,064035,029801,063939,090095,029921,061371,094162,031759,094150,032017
0000000093,0000006133,063195,030266,063097,090455,030388,060506,094510,032267,094497,032525
0000000094,0000006200,062355,030744,062256,090799,030868,059642,094842,032789,094828,033046
0000000095,0000006267,061519,031247,061418,091112,031374,058784,095141,033336,095127,033592
0000000096,0000006333,060684,031762,060582,091407,031891,057928,095425,033896,095411,034151
0000000097,0000006400,059852,032290,059748,091687,032421,057075,095692,034469,095678,034722
0000000098,0000006467,059025,032841,058920,091934,032975,056229,095927,035065,095913,035317
0000000099,0000006533,058201,033404,058094,092163,033540,055388,096145,035673,096131,035924
0000000100,0000006600,057380,033979,057272,092377,034117,054550,096346,036292,096333,036542
0000000101,0000006667,056567,034576,056457,092556,034716,053722,096514,036934,096501,037182
0000000102,0000006733,055758,035183,055647,092719,035326,052899,096665,037587,096653,037833
0000000103,0000006800,054953,035801,054841,092864,035946,052081,096799,038250,096788,038495
0000000104,0000006867,054159,036440,054045,092975,036587,051275,096899,038934,096890,039177
0000000105,0000006933,053370,037088,053255,093070,037238,050475,096983,039628,096975,039869
0000000106,0000007000,052586,037746,052470,093147,037898,049682,097049,040331,097043,040571
0000000107,0000007067,051815,038423,051697,093189,038578,048903,097081,041053,097077,041291
0000000108,0000007133,051050,039108,050931,093215,039266,048131,097097,041784,097094,042020
0000000109,0000007200,050291,039803,050172,093223,039962,047367,097095,042523,097094,042757
0000000110,0000007267,049548,040514,049427,093197,040676,046619,097059,043279,097060,043511
0000000111,0000007333,048811,041233,048689,093153,041397,045880,097006,044043,097009,044272
0000000112,0000007400,048083,041959,047959,093092,042126,045149,096935,044814,096942,045041
0000000113,0000007467,047371,042701,047246,092997,042870,044437,096831,045599,096840,045824
0000000114,0000007533,046667,043449,046542,092885,043620,043734,096710,046391,096722,046614
0000000115,0000007600,045972,044204,045846,092756,044378,043041,096572,047190,096587,047410
0000000116,0000007667,045296,044972,045168,092592,045147,042368,096400,048001,096418,048219
0000000117,0000007733,044629,045745,044501,092412,045923,041706,096212,048817,096233,049032
0000000118,0000007800,043972,046524,043843,092215,046704,041055,096007,049638,096032,049851
0000000119,0000007867,043336,047313,043205,091984,047495,040426,095769,050470,095797,050680
0000000120,0000007933,042710,048107,042578,091736,048292,039808,095514,051305,095546,051513
0000000121,0000008000,042094,048905,041962,091472,049092,039202,095243,052145,095279,052350
0000000122,0000008067,041501,049712,041368,091175,049901,038619,094940,052992,094980,053194
0000000123,0000008133,040919,050522,040785,090862,050713,038049,094620,053842,094664,054042
0000000124,0000008200,040348,051335,040214,090533,051528,037492,094285,054695,094333,054892
0000000125,0000008267,039802,052155,039666,090171,052350,036960,093918,055554,093971,055747
0000000126,0000008333,039267,052976,039131,089794,053173,036441,093536,056414,093593,056605
0000000127,0000008400,038745,053800,038608,089402,053999,035935,093138,057275,093200,057463
0000000128,0000008467,038248,054627,038110,088978,054828,035457,092710,058140,092776,058325
0000000129,0000008533,037764,055456,037626,088539,055659,034992,092266,059005,092338,059187
0000000130,0000008600,037293,056285,037154,088085,056490,034541,091808,059870,091885,060049
0000000131,0000008667,036848,057116,036709,087602,057322,034118,091321,060736,091403,060912
0000000132,0000008733,036418,057946,036278,087104,058155,033710,090820,061601,090907,061774
0000000133,0000008800,036000,058777,035860,086591,058987,033316,090304,062465,090396,062635
0000000134,0000008867,035611,059606,035470,086051,059818,032952,089761,063327,089859,063494
0000000135,0000008933,035236,060434,035095,085496,060647,032603,089204,064187,089307,064351
0000000136,0000009000,034875,061261,034733,084928,061476,032269,088633,065045,088743,065206
0000000137,0000009067,034543,062084,034401,084333,062301,031965,088037,065899,088152,066056
0000000138,0000009133,034225,062905,034083,083725,063123,031677,087428,066749,087549,066903
0000000139,0000009200,033922,063723,033780,083105,063943,031404,086806,067596,086933,067747
0000000140,0000009267,033649,064535,033507,082459,064756,031163,086160,068436,086293,068584
0000000141,0000009333,033392,065344,033249,081802,065566,030937,085502,069272,085641,069416
0000000142,0000009400,033149,066149,033006,081132,066373,030727,084832,070103,084977,070244
0000000143,0000009467,032937,066946,032794,080440,067171,030549,084140,070925,084291,071063
0000000144,0000009533,032740,067738,032597,079736,067965,030387,083437,071741,083595,071876
0000000145,0000009600,032558,068526,032416,079022,068753,030242,082724,072552,082887,072683
0000000146,0000009667,032408,069303,032266,078286,069531,030128,081989,073351,082160,073479
0000000147,0000009733,032274,070074,032131,077540,070304,030031,081245,074143,081422,074268
0000000148,0000009800,032155,070839,032013,076785,071070,029951,080492,074929,080675,075051
0000000149,0000009867,032067,071592,031925,076010,071824,029903,079719,075701,079909,075819
0000000150,0000009933,031996,072338,031854,075227,072570,029871,078939,076464,079135,076580
0000000151,0000010000,031940,073076,031798,074434,073310,029856,078149,077221,078352,077332
0000000152,0000010067,031916,073800,031774,073625,074035,029873,077343,077960,077553,078069
0000000153,0000010133,031907,074517,031767,072808,074752,029907,076530,078691,076747,078797
0000000154,0000010200,031915,075225,031774,071984,075460,029958,075709,079413,075933,079516
0000000155,0000010267,031954,075916,031814,071145,076152,030041,074875,080117,075105,080216
0000000156,0000010333,032009,076598,031870,070299,076835,030140,074034,080811,074271,080907
0000000157,0000010400,032080,077272,031941,069447,077509,030256,073186,081495,073430,081588
0000000158,0000010467,032183,077926,032044,068583,078164,030403,072328,082159,072578,082249
0000000159,0000010533,032301,078571,032163,067713,078810,030568,071464,082812,071721,082899
0000000160,0000010600,032435,079206,032298,066838,079445,030748,070594,083454,070858,083538
0000000161,0000010667,032600,079820,032464,065954,080059,030960,069716,084074,069987,084155
0000000162,0000010733,032781,080424,032645,065065,080663,031188,068834,084683,069112,084761
0000000163,0000010800,032977,081016,032842,064173,081256,031432,067948,085280,068232,085354
0000000164,0000010867,033204,081587,033069,063273,081826,031707,067055,085852,067347,085924
0000000165,0000010933,033446,082146,033312,062370,082385,031997,066160,086413,066458,086482
0000000166,0000011000,033703,082693,033570,061465,082932,032303,065263,086960,065567,087027
0000000167,0000011067,033991,083216,033858,060555,083456,032639,064361,087483,064672,087546
0000000168,0000011133,034293,083727,034161,059644,083966,032991,063458,087992,063775,088052
0000000169,0000011200,034610,084226,034479,058731,084465,033357,062553,088487,062877,088546
0000000170,0000011267,034956,084699,034826,057816,084938,033753,061647,088956,061978,089012
0000000171,0000011333,035316,085159,035188,056901,085398,034163,060741,089411,061079,089464
0000000172,0000011400,035691,085606,035563,055986,085844,034588,059835,089852,060179,089902
0000000173,0000011467,036093,086027,035967,055072,086264,035041,058930,090265,059280,090312
0000000174,0000011533,036510,086433,036385,054158,086671,035508,058026,090663,058383,090708
0000000175,0000011600,036940,086826,036816,053246,087063,035988,057124,091046,057487,091089
0000000176,0000011667,037398,087192,037275,052337,087428,036496,056225,091400,056594,091441
0000000177,0000011733,037868,087543,037746,051430,087778,037017,055329,091739,055704,091778
0000000178,0000011800,038352,087880,038231,050526,088115,037551,054435,092063,054816,092100
0000000179,0000011867,038861,088188,038741,049627,088422,038110,053547,092357,053935,092391
0000000180,0000011933,039383,088481,039264,048733,088714,038682,052663,092635,053057,092667
0000000181,0000012000,039917,088760,039800,047841,088992,039266,051783,092898,052183,092928
0000000182,0000012067,040475,089009,040359,046959,089240,039874,050912,093129,051317,093157
0000000183,0000012133,041045,089243,040930,046081,089473,040493,050046,093345,050457,093371
0000000184,0000012200,041626,089462,041513,045208,089691,041124,049185,093544,049601,093569
0000000185,0000012267,042231,089651,042119,044346,089879,041777,048335,093712,048756,093735
0000000186,0000012333,042845,089824,042735,043490,090051,042441,047491,093864,047918,093885
0000000187,0000012400,043471,089982,043362,042641,090208,043115,046653,094000,047086,094019
0000000188,0000012467,044118,090109,044010,041804,090334,043809,045829,094103,046267,094121
0000000189,0000012533,044774,090221,044668,040975,090444,044513,045013,094190,045455,094207
0000000190,0000012600,045441,090317,045336,040154,090539,045227,044204,094261,044651,094276
0000000191,0000012667,046126,090382,046023,039348,090603,045959,043411,094300,043863,094313
0000000192,0000012733,046820,090431,046718,038550,090650,046699,042626,094322,043083,094334
0000000193,0000012800,047523,090465,047423,037761,090683,047448,041850,094327,042311,094339
0000000194,0000012867,048243,090467,048145,036990,090684,048213,041092,094300,041558,094311
0000000195,0000012933,048972,090454,048874,036229,090669,048986,040344,094257,040814,094266
0000000196,0000013000,049708,090425,049612,035477,090638,049766,039605,094198,040079,094206
0000000197,0000013067,050458,090365,050364,034745,090576,050560,038887,094106,039365,094113
0000000198,0000013133,051216,090289,051124,034024,090499,051361,038179,093998,038661,094004
0000000199,0000013200,051981,090198,051890,033314,090406,052168,037482,093873,037968,093879
0000000200,0000013267,052758,090075,052669,032626,090281,052986,036807,093717,037296,093722
0000000201,0000013333,053542,089938,053454,031949,090142,053810,036144,093544,036637,093549
0000000202,0000013400,054331,089784,054244,031284,089986,054639,035493,093356,035989,093360
0000000203,0000013467,055130,089600,055045,030644,089801,055478,034866,093135,035365,093139
