DIgSILENT PowerFactory,20000410,2000
10,10A,00D
1,LC684-652A:Phase Voltage A/Terminal i,,,kV,0.00010000000,-6.530722,0.000000,21014,99998,1,1,P
2,LC684-652A:Phase Voltage C/Terminal i,,,kV,0.00010000000,-5.705989,0.000000,16868,99998,1,1,P
3,LC692-675:Phase Voltage A/Terminal i,,,kV,0.00010000000,-6.522608,0.000000,20781,99998,1,1,P
4,LC692-675:Phase Voltage B/Terminal i,,,kV,0.00010000000,-5.644333,0.000000,13649,99998,1,1,P
5,LC692-675:Phase Voltage C/Terminal i,,,kV,0.00010000000,-5.721062,0.000000,17066,99998,1,1,P
6,LOHL632-633:Phase Voltage A/Terminal i,,,kV,0.00010000000,-6.434115,0.000000,22662,99998,1,1,P
7,LOHL632-633:Phase Voltage B/Terminal i,,,kV,0.00010000000,-6.086627,0.000000,21813,99998,1,1,P
8,LOHL632-633:Phase Voltage C/Terminal i,,,kV,0.00010000000,-5.960189,0.000000,21449,99998,1,1,P
9,LOHL645-646:Phase Voltage B/Terminal i,,,kV,0.00010000000,-6.112084,0.000000,22334,99998,1,1,P
10,LOHL645-646:Phase Voltage C/Terminal i,,,kV,0.00010000000,-5.973460,0.000000,21714,99998,1,1,P
50
1
15000.000000,3001
11/11/2020,16:52:37.000000
11/11/2020,16:52:37.000000
ASCII
1.000000
0000000001,0000000000,091433,061504,091409,023450,061602,092361,028370,063071,028824,063146
0000000002,0000000067,091947,060678,091923,023853,060775,092858,028778,062209,029227,062286
0000000003,0000000133,092448,059852,092425,024272,059947,093341,029201,061345,029645,061425
0000000004,0000000200,092937,059024,092914,024706,059117,093810,029639,060480,030079,060563
0000000005,0000000267,093399,058194,093377,025170,058285,094252,030107,059614,030542,059701
0000000006,0000000333,093848,057364,093826,025648,057453,094679,030590,058749,031019,058838
0000000007,0000000400,094283,056533,094262,026142,056620,095092,031087,057884,031510,057976
0000000008,0000000467,094691,055703,094670,026664,055789,095476,031612,057020,032030,057116
0000000009,0000000533,095085,054874,095065,027199,054958,095845,032150,056158,032563,056257
0000000010,0000000600,095465,054045,095445,027749,054128,096199,032703,055297,033110,055399
0000000011,0000000667,095816,053220,095797,028326,053300,096523,033282,054440,033684,054545
0000000012,0000000733,096153,052396,096134,028917,052475,096832,033874,053586,034270,053695
0000000013,0000000800,096475,051575,096457,029520,051652,097126,034479,052735,034869,052846
0000000014,0000000867,096768,050758,096750,030149,050834,097388,035109,051890,035493,052005
0000000015,0000000933,097046,049945,097028,030790,050020,097635,035751,051049,036129,051167
0000000016,0000001000,097309,049135,097291,031444,049208,097866,036405,050212,036777,050333
0000000017,0000001067,097542,048332,097524,032121,048404,098065,037082,049383,037448,049508
0000000018,0000001133,097759,047534,097741,032810,047605,098248,037770,048560,038130,048688
0000000019,0000001200,097961,046740,097943,033509,046810,098415,038470,047742,038823,047873
0000000020,0000001267,098133,045956,098114,034231,046024,098550,039190,046935,039537,047069
0000000021,0000001333,098288,045177,098270,034963,045244,098669,039921,046134,040262,046271
0000000022,0000001400,098428,044404,098409,035705,044470,098772,040662,045339,040996,045480
0000000023,0000001467,098536,043643,098518,036467,043708,098841,041422,044558,041749,044702
0000000024,0000001533,098629,042888,098610,037239,042952,098895,042191,043784,042512,043931
0000000025,0000001600,098706,042140,098687,038019,042203,098932,042969,043018,043283,043168
0000000026,0000001667,098751,041406,098732,038818,041468,098936,043764,042267,044072,042420
0000000027,0000001733,098781,040679,098761,039624,040740,098924,044567,041524,044868,041681
0000000028,0000001800,098794,039960,098775,040438,040021,098896,045378,040790,045672,040950
0000000029,0000001867,098776,039257,098756,041268,039317,098835,046203,040074,046491,040237
0000000030,0000001933,098742,038563,098722,042104,038623,098757,047036,039367,047317,039534
0000000031,0000002000,098692,037878,098671,042948,037936,098663,047875,038670,048149,038839
0000000032,0000002067,098611,037210,098589,043804,037269,098537,048726,037992,048993,038165
0000000033,0000002133,098513,036553,098491,044667,036610,098394,049583,037325,049844,037501
0000000034,0000002200,098400,035904,098378,045535,035962,098235,050445,036668,050699,036847
0000000035,0000002267,098256,035276,098232,046413,035333,098044,051318,036033,051565,036215
0000000036,0000002333,098096,034659,098072,047296,034715,097838,052194,035410,052435,035594
0000000037,0000002400,097920,034051,097895,048183,034108,097615,053075,034797,053309,034985
0000000038,0000002467,097714,033466,097688,049078,033522,097361,053964,034208,054191,034399
0000000039,0000002533,097492,032892,097466,049977,032948,097091,054855,033632,055075,033825
0000000040,0000002600,097255,032329,097228,050879,032385,096805,055750,033067,055963,033263
0000000041,0000002667,096987,031790,096960,051786,031846,096489,056649,032528,056856,032727
0000000042,0000002733,096705,031262,096676,052695,031319,096158,057550,032001,057750,032203
0000000043,0000002800,096408,030747,096378,053606,030804,095811,058453,031488,058646,031692
0000000044,0000002867,096081,030257,096051,054519,030314,095435,059358,031001,059545,031208
0000000045,0000002933,095740,029780,095709,055434,029836,095044,060264,030528,060444,030738
0000000046,0000003000,095384,029315,095352,056349,029372,094639,061170,030068,061343,030281
0000000047,0000003067,095000,028877,094967,057264,028934,094204,062076,029637,062243,029852
0000000048,0000003133,094602,028452,094568,058178,028510,093756,062981,029219,063141,029437
0000000049,0000003200,094190,028041,094155,059092,028099,093294,063885,028816,064039,029037
0000000050,0000003267,093751,027657,093714,060003,027716,092804,064786,028443,064934,028665
0000000051,0000003333,093298,027287,093260,060913,027346,092301,065686,028084,065827,028309
0000000052,0000003400,092832,026931,092793,061820,026991,091785,066583,027740,066719,027967
0000000053,0000003467,092340,026604,092300,062723,026665,091242,067475,027426,067604,027655
0000000054,0000003533,091835,026291,091793,063622,026353,090687,068363,027127,068487,027359
0000000055,0000003600,091317,025993,091275,064518,026055,090120,069248,026844,069366,027077
0000000056,0000003667,090775,025724,090731,065407,025787,089528,070126,026592,070237,026827
0000000057,0000003733,090221,025470,090176,066290,025534,088924,070998,026355,071104,026593
0000000058,0000003800,089655,025231,089609,067170,025296,088308,071866,026134,071967,026374
0000000059,0000003867,089066,025022,089018,068039,025088,087670,072724,025945,072819,026186
0000000060,0000003933,088465,024828,088416,068903,024896,087021,073576,025772,073665,026015
0000000061,0000004000,087854,024650,087804,069761,024719,086360,074422,025615,074506,025860
0000000062,0000004067,087221,024502,087170,070606,024572,085679,075255,025490,075334,025736
0000000063,0000004133,086578,024370,086525,071445,024441,084988,076081,025381,076155,025629
0000000064,0000004200,085925,024253,085871,072276,024326,084287,076900,025289,076969,025538
0000000065,0000004267,085252,024167,085196,073093,024241,083568,077704,025229,077768,025479
0000000066,0000004333,084570,024097,084513,073902,024172,082839,078500,025185,078559,025437
0000000067,0000004400,083879,024043,083820,074702,024119,082101,079287,025157,079342,025410
0000000068,0000004467,083170,024019,083110,075485,024098,081347,080058,025162,080107,025417
0000000069,0000004533,082453,024012,082391,076259,024091,080584,080818,025184,080864,025439
0000000070,0000004600,081727,024020,081664,077024,024101,079814,081570,025222,081611,025478
0000000071,0000004667,080986,024059,080921,077769,024142,079029,082302,025292,082339,025549
0000000072,0000004733,080238,024114,080171,078504,024199,078237,083024,025379,083057,025637
0000000073,0000004800,079482,024185,079414,079229,024271,077438,083735,025481,083765,025740
0000000074,0000004867,078713,024286,078643,079932,024374,076628,084425,025616,084451,025876
0000000075,0000004933,077938,024404,077866,080624,024493,075811,085103,025768,085125,026028
0000000076,0000005000,077156,024536,077083,081305,024628,074989,085770,025935,085789,026196
0000000077,0000005067,076364,024700,076289,081962,024793,074157,086414,026134,086429,026395
0000000078,0000005133,075566,024879,075490,082606,024974,073320,087045,026349,087057,026611
0000000079,0000005200,074763,025073,074686,083239,025170,072479,087664,026580,087673,026842
0000000080,0000005267,073951,025297,073873,083846,025397,071630,088258,026842,088264,027104
0000000081,0000005333,073136,025537,073055,084440,025638,070778,088838,027119,088842,027381
0000000082,0000005400,072316,025791,072234,085021,025894,069922,089405,027412,089407,027674
0000000083,0000005467,071490,026075,071407,085574,026181,069062,089946,027736,089945,027998
0000000084,0000005533,070662,026374,070576,086114,026481,068199,090472,028074,090469,028336
0000000085,0000005600,069830,026687,069743,086640,026797,067334,090984,028428,090979,028690
0000000086,0000005667,068994,027029,068906,087137,027141,066467,091468,028811,091461,029072
0000000087,0000005733,068157,027385,068067,087620,027499,065598,091938,029208,091929,029469
0000000088,0000005800,067318,027755,067226,088088,027872,064729,092392,029620,092382,029881
0000000089,0000005867,066477,028153,066384,088526,028272,063860,092817,030061,092806,030321
0000000090,0000005933,065636,028565,065541,088948,028686,062991,093227,030515,093214,030775
0000000091,0000006000,064794,028990,064698,089356,029113,062122,093621,030983,093607,031242
0000000092,0000006067,063953,029442,063856,089732,029568,061256,093984,031478,093970,031737
0000000093,0000006133,063113,029907,063014,090092,030035,060391,094332,031987,094317,032244
0000000094,0000006200,062274,030385,062173,090436,030515,059528,094664,032509,094648,032765
0000000095,0000006267,061437,030888,061335,090749,031020,058669,094963,033056,094947,033311
0000000096,0000006333,060603,031403,060499,091044,031538,057813,095247,033616,095231,033870
0000000097,0000006400,059771,031931,059665,091324,032068,056960,095514,034188,095498,034441
0000000098,0000006467,058943,032482,058837,091570,032622,056114,095748,034785,095733,035036
0000000099,0000006533,058119,033045,058011,091800,033187,055273,095966,035393,095951,035643
0000000100,0000006600,057299,033620,057189,092013,033764,054435,096168,036012,096153,036261
0000000101,0000006667,056485,034217,056374,092193,034363,053607,096336,036654,096321,036902
0000000102,0000006733,055676,034824,055564,092355,034973,052784,096487,037307,096473,037553
0000000103,0000006800,054872,035442,054758,092501,035593,051966,096621,037970,096608,038215
0000000104,0000006867,054077,036080,053962,092612,036234,051160,096721,038654,096710,038897
0000000105,0000006933,053288,036729,053172,092707,036885,050360,096805,039348,096795,039589
0000000106,0000007000,052505,037387,052387,092784,037545,049567,096871,040051,096863,040290
0000000107,0000007067,051733,038064,051614,092826,038224,048788,096903,040773,096897,041010
0000000108,0000007133,050968,038749,050848,092852,038912,048016,096918,041504,096914,041739
0000000109,0000007200,050210,039444,050089,092860,039609,047252,096916,042243,096914,042477
0000000110,0000007267,049466,040155,049344,092834,040322,046504,096880,042999,096880,043230
0000000111,0000007333,048730,040874,048606,092790,041044,045765,096827,043762,096829,043992
0000000112,0000007400,048001,041600,047876,092729,041773,045034,096757,044534,096762,044761
0000000113,0000007467,047289,042342,047163,092634,042516,044322,096653,045319,096660,045544
0000000114,0000007533,046586,043090,046459,092522,043267,043619,096532,046111,096542,046334
0000000115,0000007600,045891,043845,045763,092393,044024,042926,096394,046910,096407,047130
0000000116,0000007667,045215,044613,045085,092229,044794,042253,096222,047720,096238,047938
0000000117,0000007733,044548,045386,044418,092049,045570,041591,096034,048536,096053,048752
0000000118,0000007800,043891,046165,043760,091851,046351,040940,095829,049358,095852,049571
0000000119,0000007867,043254,046954,043122,091621,047142,040311,095591,050189,095617,050400
0000000120,0000007933,042628,047748,042495,091373,047938,039693,095336,051025,095366,051232
0000000121,0000008000,042013,048546,041879,091109,048739,039087,095065,051865,095099,052070
0000000122,0000008067,041419,049353,041285,090812,049548,038504,094762,052712,094800,052914
0000000123,0000008133,040838,050163,040702,090499,050360,037934,094442,053562,094484,053761
0000000124,0000008200,040267,050976,040131,090170,051175,037377,094107,054415,094153,054612
0000000125,0000008267,039720,051796,039583,089808,051996,036845,093740,055273,093791,055467
0000000126,0000008333,039186,052617,039048,089431,052820,036326,093357,056133,093413,056324
0000000127,0000008400,038664,053441,038525,089039,053646,035820,092960,056995,093020,057183
0000000128,0000008467,038167,054268,038027,088615,054475,035342,092531,057859,092596,058044
0000000129,0000008533,037682,055097,037543,088176,055305,034877,092088,058724,092158,058906
0000000130,0000008600,037211,055926,037071,087722,056137,034426,091630,059590,091705,059769
0000000131,0000008667,036767,056757,036626,087239,056969,034003,091143,060455,091223,060631
0000000132,0000008733,036336,057587,036195,086741,057801,033595,090641,061320,090727,061493
0000000133,0000008800,035919,058418,035777,086228,058634,033201,090126,062185,090216,062355
0000000134,0000008867,035529,059247,035387,085687,059465,032837,089582,063047,089678,063213
0000000135,0000008933,035154,060075,035012,085133,060294,032488,089026,063907,089127,064070
0000000136,0000009000,034793,060902,034650,084565,061123,032154,088455,064765,088562,064925
0000000137,0000009067,034461,061725,034318,083970,061947,031850,087859,065618,087972,065775
0000000138,0000009133,034144,062546,034000,083362,062769,031562,087250,066469,087369,066623
0000000139,0000009200,033841,063364,033697,082742,063589,031289,086628,067316,086753,067467
0000000140,0000009267,033568,064176,033424,082096,064403,031048,085982,068156,086113,068303
0000000141,0000009333,033310,064985,033166,081439,065213,030822,085324,068991,085461,069136
0000000142,0000009400,033067,065790,032923,080769,066020,030612,084654,069823,084797,069964
0000000143,0000009467,032855,066587,032711,080077,066818,030434,083962,070645,084111,070782
0000000144,0000009533,032658,067379,032514,079373,067611,030272,083259,071461,083415,071595
0000000145,0000009600,032477,068167,032333,078659,068400,030127,082545,072272,082707,072403
0000000146,0000009667,032327,068944,032183,077923,069178,030013,081811,073071,081980,073199
0000000147,0000009733,032192,069715,032048,077177,069950,029916,081067,073863,081242,073988
0000000148,0000009800,032073,070480,031930,076422,070717,029836,080313,074649,080495,074770
0000000149,0000009867,031986,071233,031842,075647,071470,029788,079541,075420,079729,075539
0000000150,0000009933,031914,071979,031771,074864,072217,029756,078760,076184,078955,076299
0000000151,0000010000,031858,072717,031715,074071,072957,029741,077971,076940,078172,077052
0000000152,0000010067,031834,073441,031691,073262,073682,029758,077165,077680,077373,077789
0000000153,0000010133,031826,074157,031684,072445,074398,029792,076352,078411,076567,078516
0000000154,0000010200,031833,074866,031691,071621,075107,029843,075531,079133,075753,079235
0000000155,0000010267,031873,075557,031731,070782,075799,029926,074697,079837,074925,079936
0000000156,0000010333,031928,076239,031787,069936,076482,030025,073856,080531,074090,080627
0000000157,0000010400,031999,076913,031858,069084,077156,030141,073008,081215,073250,081308
0000000158,0000010467,032101,077567,031961,068220,077811,030288,072149,081879,072398,081969
0000000159,0000010533,032220,078212,032080,067350,078456,030453,071285,082532,071541,082619
0000000160,0000010600,032354,078847,032215,066475,079091,030633,070416,083174,070678,083258
0000000161,0000010667,032519,079461,032381,065591,079706,030845,069538,083794,069807,083875
0000000162,0000010733,032700,080065,032562,064702,080310,031073,068656,084402,068932,084480
0000000163,0000010800,032896,080657,032759,063810,080903,031317,067770,084999,068052,085074
0000000164,0000010867,033123,081228,032986,062910,081473,031592,066877,085572,067167,085644
0000000165,0000010933,033365,081787,033229,062007,082032,031882,065982,086132,066278,086201
0000000166,0000011000,033622,082334,033487,061102,082579,032188,065084,086680,065387,086746
0000000167,0000011067,033909,082857,033776,060192,083102,032524,064182,087202,064492,087266
0000000168,0000011133,034211,083368,034078,059281,083613,032876,063279,087711,063595,087772
0000000169,0000011200,034528,083867,034396,058368,084112,033242,062375,088207,062697,088265
0000000170,0000011267,034874,084340,034743,057453,084584,033638,061469,088676,061798,088731
0000000171,0000011333,035235,084800,035105,056538,085044,034048,060563,089131,060898,089184
0000000172,0000011400,035609,085247,035480,055623,085491,034473,059657,089572,059999,089622
0000000173,0000011467,036012,085667,035884,054709,085911,034926,058752,089984,059100,090032
0000000174,0000011533,036429,086074,036302,053795,086317,035393,057848,090382,058203,090428
0000000175,0000011600,036859,086467,036733,052883,086710,035873,056946,090766,057307,090809
0000000176,0000011667,037316,086833,037192,051974,087075,036381,056047,091120,056414,091161
0000000177,0000011733,037787,087184,037663,051067,087425,036902,055150,091459,055524,091497
0000000178,0000011800,038270,087521,038148,050163,087761,037436,054257,091783,054636,091819
0000000179,0000011867,038780,087829,038659,049264,088069,037995,053369,092077,053755,092111
0000000180,0000011933,039301,088122,039181,048370,088361,038567,052485,092355,052877,092387
0000000181,0000012000,039835,088401,039717,047478,088639,039151,051605,092617,052003,092647
0000000182,0000012067,040394,088650,040276,046596,088887,039759,050734,092849,051137,092877
0000000183,0000012133,040963,088884,040848,045718,089120,040378,049868,093064,050276,093090
0000000184,0000012200,041545,089103,041430,044845,089338,041009,049007,093264,049421,093288
0000000185,0000012267,042149,089292,042036,043983,089526,041662,048157,093432,048576,093454
0000000186,0000012333,042764,089465,042652,043127,089698,042326,047313,093584,047738,093605
0000000187,0000012400,043390,089623,043279,042277,089855,043000,046475,093719,046906,093739
0000000188,0000012467,044036,089750,043927,041441,089981,043694,045651,093823,046087,093841
0000000189,0000012533,044693,089862,044585,040612,090091,044398,044835,093910,045275,093926
0000000190,0000012600,045359,089958,045253,039790,090186,045112,044026,093981,044471,093996
0000000191,0000012667,046044,090023,045940,038985,090249,045844,043232,094019,043683,094033
0000000192,0000012733,046739,090072,046635,038187,090297,046584,042448,094041,042903,094054
0000000193,0000012800,047442,090106,047340,037398,090329,047333,041672,094047,042131,094058
0000000194,0000012867,048162,090108,048062,036627,090330,048098,040914,094020,041377,094030
0000000195,0000012933,048890,090095,048791,035866,090315,048871,040166,093977,040633,093986
0000000196,0000013000,049626,090066,049529,035114,090285,049651,039427,093917,039899,093926
0000000197,0000013067,050377,090006,050281,034382,090223,050445,038709,093825,039185,093833
0000000198,0000013133,051135,089930,051041,033661,090145,051246,038001,093717,038481,093724
0000000199,0000013200,051900,089839,051807,032951,090052,052053,037304,093593,037787,093599
0000000200,0000013267,052677,089716,052586,032263,089928,052871,036629,093436,037116,093442
0000000201,0000013333,053460,089579,053371,031586,089788,053695,035966,093264,036457,093268
0000000202,0000013400,054249,089425,054161,030921,089633,054524,035315,093075,035809,093079
0000000203,0000013467,055049,089241,054962,030281,089447,055363,034688,092855,035184,092859
