DIgSILENT PowerFactory,20000410,2000
33,33A,00D
1,Cable 634-LV1:Phase Current A/Terminal i,,,A,0.010000000,-722.133484,0.000000,43603,99998,1,1,P
2,Cable 634-LV1:Phase Current B/Terminal i,,,A,0.010000000,-736.150208,0.000000,47549,99998,1,1,P
3,Cable 634-LV1:Phase Current C/Terminal i,,,A,0.010000000,-836.146179,0.000000,67345,99998,1,1,P
4,Cable 634-LV1:Phase Current A/Terminal j,,,A,0.010000000,-713.873047,0.000000,43603,99998,1,1,P
5,Cable 634-LV1:Phase Current B/Terminal j,,,A,0.010000000,-739.320740,0.000000,47550,99998,1,1,P
6,Cable 634-LV1:Phase Current C/Terminal j,,,A,0.010000000,-837.282715,0.000000,67345,99998,1,1,P
7,Cable 634-LV1:Phase Voltage A/Terminal j,,,kV,0.000010000000,-0.533419,0.000000,9014,99998,1,1,P
8,Cable 634-LV1:Phase Voltage B/Terminal j,,,kV,0.000010000000,-0.503145,0.000000,-2092,99998,1,1,P
9,Cable 634-LV1:Phase Voltage C/Terminal j,,,kV,0.000010000000,-0.482215,0.000000,-5489,99998,1,1,P
10,Cable 634-LV1:Phase Voltage C/Terminal i,,,kV,0.000010000000,-0.480684,0.000000,-5817,99998,1,1,P
11,Cable 634-LV1:Phase Voltage B/Terminal i,,,kV,0.000010000000,-0.503401,0.000000,-2184,99998,1,1,P
12,Cable 634-LV1:Phase Voltage A/Terminal i,,,kV,0.000010000000,-0.531558,0.000000,8691,99998,1,1,P
13,LOHL632-633:Phase Current B/Terminal i,,,A,0.010000000,-477.898102,0.000000,-7179,99998,1,1,P
14,LOHL632-633:Phase Current A/Terminal i,,,A,0.10000000,-3837.849121,0.000000,-4546,99998,1,1,P
15,LOHL632-633:Phase Current C/Terminal i,,,A,0.010000000,36.160046,0.000000,-71890,99998,1,1,P
16,LOHL632-633:Phase Current A/Terminal j,,,A,0.10000000,-8390.620117,0.000000,76386,99998,1,1,P
17,LOHL632-633:Phase Current B/Terminal j,,,A,0.010000000,-450.289917,0.000000,-7179,99998,1,1,P
18,LOHL632-633:Phase Current C/Terminal j,,,A,0.010000000,-317.242889,0.000000,-71890,99998,1,1,P
19,LOHL632-633:Phase Voltage A/Terminal j,,,kV,0.00010000000,-5.895045,0.000000,19971,99998,1,1,P
20,LOHL632-633:Phase Voltage B/Terminal j,,,kV,0.00010000000,-5.690151,0.000000,10986,99998,1,1,P
21,LOHL632-633:Phase Voltage C/Terminal j,,,kV,0.00010000000,-5.480200,0.000000,7708,99998,1,1,P
22,XFM-1:Phase Voltage A/HV-Side,,,kV,0.00010000000,-5.895045,0.000000,19971,99998,1,1,P
23,XFM-1:Phase Voltage B/HV-Side,,,kV,0.00010000000,-5.690151,0.000000,10986,99998,1,1,P
24,XFM-1:Phase Voltage C/HV-Side,,,kV,0.00010000000,-5.480200,0.000000,7708,99998,1,1,P
25,XFM-1:Phase Voltage A/LV-Side,,,kV,0.000010000000,-0.531558,0.000000,8691,99998,1,1,P
26,XFM-1:Phase Voltage B/LV-Side,,,kV,0.000010000000,-0.503401,0.000000,-2184,99998,1,1,P
27,XFM-1:Phase Voltage C/LV-Side,,,kV,0.000010000000,-0.480684,0.000000,-5817,99998,1,1,P
28,XFM-1:Phase Current A/HV-Side,,,A,0.0010000000,-67.265167,0.000000,-7371,99998,1,1,P
29,XFM-1:Phase Current B/HV-Side,,,A,0.0010000000,-76.384315,0.000000,27587,99998,1,1,P
30,XFM-1:Phase Current C/HV-Side,,,A,0.0010000000,-66.515053,0.000000,-16733,99998,1,1,P
31,XFM-1:Phase Current A/LV-Side,,,A,0.010000000,-716.881714,0.000000,43290,99998,1,1,P
32,XFM-1:Phase Current B/LV-Side,,,A,0.010000000,-792.806091,0.000000,58543,99998,1,1,P
33,XFM-1:Phase Current C/LV-Side,,,A,0.010000000,-726.003662,0.000000,44952,99998,1,1,P
50
1
15000.000000,3001
09/12/2020,12:12:03.000000
09/12/2020,12:12:03.000000
ASCII
1.000000
0000000001,0000000000,069054,072958,088871,074547,074589,078471,088707,015841,047513,047446,015864,088532,037811,035118,039521,087166,055008,-11413,089842,026892,054238,089842,026892,054238,088532,015864,047446,075608,055473,084633,064641,097587,057082
0000000002,0000000067,069170,072842,088928,074431,074705,078415,089181,016374,046489,046422,016396,089010,036764,035195,039819,087090,056055,-11711,090259,027354,053346,090259,027354,053346,089010,016396,046422,076333,055296,084287,064015,097743,057384
0000000003,0000000133,069295,072720,088981,074306,074828,078361,089635,016930,045463,045397,016951,089466,035723,035274,040089,087011,057096,-11981,090656,027836,052453,090656,027836,052453,089466,016951,045397,077060,055123,083931,063387,097895,057694
0000000004,0000000200,069427,072592,089032,074173,074956,078311,090065,017504,044442,044376,017523,089898,034690,035355,040332,086930,058129,-12224,091034,028335,051564,091034,028335,051564,089898,017523,044376,077788,054956,083564,062758,098041,058015
0000000005,0000000267,069568,072458,089078,074033,075089,078264,090469,018104,043421,043356,018121,090306,033664,035438,040547,086847,059155,-12439,091390,028853,050675,091390,028853,050675,090306,018121,043356,078516,054797,083185,062129,098181,058344
0000000006,0000000333,069716,072320,089121,073885,075227,078222,090852,018721,042405,042340,018736,090691,032646,035523,040735,086762,060173,-12627,091727,029388,049790,091727,029388,049790,090691,018736,042340,079244,054645,082796,061500,098315,058684
0000000007,0000000400,069871,072179,089159,073730,075369,078184,091208,019362,041390,041325,019375,091052,031638,035610,040894,086675,061181,-12786,092042,029942,048906,092042,029942,048906,091052,019375,041325,079971,054501,082395,060872,098441,059033
0000000008,0000000467,070033,072034,089192,073568,075514,078150,091543,020018,040382,040316,020030,091390,030639,035698,041026,086586,062180,-12917,092337,030512,048028,092337,030512,048028,091390,020030,040316,080696,054367,081983,060245,098559,059392
0000000009,0000000533,070201,071886,089221,073400,075661,078122,091852,020693,039381,039315,020703,091702,029651,035788,041129,086496,063168,-13021,092610,031098,047154,092610,031098,047154,091702,020703,039315,081418,054242,081559,059621,098668,059760
0000000010,0000000600,070376,071736,089244,073225,075811,078099,092139,021386,038384,038317,021394,091991,028673,035880,041204,086404,064146,-13096,092862,031700,046285,092862,031700,046285,091991,021394,038317,082136,054127,081124,058999,098769,060139
0000000011,0000000667,070556,071585,089261,073044,075962,078081,092399,022098,037394,037327,022105,092255,027708,035974,041251,086311,065111,-13143,093093,032318,045422,093093,032318,045422,092255,022105,037327,082851,054024,080677,058381,098860,060527
0000000012,0000000733,070743,071433,089273,072858,076115,078070,092637,022828,036409,036342,022834,092495,026755,036069,041269,086216,066064,-13161,093301,032953,044563,093301,032953,044563,092495,022834,036342,083561,053932,080219,057766,098941,060925
0000000013,0000000800,070934,071280,089279,072667,076267,078064,092847,023577,035431,035363,023582,092709,025815,036165,041260,086119,067004,-13152,093489,033603,043711,093489,033603,043711,092709,023582,035363,084266,053852,079749,057156,099011,061333
0000000014,0000000867,071130,071127,089278,072471,076420,078064,093035,024338,034466,034397,024341,092900,024888,036263,041222,086021,067930,-13114,093654,034266,042868,093654,034266,042868,092900,024341,034397,084964,053784,079268,056552,099070,061750
0000000015,0000000933,071330,070975,089272,072271,076572,078071,093197,025118,033507,033437,025120,093064,023976,036363,041156,085922,068843,-13048,093797,034944,042031,093797,034944,042031,093064,025120,033437,085655,053730,078776,055954,099118,062177
0000000016,0000001000,071535,070824,089258,072066,076723,078084,093334,025912,032558,032487,025913,093204,023079,036463,041061,085822,069740,-12953,093919,035636,041202,093919,035636,041202,093204,025913,032487,086339,053689,078273,055362,099153,062614
0000000017,0000001067,071743,070674,089239,071858,076874,078103,093423,026677,031597,031526,026677,093296,022197,036565,040939,085720,070622,-12831,093999,036301,040366,093999,036301,040366,093296,026677,031526,087014,053661,077760,054777,099178,063059
0000000018,0000001133,071958,070515,089218,071643,077032,078124,093482,027435,030648,030572,027428,093354,021319,036668,040795,085616,071500,-12687,094048,036949,039533,094048,036949,039533,093354,027428,030572,087680,053631,077238,054198,099202,063509
0000000019,0000001200,072175,070360,089190,071426,077187,078153,093531,028251,029717,029644,028249,093412,020458,036773,040623,085512,072361,-12515,094099,037670,038725,094099,037670,038725,093412,028249,029644,088336,053618,076705,053627,099212,063969
0000000020,0000001267,072394,070210,089154,071206,077338,078188,093571,029109,028808,028733,029105,093453,019613,036878,040423,085407,073206,-12315,094134,038414,037932,094134,038414,037932,093453,029105,028733,088981,053622,076162,053066,099207,064438
0000000021,0000001333,072616,070062,089111,070985,077485,078232,093593,029970,027933,027853,029963,093475,018785,036985,040196,085300,074034,-12088,094151,039162,037161,094151,039162,037161,093475,029963,027853,089615,053641,075607,052515,099188,064917
0000000022,0000001400,072839,069918,089061,070762,077629,078282,093568,030829,027032,026955,030823,093455,017974,037092,039942,085193,074845,-11834,094134,039912,036381,094134,039912,036381,093455,030823,026955,090237,053675,075044,051973,099156,065403
0000000023,0000001467,073063,069778,089005,070537,077770,078338,093528,031695,026167,026087,031688,093417,017180,037201,039661,085084,075639,-11553,094100,040668,035622,094100,040668,035622,093417,031688,026087,090847,053725,074471,051442,099110,065896
0000000024,0000001533,073289,069641,088942,070312,077907,078400,093471,032597,025317,025233,032587,093360,016402,037310,039354,084975,076417,-11245,094048,041448,034877,094048,041448,034877,093360,032587,025233,091443,053790,073890,050922,099051,066397
0000000025,0000001600,073515,069508,088874,070086,078040,078469,093372,033478,024467,024383,033470,093266,015642,037420,039020,084865,077177,-10912,093965,042219,034138,093965,042219,034138,093266,033470,024383,092025,053869,073301,050415,098978,066905
0000000026,0000001667,073741,069379,088799,069859,078169,078543,093249,034377,023632,023548,034369,093146,014899,037531,038661,084754,077920,-10553,093860,043003,033410,093860,043003,033410,093146,034369,023548,092592,053965,072704,049919,098892,067418
0000000027,0000001733,073967,069254,088720,069633,078294,078623,093116,035296,022830,022741,035285,093012,014175,037642,038276,084642,078644,-10168,093740,043801,032705,093740,043801,032705,093012,035285,022741,093144,054075,072100,049437,098793,067937
0000000028,0000001800,074192,069133,088634,069409,078414,078709,092941,036209,022026,021936,036199,092840,013468,037754,037866,084530,079351,-09758,093589,044598,032004,093589,044598,032004,092840,036199,021936,093679,054201,071490,048969,098679,068461
0000000029,0000001867,074415,069018,088543,069185,078529,078799,092743,037135,021235,021144,037124,092645,012781,037867,037431,084418,080038,-09323,093418,045405,031315,093418,045405,031315,092645,037124,021144,094196,054343,070874,048516,098551,068990
0000000030,0000001933,074637,068908,088447,068964,078639,078895,092528,038075,020479,020385,038063,092430,012113,037980,036972,084304,080706,-08864,093227,046223,030651,093227,046223,030651,092430,038063,020385,094695,054501,070252,048078,098409,069524
0000000031,0000002000,074855,068804,088347,068745,078743,078996,092280,039017,019724,019629,039005,092184,011466,038094,036487,084191,081353,-08379,093011,047045,029993,093011,047045,029993,092184,039005,019629,095175,054674,069626,047656,098253,070062
0000000032,0000002067,075071,068706,088241,068530,078841,079101,092004,039961,018989,018892,039950,091910,010839,038207,035979,084077,081980,-07871,092770,047870,029351,092770,047870,029351,091910,039950,018892,095636,054865,068995,047251,098082,070602
0000000033,0000002133,075283,068614,088131,068318,078933,079211,091714,040929,018278,018178,040916,091620,010234,038321,035446,083963,082585,-07338,092514,048712,028729,092514,048712,028729,091620,040916,018178,096075,055072,068359,046864,097896,071146
0000000034,0000002200,075490,068529,088017,068110,079018,079326,091391,041892,017582,017480,041880,091299,009651,038435,034890,083849,083168,-06782,092231,049554,028120,092231,049554,028120,091299,041880,017480,096494,055295,067721,046494,097695,071693
0000000035,0000002267,075693,068451,087898,067907,079097,079444,091042,042861,016899,016796,042850,090952,009091,038549,034310,083735,083728,-06202,091926,050400,027525,091926,050400,027525,090952,042850,016796,096890,055536,067080,046143,097479,072241
0000000036,0000002333,075892,068379,087776,067709,079168,079567,090674,043842,016245,016139,043831,090584,008554,038663,033706,083622,084265,-05598,091602,051255,026952,091602,051255,026952,090584,043831,016139,097264,055793,066436,045811,097248,072791
0000000037,0000002400,076084,068315,087650,067516,079233,079693,090279,044825,015605,015496,044813,090190,008042,038777,033080,083508,084777,-04972,091256,052112,026392,091256,052112,026392,090190,044813,015496,097615,056067,065791,045499,097003,073342
0000000038,0000002467,076272,068257,087521,067329,079290,079822,089858,045810,014981,014871,045799,089770,007554,038890,032430,083394,085265,-04322,090887,052972,025849,090887,052972,025849,089770,045799,014871,097942,056358,065145,045207,096742,073893
0000000039,0000002533,076453,068207,087389,067147,079341,079954,089418,046802,014385,014272,046792,089329,007092,039003,031758,083281,085727,-03650,090499,053838,025326,090499,053838,025326,089329,046792,014272,098246,056664,064498,044934,096467,074444
0000000040,0000002600,076628,068163,087254,066972,079384,080089,088953,047798,013806,013691,047788,088865,006655,039116,031064,083169,086164,-02956,090091,054707,024821,090091,054707,024821,088865,047788,013691,098526,056987,063852,044682,096178,074995
0000000041,0000002667,076798,068127,087116,066803,079421,080227,088466,048798,013249,013133,048789,088379,006245,039228,030348,083057,086574,-02240,089664,055581,024335,089664,055581,024335,088379,048789,013133,098781,057326,063207,044451,095875,075544
0000000042,0000002733,076960,068098,086975,066640,079449,080367,087966,049818,012722,012603,049809,087879,005862,039340,029610,082945,086957,-01502,089225,056471,023873,089225,056471,023873,087879,049809,012603,099012,057682,062562,044241,095556,076093
0000000043,0000002800,077116,068078,086832,066484,079470,080511,087442,050835,012215,012094,050826,087355,005509,039450,028850,082834,087310,-00742,088765,057358,023430,088765,057358,023430,087355,050826,012094,099218,058055,061919,044052,095222,076640
0000000044,0000002867,077265,068065,086686,066335,079483,080656,086895,051849,011727,011604,051842,086808,005184,039560,028068,082724,087635,000040,088285,058244,023005,088285,058244,023005,086808,051842,011604,099401,058444,061279,043884,094875,077185
0000000045,0000002933,077408,068058,086539,066193,079489,080803,086327,052864,011265,011139,052857,086240,004889,039669,027265,082615,087930,000843,087787,059130,022600,087787,059130,022600,086240,052857,011139,099558,058849,060642,043737,094513,077726
0000000046,0000003000,077543,068059,086390,066057,079489,080952,085744,053887,010828,010701,053881,085656,004623,039777,026442,082507,088196,001666,087274,060023,022218,087274,060023,022218,085656,053881,010701,099691,059269,060009,043610,094139,078264
0000000047,0000003067,077673,068066,086240,065928,079482,081103,085139,054909,010414,010284,054903,085051,004387,039885,025598,082400,088432,002510,086744,060915,021856,086744,060915,021856,085051,054903,010284,099801,059704,059380,043505,093751,078799
0000000048,0000003133,077795,068080,086088,065805,079468,081254,084515,055927,010024,009892,055923,084427,004182,039991,024734,082294,088637,003374,086197,061804,021516,086197,061804,021516,084427,055923,009892,099885,060153,058756,043421,093351,079329
0000000049,0000003200,077911,068099,085936,065689,079448,081407,083872,056944,009658,009524,056940,083784,004007,040096,023850,082189,088812,004258,085633,062691,021196,085633,062691,021196,083784,056940,009524,099947,060617,058138,043358,092940,079854
0000000050,0000003267,078021,068125,085783,065580,079423,081560,083210,057956,009316,009181,057953,083121,003863,040199,022948,082085,088956,005160,085053,063574,020898,085053,063574,020898,083121,057953,009181,099984,061093,057526,043315,092517,080374
0000000051,0000003333,078124,068155,085629,065476,079392,081713,082530,058965,008999,008862,058963,082441,003749,040302,022027,081983,089070,006081,084457,064455,020621,084457,064455,020621,082441,058963,008862,099998,061581,056921,043292,092083,080888
0000000052,0000003400,078221,068191,085476,065379,079357,081867,081833,059969,008708,008569,059968,081744,003666,040403,021088,081882,089153,007020,083846,065331,020367,083846,065331,020367,081744,059968,008569,099989,062081,056324,043290,091640,081395
0000000053,0000003467,078313,068231,085323,065288,079317,082020,081119,060969,008442,008301,060968,081029,003613,040503,020132,081782,089206,007976,083220,066202,020135,083220,066202,020135,081029,060968,008301,099957,062591,055735,043308,091187,081896
0000000054,0000003533,078398,068275,085170,065202,079273,082173,080389,061961,008202,008059,061961,080299,003591,040601,019160,081684,089228,008949,082581,067068,019926,082581,067068,019926,080299,061961,008059,099902,063112,055154,043345,090725,082389
0000000055,0000003600,078478,068323,085018,065123,079225,082325,079643,062948,007989,007844,062949,079552,003599,040698,018171,081587,089220,009937,081928,067928,019740,081928,067928,019740,079552,062949,007844,099825,063643,054583,043402,090256,082874
0000000056,0000003667,078552,068374,084866,065048,079173,082476,078882,063927,007802,007656,063928,078791,003638,040793,017167,081492,089181,010941,081261,068781,019577,081261,068781,019577,078791,063928,007656,099727,064182,054022,043478,089779,083351
0000000057,0000003733,078621,068429,084716,064979,079119,082627,078106,064897,007642,007494,064899,078014,003706,040887,016149,081398,089113,011960,080582,069627,019438,080582,069627,019438,078014,064899,007494,099607,064729,053470,043572,089295,083819
0000000058,0000003800,078685,068486,084567,064916,079061,082776,077316,065858,007510,007359,065860,077223,003804,040979,015116,081306,089015,012992,079890,070464,019322,079890,070464,019322,077223,065860,007359,099465,065284,052930,043686,088805,084278
0000000059,0000003867,078743,068546,084420,064857,079002,082923,076512,066809,007404,007252,066812,076419,003931,041070,014071,081215,088888,014037,079186,071293,019230,079186,071293,019230,076419,066812,007252,099303,065846,052401,043818,088309,084728
0000000060,0000003933,078797,068608,084274,064803,078940,083069,075695,067749,007325,007171,067752,075600,004086,041158,013014,081126,088733,015094,078471,072112,019162,078471,072112,019162,075600,067752,007171,099121,066414,051885,043967,087809,085167
0000000061,0000004000,078846,068672,084130,064754,078876,083213,074864,068678,007274,007118,068681,074769,004270,041246,011945,081039,088549,016163,077744,072920,019118,077744,072920,019118,074769,068681,007118,098918,066987,051380,044135,087304,085596
0000000062,0000004067,078891,068737,083989,064709,078811,083354,074021,069594,007249,007093,069598,073925,004482,041331,010866,080954,088337,017242,077006,073718,019097,077006,073718,019097,073925,069598,007093,098696,067565,050889,044320,086795,086015
0000000063,0000004133,078931,068803,083849,064669,078744,083494,073165,070496,007253,007095,070501,073068,004722,041414,009777,080870,088097,018331,076258,074504,019101,076258,074504,019101,073068,070501,007095,098454,068147,050410,044522,086283,086422
0000000064,0000004200,078967,068871,083712,064634,078677,083631,072297,071386,007283,007124,071390,072200,004988,041496,008680,080789,087830,019428,075499,075278,019128,075499,075278,019128,072200,071390,007124,098194,068733,049946,044741,085769,086817
0000000065,0000004267,078998,068939,083577,064602,078608,083766,071418,072260,007341,007180,072265,071319,005282,041576,007575,080709,087537,020533,074730,076039,019179,074730,076039,019179,071319,072265,007180,097914,069322,049495,044976,085252,087201
