DIgSILENT PowerFactory,20000410,2000
21,21A,00D
1,Cable 634-LV1:Phase Current A/Terminal i,,,A,0.010000000,-722.133484,0.000000,43603,99998,1,1,P
2,Cable 634-LV1:Phase Current B/Terminal i,,,A,0.010000000,-736.150208,0.000000,47549,99998,1,1,P
3,Cable 634-LV1:Phase Current C/Terminal i,,,A,0.010000000,-836.146179,0.000000,67345,99998,1,1,P
4,Cable 634-LV1:Phase Current A/Terminal j,,,A,0.010000000,-713.873047,0.000000,43603,99998,1,1,P
5,Cable 634-LV1:Phase Current B/Terminal j,,,A,0.010000000,-739.320740,0.000000,47550,99998,1,1,P
6,Cable 634-LV1:Phase Current C/Terminal j,,,A,0.010000000,-837.282715,0.000000,67345,99998,1,1,P
7,Cable 634-LV1:Phase Voltage A/Terminal j,,,kV,0.000010000000,-0.533419,0.000000,9014,99998,1,1,P
8,Cable 634-LV1:Phase Voltage B/Terminal j,,,kV,0.000010000000,-0.503145,0.000000,-2092,99998,1,1,P
9,Cable 634-LV1:Phase Voltage C/Terminal j,,,kV,0.000010000000,-0.482215,0.000000,-5489,99998,1,1,P
10,Cable 634-LV1:Phase Voltage C/Terminal i,,,kV,0.000010000000,-0.480684,0.000000,-5817,99998,1,1,P
11,Cable 634-LV1:Phase Voltage B/Terminal i,,,kV,0.000010000000,-0.503401,0.000000,-2184,99998,1,1,P
12,Cable 634-LV1:Phase Voltage A/Terminal i,,,kV,0.000010000000,-0.531558,0.000000,8691,99998,1,1,P
13,LOHL632-633:Phase Current B/Terminal i,,,A,0.010000000,-477.898102,0.000000,-7179,99998,1,1,P
14,LOHL632-633:Phase Current A/Terminal i,,,A,0.10000000,-3837.849121,0.000000,-4546,99998,1,1,P
15,LOHL632-633:Phase Current C/Terminal i,,,A,0.010000000,36.160046,0.000000,-71890,99998,1,1,P
16,LOHL632-633:Phase Current A/Terminal j,,,A,0.10000000,-8390.620117,0.000000,76386,99998,1,1,P
17,LOHL632-633:Phase Current B/Terminal j,,,A,0.010000000,-450.289917,0.000000,-7179,99998,1,1,P
18,LOHL632-633:Phase Current C/Terminal j,,,A,0.010000000,-317.242889,0.000000,-71890,99998,1,1,P
19,LOHL632-633:Phase Voltage A/Terminal j,,,kV,0.00010000000,-5.895045,0.000000,19971,99998,1,1,P
20,LOHL632-633:Phase Voltage B/Terminal j,,,kV,0.00010000000,-5.690151,0.000000,10986,99998,1,1,P
21,LOHL632-633:Phase Voltage C/Terminal j,,,kV,0.00010000000,-5.480200,0.000000,7708,99998,1,1,P
50
1
15000.000000,3001
01/12/2020,15:52:20.000000
01/12/2020,15:52:20.000000
ASCII
1.000000
0000000001,0000000000,069054,072958,088871,074547,074589,078471,088707,015841,047513,047446,015864,088532,037811,035118,039521,087166,055008,-11413,089842,026892,054238
0000000002,0000000067,069170,072842,088928,074431,074705,078415,089181,016374,046489,046422,016396,089010,036764,035195,039819,087090,056055,-11711,090259,027354,053346
0000000003,0000000133,069295,072720,088981,074306,074828,078361,089635,016930,045463,045397,016951,089466,035723,035274,040089,087011,057096,-11981,090656,027836,052453
0000000004,0000000200,069427,072592,089032,074173,074956,078311,090065,017504,044442,044376,017523,089898,034690,035355,040332,086930,058129,-12224,091034,028335,051564
0000000005,0000000267,069568,072458,089078,074033,075089,078264,090469,018104,043421,043356,018121,090306,033664,035438,040547,086847,059155,-12439,091390,028853,050675
0000000006,0000000333,069716,072320,089121,073885,075227,078222,090852,018721,042405,042340,018736,090691,032646,035523,040735,086762,060173,-12627,091727,029388,049790
0000000007,0000000400,069871,072179,089159,073730,075369,078184,091208,019362,041390,041325,019375,091052,031638,035610,040894,086675,061181,-12786,092042,029942,048906
0000000008,0000000467,070033,072034,089192,073568,075514,078150,091543,020018,040382,040316,020030,091390,030639,035698,041026,086586,062180,-12917,092337,030512,048028
0000000009,0000000533,070201,071886,089221,073400,075661,078122,091852,020693,039381,039315,020703,091702,029651,035788,041129,086496,063168,-13021,092610,031098,047154
0000000010,0000000600,070376,071736,089244,073225,075811,078099,092139,021386,038384,038317,021394,091991,028673,035880,041204,086404,064146,-13096,092862,031700,046285
0000000011,0000000667,070556,071585,089261,073044,075962,078081,092399,022098,037394,037327,022105,092255,027708,035974,041251,086311,065111,-13143,093093,032318,045422
0000000012,0000000733,070743,071433,089273,072858,076115,078070,092637,022828,036409,036342,022834,092495,026755,036069,041269,086216,066064,-13161,093301,032953,044563
0000000013,0000000800,070934,071280,089279,072667,076267,078064,092847,023577,035431,035363,023582,092709,025815,036165,041260,086119,067004,-13152,093489,033603,043711
0000000014,0000000867,071130,071127,089278,072471,076420,078064,093035,024338,034466,034397,024341,092900,024888,036263,041222,086021,067930,-13114,093654,034266,042868
0000000015,0000000933,071330,070975,089272,072271,076572,078071,093197,025118,033507,033437,025120,093064,023976,036363,041156,085922,068843,-13048,093797,034944,042031
0000000016,0000001000,071535,070824,089258,072066,076723,078084,093334,025912,032558,032487,025913,093204,023079,036463,041061,085822,069740,-12953,093919,035636,041202
0000000017,0000001067,071743,070674,089239,071858,076874,078103,093423,026677,031597,031526,026677,093296,022197,036565,040939,085720,070622,-12831,093999,036301,040366
0000000018,0000001133,071958,070515,089218,071643,077032,078124,093482,027435,030648,030572,027428,093354,021319,036668,040795,085616,071500,-12687,094048,036949,039533
0000000019,0000001200,072175,070360,089190,071426,077187,078153,093531,028251,029717,029644,028249,093412,020458,036773,040623,085512,072361,-12515,094099,037670,038725
0000000020,0000001267,072394,070210,089154,071206,077338,078188,093571,029109,028808,028733,029105,093453,019613,036878,040423,085407,073206,-12315,094134,038414,037932
0000000021,0000001333,072616,070062,089111,070985,077485,078232,093593,029970,027933,027853,029963,093475,018785,036985,040196,085300,074034,-12088,094151,039162,037161
0000000022,0000001400,072839,069918,089061,070762,077629,078282,093568,030829,027032,026955,030823,093455,017974,037092,039942,085193,074845,-11834,094134,039912,036381
0000000023,0000001467,073063,069778,089005,070537,077770,078338,093528,031695,026167,026087,031688,093417,017180,037201,039661,085084,075639,-11553,094100,040668,035622
0000000024,0000001533,073289,069641,088942,070312,077907,078400,093471,032597,025317,025233,032587,093360,016402,037310,039354,084975,076417,-11245,094048,041448,034877
0000000025,0000001600,073515,069508,088874,070086,078040,078469,093372,033478,024467,024383,033470,093266,015642,037420,039020,084865,077177,-10912,093965,042219,034138
0000000026,0000001667,073741,069379,088799,069859,078169,078543,093249,034377,023632,023548,034369,093146,014899,037531,038661,084754,077920,-10553,093860,043003,033410
0000000027,0000001733,073967,069254,088720,069633,078294,078623,093116,035296,022830,022741,035285,093012,014175,037642,038276,084642,078644,-10168,093740,043801,032705
0000000028,0000001800,074192,069133,088634,069409,078414,078709,092941,036209,022026,021936,036199,092840,013468,037754,037866,084530,079351,-09758,093589,044598,032004
0000000029,0000001867,074415,069018,088543,069185,078529,078799,092743,037135,021235,021144,037124,092645,012781,037867,037431,084418,080038,-09323,093418,045405,031315
0000000030,0000001933,074637,068908,088447,068964,078639,078895,092528,038075,020479,020385,038063,092430,012113,037980,036972,084304,080706,-08864,093227,046223,030651
0000000031,0000002000,074855,068804,088347,068745,078743,078996,092280,039017,019724,019629,039005,092184,011466,038094,036487,084191,081353,-08379,093011,047045,029993
0000000032,0000002067,075071,068706,088241,068530,078841,079101,092004,039961,018989,018892,039950,091910,010839,038207,035979,084077,081980,-07871,092770,047870,029351
0000000033,0000002133,075283,068614,088131,068318,078933,079211,091714,040929,018278,018178,040916,091620,010234,038321,035446,083963,082585,-07338,092514,048712,028729
0000000034,0000002200,075490,068529,088017,068110,079018,079326,091391,041892,017582,017480,041880,091299,009651,038435,034890,083849,083168,-06782,092231,049554,028120
0000000035,0000002267,075693,068451,087898,067907,079097,079444,091042,042861,016899,016796,042850,090952,009091,038549,034310,083735,083728,-06202,091926,050400,027525
0000000036,0000002333,075892,068379,087776,067709,079168,079567,090674,043842,016245,016139,043831,090584,008554,038663,033706,083622,084265,-05598,091602,051255,026952
0000000037,0000002400,076084,068315,087650,067516,079233,079693,090279,044825,015605,015496,044813,090190,008042,038777,033080,083508,084777,-04972,091256,052112,026392
0000000038,0000002467,076272,068257,087521,067329,079290,079822,089858,045810,014981,014871,045799,089770,007554,038890,032430,083394,085265,-04322,090887,052972,025849
0000000039,0000002533,076453,068207,087389,067147,079341,079954,089418,046802,014385,014272,046792,089329,007092,039003,031758,083281,085727,-03650,090499,053838,025326
0000000040,0000002600,076628,068163,087254,066972,079384,080089,088953,047798,013806,013691,047788,088865,006655,039116,031064,083169,086164,-02956,090091,054707,024821
0000000041,0000002667,076798,068127,087116,066803,079421,080227,088466,048798,013249,013133,048789,088379,006245,039228,030348,083057,086574,-02240,089664,055581,024335
0000000042,0000002733,076960,068098,086975,066640,079449,080367,087966,049818,012722,012603,049809,087879,005862,039340,029610,082945,086957,-01502,089225,056471,023873
0000000043,0000002800,077116,068078,086832,066484,079470,080511,087442,050835,012215,012094,050826,087355,005509,039450,028850,082834,087310,-00742,088765,057358,023430
0000000044,0000002867,077265,068065,086686,066335,079483,080656,086895,051849,011727,011604,051842,086808,005184,039560,028068,082724,087635,000040,088285,058244,023005
0000000045,0000002933,077408,068058,086539,066193,079489,080803,086327,052864,011265,011139,052857,086240,004889,039669,027265,082615,087930,000843,087787,059130,022600
0000000046,0000003000,077543,068059,086390,066057,079489,080952,085744,053887,010828,010701,053881,085656,004623,039777,026442,082507,088196,001666,087274,060023,022218
0000000047,0000003067,077673,068066,086240,065928,079482,081103,085139,054909,010414,010284,054903,085051,004387,039885,025598,082400,088432,002510,086744,060915,021856
0000000048,0000003133,077795,068080,086088,065805,079468,081254,084515,055927,010024,009892,055923,084427,004182,039991,024734,082294,088637,003374,086197,061804,021516
0000000049,0000003200,077911,068099,085936,065689,079448,081407,083872,056944,009658,009524,056940,083784,004007,040096,023850,082189,088812,004258,085633,062691,021196
0000000050,0000003267,078021,068125,085783,065580,079423,081560,083210,057956,009316,009181,057953,083121,003863,040199,022948,082085,088956,005160,085053,063574,020898
0000000051,0000003333,078124,068155,085629,065476,079392,081713,082530,058965,008999,008862,058963,082441,003749,040302,022027,081983,089070,006081,084457,064455,020621
0000000052,0000003400,078221,068191,085476,065379,079357,081867,081833,059969,008708,008569,059968,081744,003666,040403,021088,081882,089153,007020,083846,065331,020367
0000000053,0000003467,078313,068231,085323,065288,079317,082020,081119,060969,008442,008301,060968,081029,003613,040503,020132,081782,089206,007976,083220,066202,020135
0000000054,0000003533,078398,068275,085170,065202,079273,082173,080389,061961,008202,008059,061961,080299,003591,040601,019160,081684,089228,008949,082581,067068,019926
0000000055,0000003600,078478,068323,085018,065123,079225,082325,079643,062948,007989,007844,062949,079552,003599,040698,018171,081587,089220,009937,081928,067928,019740
0000000056,0000003667,078552,068374,084866,065048,079173,082476,078882,063927,007802,007656,063928,078791,003638,040793,017167,081492,089181,010941,081261,068781,019577
0000000057,0000003733,078621,068429,084716,064979,079119,082627,078106,064897,007642,007494,064899,078014,003706,040887,016149,081398,089113,011960,080582,069627,019438
0000000058,0000003800,078685,068486,084567,064916,079061,082776,077316,065858,007510,007359,065860,077223,003804,040979,015116,081306,089015,012992,079890,070464,019322
0000000059,0000003867,078743,068546,084420,064857,079002,082923,076512,066809,007404,007252,066812,076419,003931,041070,014071,081215,088888,014037,079186,071293,019230
0000000060,0000003933,078797,068608,084274,064803,078940,083069,075695,067749,007325,007171,067752,075600,004086,041158,013014,081126,088733,015094,078471,072112,019162
0000000061,0000004000,078846,068672,084130,064754,078876,083213,074864,068678,007274,007118,068681,074769,004270,041246,011945,081039,088549,016163,077744,072920,019118
0000000062,0000004067,078891,068737,083989,064709,078811,083354,074021,069594,007249,007093,069598,073925,004482,041331,010866,080954,088337,017242,077006,073718,019097
0000000063,0000004133,078931,068803,083849,064669,078744,083494,073165,070496,007253,007095,070501,073068,004722,041414,009777,080870,088097,018331,076258,074504,019101
0000000064,0000004200,078967,068871,083712,064634,078677,083631,072297,071386,007283,007124,071390,072200,004988,041496,008680,080789,087830,019428,075499,075278,019128
0000000065,0000004267,078998,068939,083577,064602,078608,083766,071418,072260,007341,007180,072265,071319,005282,041576,007575,080709,087537,020533,074730,076039,019179
0000000066,0000004333,079025,069008,083445,064575,078539,083898,070527,073120,007426,007264,073126,070428,005601,041654,006464,080631,087218,021645,073951,076788,019254
0000000067,0000004400,079048,069078,083316,064552,078469,084027,069625,073964,007538,007374,073970,069525,005946,041729,005346,080555,086873,022762,073162,077522,019352
0000000068,0000004467,079067,069148,083190,064533,078399,084153,068713,074792,007676,007511,074798,068611,006316,041803,004224,080481,086503,023885,072364,078243,019473
0000000069,0000004533,079082,069220,083065,064519,078328,084278,067799,075623,007849,007682,075629,067697,006712,041875,003097,080410,086107,025011,071565,078966,019624
0000000070,0000004600,079091,069293,082943,064509,078254,084400,066875,076436,008047,007879,076443,066771,007134,041944,001966,080340,085685,026142,070757,079674,019797
0000000071,0000004667,079097,069369,082822,064504,078178,084521,065946,077242,008275,008105,077250,065841,007583,042011,000832,080273,085236,027277,069944,080377,019996
0000000072,0000004733,079097,069448,082703,064503,078099,084640,065007,078030,008527,008357,078039,064901,008058,042076,-00305,080209,084761,028414,069123,081064,020217
0000000073,0000004800,079092,069529,082586,064508,078018,084757,064058,078801,008804,008632,078810,063951,008560,042138,-01444,080146,084259,029553,068294,081736,020458
0000000074,0000004867,079083,069613,082471,064517,077934,084872,063101,079553,009106,008932,079564,062992,009088,042198,-02584,080087,083731,030693,067456,082392,020721
0000000075,0000004933,079069,069700,082357,064531,077848,084986,062135,080289,009431,009256,080300,062024,009642,042255,-03725,080029,083177,031833,066611,083032,021005
0000000076,0000005000,079050,069789,082245,064550,077759,085098,061161,081006,009780,009604,081017,061049,010223,042310,-04865,079975,082596,032974,065760,083657,021309
0000000077,0000005067,079026,069880,082135,064574,077667,085208,060178,081700,010149,009972,081712,060065,010830,042362,-06005,079923,081989,034113,064900,084262,021631
0000000078,0000005133,078998,069975,082026,064602,077573,085317,059188,082373,010541,010362,082387,059073,011462,042411,-07143,079874,081357,035251,064034,084849,021973
0000000079,0000005200,078965,070071,081918,064635,077476,085425,058193,083028,010956,010776,083043,058076,012121,042457,-08278,079827,080698,036387,063164,085420,022334
0000000080,0000005267,078928,070171,081811,064672,077377,085532,057194,083664,011393,011211,083680,057075,012804,042501,-09411,079784,080015,037520,062290,085975,022715
0000000081,0000005333,078886,070273,081706,064714,077274,085638,056191,084280,011852,011669,084296,056071,013514,042541,-10541,079743,079305,038649,061414,086512,023115
0000000082,0000005400,078840,070378,081600,064760,077169,085743,055186,084875,012333,012148,084893,055064,014248,042579,-11667,079706,078570,039776,060535,087031,023533
0000000083,0000005467,078791,070486,081496,064810,077061,085847,054179,085448,012835,012649,085466,054056,015008,042614,-12789,079671,077811,040898,059655,087530,023970
0000000084,0000005533,078737,070596,081391,064863,076951,085952,053172,085998,013358,013170,086017,053047,015792,042646,-13906,079639,077027,042015,058775,088010,024424
0000000085,0000005600,078681,070709,081288,064920,076838,086056,052165,086524,013901,013711,086544,052038,016600,042675,-15018,079610,076219,043127,057895,088468,024897
0000000086,0000005667,078621,070823,081184,064979,076724,086159,051158,087025,014464,014273,087045,051030,017432,042701,-16125,079584,075387,044233,057016,088904,025387
0000000087,0000005733,078559,070939,081081,065041,076608,086262,050153,087500,015047,014854,087521,050023,018285,042724,-17225,079561,074534,045333,056138,089318,025894
0000000088,0000005800,078495,071056,080979,065106,076492,086364,049149,087943,015647,015453,087965,049017,019160,042744,-18318,079540,073659,046426,055261,089703,026416
0000000089,0000005867,078429,071172,080877,065171,076375,086466,048144,088351,016264,016069,088374,048011,020054,042762,-19402,079523,072765,047511,054384,090058,026953
0000000090,0000005933,078362,071288,080777,065238,076260,086566,047144,088732,016900,016703,088755,047010,020965,042777,-20478,079508,071854,048586,053511,090388,027507
0000000091,0000006000,078294,071402,080678,065306,076145,086665,046149,089083,017555,017357,089106,046013,021894,042789,-21544,079496,070925,049652,052643,090693,028077
0000000092,0000006067,078226,071515,080580,065375,076033,086763,045160,089405,018229,018029,089428,045022,022838,042799,-22599,079486,069981,050708,051779,090971,028663
0000000093,0000006133,078157,071626,080483,065443,075921,086860,044176,089696,018920,018718,089719,044037,023796,042806,-23643,079479,069023,051752,050921,091222,029264
0000000094,0000006200,078088,071734,080389,065513,075813,086955,043195,089947,019625,019423,089970,043054,024766,042810,-24675,079474,068053,052783,050065,091439,029878
0000000095,0000006267,078019,071839,080296,065582,075708,087047,042221,090169,020349,020145,090192,042079,025746,042812,-25693,079472,067073,053801,049215,091629,030508
0000000096,0000006333,077950,071942,080205,065651,075606,087138,041255,090361,021091,020885,090383,041111,026735,042812,-26696,079473,066083,054804,048373,091793,031153
0000000097,0000006400,077881,072041,080117,065720,075506,087227,040297,090522,021849,021642,090544,040152,027733,042809,-27684,079475,065086,055792,047537,091931,031813
0000000098,0000006467,077811,072137,080030,065789,075410,087313,039347,090653,022624,022416,090675,039201,028736,042804,-28655,079480,064082,056764,046709,092042,032488
0000000099,0000006533,077741,072230,079946,065859,075317,087397,038405,090754,023415,023206,090775,038257,029746,042797,-29609,079488,063073,057717,045887,092128,033177
0000000100,0000006600,077670,072321,079865,065930,075226,087478,037472,090824,024221,024011,090846,037322,030759,042787,-30544,079498,062060,058653,045072,092186,033879
0000000101,0000006667,077598,072409,079786,066002,075138,087557,036547,090866,025043,024831,090887,036395,031776,042775,-31460,079510,061043,059569,044265,092220,034594
0000000102,0000006733,077525,072496,079710,066075,075051,087633,035629,090878,025878,025666,090899,035476,032795,042761,-32356,079524,060024,060464,043464,092228,035321
0000000103,0000006800,077449,072581,079636,066151,074966,087707,034721,090862,026727,026514,090883,034566,033816,042744,-33230,079541,059003,061339,042671,092213,036061
0000000104,0000006867,077371,072665,079566,066229,074882,087778,033822,090820,027590,027375,090841,033664,034838,042725,-34082,079560,057981,062191,041885,092174,036811
