DIgSILENT PowerFactory,20000410,2000
33,33A,00D
1,Cable 634-LV1:Phase Current A/Terminal i,,,A,0.000000,-0.000000,0.000000,0,0,1,1,P
2,Cable 634-LV1:Phase Current B/Terminal i,,,A,0.000000,-0.000000,0.000000,0,0,1,1,P
3,Cable 634-LV1:Phase Current C/Terminal i,,,A,0.000000,-0.000000,0.000000,0,0,1,1,P
4,Cable 634-LV1:Phase Current A/Terminal j,,,A,0.000000,-0.000000,0.000000,0,0,1,1,P
5,Cable 634-LV1:Phase Current B/Terminal j,,,A,0.000000,-0.000000,0.000000,0,0,1,1,P
6,Cable 634-LV1:Phase Current C/Terminal j,,,A,0.000000,-0.000000,0.000000,0,0,1,1,P
7,Cable 634-LV1:Phase Voltage A/Terminal j,,,kV,0.000000,-0.000000,0.000000,0,0,1,1,P
8,Cable 634-LV1:Phase Voltage B/Terminal j,,,kV,0.000000,-0.000000,0.000000,0,0,1,1,P
9,Cable 634-LV1:Phase Voltage C/Terminal j,,,kV,0.000000,-0.000000,0.000000,0,0,1,1,P
10,Cable 634-LV1:Phase Voltage C/Terminal i,,,kV,0.000000,-0.000000,0.000000,0,0,1,1,P
11,Cable 634-LV1:Phase Voltage B/Terminal i,,,kV,0.000000,-0.000000,0.000000,0,0,1,1,P
12,Cable 634-LV1:Phase Voltage A/Terminal i,,,kV,0.000000,-0.000000,0.000000,0,0,1,1,P
13,LOHL632-633:Phase Current B/Terminal i,,,A,0.0010000000,-81.085541,0.000000,30629,99998,1,1,P
14,LOHL632-633:Phase Current A/Terminal i,,,A,0.10000000,-3287.678467,0.000000,-12160,99998,1,1,P
15,LOHL632-633:Phase Current C/Terminal i,,,A,0.0010000000,-72.829819,0.000000,5133,99998,1,1,P
16,LOHL632-633:Phase Current A/Terminal j,,,A,0.0010000000,-54.069778,0.000000,29247,99998,1,1,P
17,LOHL632-633:Phase Current B/Terminal j,,,A,0.0010000000,-49.538845,0.000000,30625,99998,1,1,P
18,LOHL632-633:Phase Current C/Terminal j,,,A,0.0010000000,-32.299446,0.000000,5130,99998,1,1,P
19,LOHL632-633:Phase Voltage A/Terminal j,,,kV,0.00010000000,-5.095621,0.000000,11648,99998,1,1,P
20,LOHL632-633:Phase Voltage B/Terminal j,,,kV,0.00010000000,-5.643678,0.000000,9912,99998,1,1,P
21,LOHL632-633:Phase Voltage C/Terminal j,,,kV,0.00010000000,-5.597428,0.000000,10403,99998,1,1,P
22,XFM-1:Phase Voltage A/HV-Side,,,kV,0.00010000000,-5.095621,0.000000,11648,99998,1,1,P
23,XFM-1:Phase Voltage B/HV-Side,,,kV,0.00010000000,-5.643678,0.000000,9912,99998,1,1,P
24,XFM-1:Phase Voltage C/HV-Side,,,kV,0.00010000000,-5.597428,0.000000,10403,99998,1,1,P
25,XFM-1:Phase Voltage A/LV-Side,,,kV,0.000010000000,-0.437286,0.000000,-1313,99998,1,1,P
26,XFM-1:Phase Voltage B/LV-Side,,,kV,0.000010000000,-0.498683,0.000000,-3469,99998,1,1,P
27,XFM-1:Phase Voltage C/LV-Side,,,kV,0.000010000000,-0.494891,0.000000,-2825,99998,1,1,P
28,XFM-1:Phase Current A/HV-Side,,,A,0.0010000000,-75.175438,0.000000,29247,99998,1,1,P
29,XFM-1:Phase Current B/HV-Side,,,A,0.0010000000,-81.084381,0.000000,30625,99998,1,1,P
30,XFM-1:Phase Current C/HV-Side,,,A,0.0010000000,-72.828568,0.000000,5130,99998,1,1,P
31,XFM-1:Phase Current A/LV-Side,,,A,0.010000000,-779.838928,0.000000,56579,99998,1,1,P
32,XFM-1:Phase Current B/LV-Side,,,A,0.010000000,-807.134155,0.000000,61669,99998,1,1,P
33,XFM-1:Phase Current C/LV-Side,,,A,0.010000000,-811.322449,0.000000,62319,99998,1,1,P
50
1
15000.000000,3001
09/12/2020,11:58:55.000000
09/12/2020,11:58:55.000000
ASCII
1.000000
0000000001,0000000000,000000,000000,000000,000000,000000,000000,000000,000000,000000,000000,000000,000000,062349,032978,084682,043973,068276,020445,082959,023541,057108,082959,023541,057108,080430,012015,050861,085272,062347,084683,069338,097057,070963
0000000002,0000000067,000000,000000,000000,000000,000000,000000,000000,000000,000000,000000,000000,000000,062290,032983,084312,043406,068335,020815,083442,024008,056150,083442,024008,056150,080987,012550,049760,085839,062288,084313,068849,097110,071286
0000000003,0000000133,000000,000000,000000,000000,000000,000000,000000,000000,000000,000000,000000,000000,062243,032989,083934,042847,068382,021193,083905,024495,055192,083905,024495,055192,081521,013109,048659,086399,062241,083935,068365,097153,071614
0000000004,0000000200,000000,000000,000000,000000,000000,000000,000000,000000,000000,000000,000000,000000,062208,032995,083550,042294,068418,021577,084347,025003,054235,084347,025003,054235,082031,013690,047559,086952,062205,083551,067888,097185,071949
0000000005,0000000267,000000,000000,000000,000000,000000,000000,000000,000000,000000,000000,000000,000000,062184,033000,083159,041748,068441,021968,084768,025530,053279,084768,025530,053279,082516,014295,046460,087497,062182,083160,067417,097207,072290
0000000006,0000000333,000000,000000,000000,000000,000000,000000,000000,000000,000000,000000,000000,000000,062173,033005,082761,041211,068453,022366,085168,026077,052325,085168,026077,052325,082978,014923,045362,088035,062171,082762,066952,097218,072636
0000000007,0000000400,000000,000000,000000,000000,000000,000000,000000,000000,000000,000000,000000,000000,062173,033011,082357,040681,068452,022770,085546,026643,051373,085546,026643,051373,083414,015572,044268,088564,062171,082358,066495,097219,072988
0000000008,0000000467,000000,000000,000000,000000,000000,000000,000000,000000,000000,000000,000000,000000,062186,033016,081947,040160,068440,023180,085902,027228,050424,085902,027228,050424,083825,016243,043176,089085,062184,081948,066044,097210,073344
0000000009,0000000533,000000,000000,000000,000000,000000,000000,000000,000000,000000,000000,000000,000000,062210,033021,081531,039648,068415,023596,086236,027831,049478,086236,027831,049478,084212,016935,042089,089597,062208,081532,065602,097190,073706
0000000010,0000000600,000000,000000,000000,000000,000000,000000,000000,000000,000000,000000,000000,000000,062247,033026,081110,039145,068379,024017,086548,028452,048537,086548,028452,048537,084572,017648,041006,090101,062244,081111,065167,097160,074072
0000000011,0000000667,000000,000000,000000,000000,000000,000000,000000,000000,000000,000000,000000,000000,062295,033031,080683,038651,068331,024444,086837,029091,047600,086837,029091,047600,084907,018381,039928,090594,062292,080684,064740,097119,074443
0000000012,0000000733,000000,000000,000000,000000,000000,000000,000000,000000,000000,000000,000000,000000,062355,033036,080252,038167,068271,024875,087104,029748,046668,087104,029748,046668,085215,019135,038857,091078,062352,080253,064322,097068,074818
0000000013,0000000800,000000,000000,000000,000000,000000,000000,000000,000000,000000,000000,000000,000000,062427,033041,079816,037693,068199,025311,087348,030421,045743,087348,030421,045743,085498,019907,037792,091552,062424,079817,063912,097007,075197
0000000014,0000000867,000000,000000,000000,000000,000000,000000,000000,000000,000000,000000,000000,000000,062511,033045,079375,037229,068115,025752,087569,031111,044824,087569,031111,044824,085754,020699,036735,092016,062508,079376,063511,096935,075580
0000000015,0000000933,000000,000000,000000,000000,000000,000000,000000,000000,000000,000000,000000,000000,062606,033050,078930,036776,068020,026197,087766,031816,043911,087766,031816,043911,085984,021509,035686,092469,062603,078931,063119,096853,075966
0000000016,0000001000,000000,000000,000000,000000,000000,000000,000000,000000,000000,000000,000000,000000,062713,033054,078482,036334,067913,026645,087941,032537,043007,087941,032537,043007,086186,022337,034645,092911,062710,078483,062737,096761,076356
0000000017,0000001067,000000,000000,000000,000000,000000,000000,000000,000000,000000,000000,000000,000000,062832,033058,078030,035904,067794,027098,088092,033273,042111,088092,033273,042111,086363,023182,033614,093342,062829,078030,062364,096659,076748
0000000018,0000001133,000000,000000,000000,000000,000000,000000,000000,000000,000000,000000,000000,000000,062962,033063,077574,035484,067664,027553,088220,034024,041223,088220,034024,041223,086512,024044,032593,093761,062959,077575,062001,096547,077144
0000000019,0000001200,000000,000000,000000,000000,000000,000000,000000,000000,000000,000000,000000,000000,063104,033067,077116,035077,067522,028012,088324,034789,040345,088324,034789,040345,086634,024923,031583,094169,063101,077116,061649,096425,077541
0000000020,0000001267,000000,000000,000000,000000,000000,000000,000000,000000,000000,000000,000000,000000,063257,033071,076655,034681,067369,028473,088404,035568,039476,088404,035568,039476,086729,025817,030583,094564,063254,076655,061306,096292,077942
0000000021,0000001333,000000,000000,000000,000000,000000,000000,000000,000000,000000,000000,000000,000000,063421,033075,076191,034298,067205,028936,088461,036360,038619,088461,036360,038619,086797,026726,029596,094948,063418,076192,060974,096150,078344
0000000022,0000001400,000000,000000,000000,000000,000000,000000,000000,000000,000000,000000,000000,000000,063596,033078,075725,033927,067030,029402,088494,037164,037771,088494,037164,037771,086838,027650,028622,095319,063594,075726,060653,095999,078748
0000000023,0000001467,000000,000000,000000,000000,000000,000000,000000,000000,000000,000000,000000,000000,063783,033082,075258,033568,066843,029869,088504,037981,036936,088504,037981,036936,086851,028588,027660,095677,063780,075259,060343,095837,079153
0000000024,0000001533,000000,000000,000000,000000,000000,000000,000000,000000,000000,000000,000000,000000,063980,033085,074789,033223,066646,030339,088490,038809,036113,088490,038809,036113,086837,029540,026712,096022,063977,074789,060044,095666,079560
0000000025,0000001600,000000,000000,000000,000000,000000,000000,000000,000000,000000,000000,000000,000000,064189,033089,074319,032891,066438,030809,088451,039649,035302,088451,039649,035302,086796,030504,025779,096354,064186,074319,059756,095486,079967
0000000026,0000001667,000000,000000,000000,000000,000000,000000,000000,000000,000000,000000,000000,000000,064408,033092,073847,032572,066219,031280,088390,040499,034504,088390,040499,034504,086728,031481,024861,096673,064405,073848,059480,095296,080376
0000000027,0000001733,000000,000000,000000,000000,000000,000000,000000,000000,000000,000000,000000,000000,064637,033095,073376,032267,065989,031752,088305,041359,033719,088305,041359,033719,086632,032469,023958,096978,064634,073376,059215,095097,080784
0000000028,0000001800,000000,000000,000000,000000,000000,000000,000000,000000,000000,000000,000000,000000,064877,033098,072903,031976,065749,032224,088196,042229,032949,088196,042229,032949,086510,033468,023072,097269,064874,072904,058962,094889,081193
0000000029,0000001867,000000,000000,000000,000000,000000,000000,000000,000000,000000,000000,000000,000000,065127,033100,072431,031699,065499,032697,088063,043108,032193,088063,043108,032193,086360,034478,022202,097547,065124,072431,058722,094672,081602
0000000030,0000001933,000000,000000,000000,000000,000000,000000,000000,000000,000000,000000,000000,000000,065387,033103,071959,031435,065239,033169,087907,043995,031453,087907,043995,031453,086184,035497,021349,097810,065384,071959,058493,094446,082011
0000000031,0000002000,000000,000000,000000,000000,000000,000000,000000,000000,000000,000000,000000,000000,065657,033106,071488,031186,064969,033640,087728,044890,030728,087728,044890,030728,085981,036525,020514,098059,065654,071488,058277,094212,082419
0000000032,0000002067,000000,000000,000000,000000,000000,000000,000000,000000,000000,000000,000000,000000,065937,033108,071017,030952,064689,034111,087526,045792,030018,087526,045792,030018,085751,037562,019697,098293,065934,071017,058073,093969,082827
0000000033,0000002133,000000,000000,000000,000000,000000,000000,000000,000000,000000,000000,000000,000000,066226,033110,070548,030732,064400,034580,087300,046701,029325,087300,046701,029325,085494,038607,018900,098513,066223,070548,057882,093717,083233
0000000034,0000002200,000000,000000,000000,000000,000000,000000,000000,000000,000000,000000,000000,000000,066525,033112,070080,030527,064101,035048,087052,047616,028649,087052,047616,028649,085211,039658,018121,098718,066522,070080,057704,093458,083638
0000000035,0000002267,000000,000000,000000,000000,000000,000000,000000,000000,000000,000000,000000,000000,066833,033114,069613,030337,063793,035515,086781,048537,027991,086781,048537,027991,084902,040716,017362,098909,066830,069613,057538,093190,084041
0000000036,0000002333,000000,000000,000000,000000,000000,000000,000000,000000,000000,000000,000000,000000,067150,033116,069149,030161,063476,035979,086487,049463,027350,086487,049463,027350,084567,041780,016624,099084,067147,069149,057385,092914,084443
0000000037,0000002400,000000,000000,000000,000000,000000,000000,000000,000000,000000,000000,000000,000000,067476,033117,068687,030001,063151,036441,086170,050393,026727,086170,050393,026727,084206,042849,015906,099244,067472,068687,057245,092631,084842
0000000038,0000002467,000000,000000,000000,000000,000000,000000,000000,000000,000000,000000,000000,000000,067810,033119,068228,029856,062816,036900,085832,051327,026122,085832,051327,026122,083820,043923,015210,099389,067807,068228,057119,092340,085239
0000000039,0000002533,000000,000000,000000,000000,000000,000000,000000,000000,000000,000000,000000,000000,068153,033120,067772,029726,062474,037357,085471,052264,025536,085471,052264,025536,083408,045000,014535,099519,068150,067771,057005,092042,085634
0000000040,0000002600,000000,000000,000000,000000,000000,000000,000000,000000,000000,000000,000000,000000,068504,033121,067318,029612,062123,037810,085089,053204,024970,085089,053204,024970,082971,046080,013882,099633,068500,067318,056905,091737,086026
0000000041,0000002667,000000,000000,000000,000000,000000,000000,000000,000000,000000,000000,000000,000000,068863,033122,066869,029513,061764,038260,084685,054145,024423,084685,054145,024423,082509,047163,013252,099732,068859,066868,056818,091425,086414
0000000042,0000002733,000000,000000,000000,000000,000000,000000,000000,000000,000000,000000,000000,000000,069229,033123,066423,029430,061397,038706,084260,055089,023896,084260,055089,023896,082023,048247,012645,099815,069226,066422,056744,091106,086799
0000000043,0000002800,000000,000000,000000,000000,000000,000000,000000,000000,000000,000000,000000,000000,069603,033124,065981,029362,061023,039148,083813,056033,023389,083813,056033,023389,081513,049332,012061,099883,069600,065980,056684,090780,087181
0000000044,0000002867,000000,000000,000000,000000,000000,000000,000000,000000,000000,000000,000000,000000,069985,033124,065543,029310,060642,039585,083346,056977,022903,083346,056977,022903,080979,050418,011501,099935,069981,065543,056638,090448,087559
0000000045,0000002933,000000,000000,000000,000000,000000,000000,000000,000000,000000,000000,000000,000000,070373,033125,065110,029273,060254,040018,082859,057921,022438,082859,057921,022438,080421,051504,010964,099972,070370,065110,056604,090110,087933
0000000046,0000003000,000000,000000,000000,000000,000000,000000,000000,000000,000000,000000,000000,000000,070768,033125,064682,029252,059859,040446,082351,058864,021994,082351,058864,021994,079840,052588,010452,099993,070765,064682,056585,089766,088302
0000000047,0000003067,000000,000000,000000,000000,000000,000000,000000,000000,000000,000000,000000,000000,071170,033125,064259,029247,059457,040869,081824,059806,021571,081824,059806,021571,079237,053671,009965,099998,071166,064259,056579,089417,088667
0000000048,0000003133,000000,000000,000000,000000,000000,000000,000000,000000,000000,000000,000000,000000,071578,033125,063842,029258,059049,041287,081277,060745,021171,081277,060745,021171,078610,054751,009502,099987,071574,063841,056586,089061,089027
0000000049,0000003200,000000,000000,000000,000000,000000,000000,000000,000000,000000,000000,000000,000000,071991,033125,063430,029284,058635,041699,080711,061682,020792,080711,061682,020792,077962,055828,009065,099961,071988,063429,056607,088701,089382
0000000050,0000003267,000000,000000,000000,000000,000000,000000,000000,000000,000000,000000,000000,000000,072411,033124,063024,029326,058215,042105,080126,062615,020435,080126,062615,020435,077293,056901,008653,099920,072408,063023,056641,088335,089732
0000000051,0000003333,000000,000000,000000,000000,000000,000000,000000,000000,000000,000000,000000,000000,072836,033124,062624,029383,057790,042505,079522,063545,020101,079522,063545,020101,076602,057970,008268,099862,072833,062623,056689,087965,090077
0000000052,0000003400,000000,000000,000000,000000,000000,000000,000000,000000,000000,000000,000000,000000,073266,033123,062231,029456,057360,042898,078901,064470,019789,078901,064470,019789,075890,059034,007908,099789,073263,062230,056750,087590,090416
0000000053,0000003467,000000,000000,000000,000000,000000,000000,000000,000000,000000,000000,000000,000000,073702,033122,061844,029545,056925,043285,078262,065390,019501,078262,065390,019501,075158,060092,007574,099701,073698,061843,056825,087211,090749
0000000054,0000003533,000000,000000,000000,000000,000000,000000,000000,000000,000000,000000,000000,000000,074142,033121,061465,029649,056485,043664,077606,066304,019235,077606,066304,019235,074406,061144,007267,099597,074138,061464,056913,086827,091076
0000000055,0000003600,000000,000000,000000,000000,000000,000000,000000,000000,000000,000000,000000,000000,074586,033120,061092,029768,056041,044037,076932,067212,018993,076932,067212,018993,073635,062188,006987,099477,074583,061091,057014,086440,091397
0000000056,0000003667,000000,000000,000000,000000,000000,000000,000000,000000,000000,000000,000000,000000,075034,033118,060727,029903,055592,044402,076243,068113,018773,076243,068113,018773,072845,063225,006733,099342,075031,060726,057129,086049,091711
0000000057,0000003733,000000,000000,000000,000000,000000,000000,000000,000000,000000,000000,000000,000000,075487,033117,060370,030053,055140,044759,075537,069007,018578,075537,069007,018578,072036,064253,006507,099192,075483,060369,057257,085655,092018
0000000058,0000003800,000000,000000,000000,000000,000000,000000,000000,000000,000000,000000,000000,000000,075942,033115,060020,030218,054684,045109,074816,069893,018406,074816,069893,018406,071210,065272,006307,099027,075939,060019,057398,085258,092319
0000000059,0000003867,000000,000000,000000,000000,000000,000000,000000,000000,000000,000000,000000,000000,076401,033113,059679,030399,054225,045451,074080,070771,018258,074080,070771,018258,070366,066281,006135,098847,076398,059677,057552,084858,092613
0000000060,0000003933,000000,000000,000000,000000,000000,000000,000000,000000,000000,000000,000000,000000,076863,033112,059346,030594,053763,045784,073330,071639,018133,073330,071639,018133,069505,067280,005990,098651,076860,059344,057718,084455,092899
0000000061,0000004000,000000,000000,000000,000000,000000,000000,000000,000000,000000,000000,000000,000000,077328,033109,059021,030804,053298,046108,072565,072498,018033,072565,072498,018033,068628,068268,005873,098441,077325,059020,057898,084050,093178
0000000062,0000004067,000000,000000,000000,000000,000000,000000,000000,000000,000000,000000,000000,000000,077795,033107,058705,031029,052831,046424,071786,073346,017956,071786,073346,017956,067736,069245,005783,098216,077792,058704,058090,083642,093449
0000000063,0000004133,000000,000000,000000,000000,000000,000000,000000,000000,000000,000000,000000,000000,078264,033105,058398,031268,052362,046731,070995,074184,017904,070995,074184,017904,066828,070209,005721,097977,078261,058397,058295,083233,093713
0000000064,0000004200,000000,000000,000000,000000,000000,000000,000000,000000,000000,000000,000000,000000,078735,033102,058100,031522,051891,047029,070190,075011,017875,070190,075011,017875,065906,071160,005687,097723,078732,058099,058512,082822,093968
0000000065,0000004267,000000,000000,000000,000000,000000,000000,000000,000000,000000,000000,000000,000000,079207,033100,057812,031790,051419,047318,069374,075826,017871,069374,075826,017871,064969,072098,005680,097455,079204,057810,058742,082410,094216
0000000066,0000004333,000000,000000,000000,000000,000000,000000,000000,000000,000000,000000,000000,000000,079681,033097,057533,032072,050945,047597,068546,076629,017890,068546,076629,017890,064019,073022,005701,097173,079678,057531,058984,081997,094455
