DIgSILENT PowerFactory,20000410,2000
15,15A,00D
1,LOHL632-633:Phase Voltage A/Terminal j,,,kV,0.00010000000,-5.882751,0.000000,23039,99998,1,1,P
2,LOHL632-633:Phase Voltage B/Terminal j,,,kV,0.00010000000,-5.918225,0.000000,15551,99998,1,1,P
3,LOHL632-633:Phase Voltage C/Terminal j,,,kV,0.00010000000,-6.009560,0.000000,20064,99998,1,1,P
4,LOHL632-633:Phase Current A/Terminal i,,,A,0.10000000,-3470.898193,0.000000,-10242,99998,1,1,P
5,LOHL632-633:Phase Current B/Terminal i,,,A,0.010000000,-914.361023,0.000000,79856,99998,1,1,P
6,LOHL632-633:Phase Current C/Terminal i,,,A,0.010000000,-892.588928,0.000000,75022,99998,1,1,P
7,LOHL632-633:Phase Current A/Terminal j,,,A,0.010000000,-875.204407,0.000000,76065,99998,1,1,P
8,LOHL632-633:Phase Current B/Terminal j,,,A,0.010000000,-884.172546,0.000000,79855,99998,1,1,P
9,LOHL632-633:Phase Current C/Terminal j,,,A,0.010000000,-857.611023,0.000000,75022,99998,1,1,P
10,XFM-1:Phase Voltage A/LV-Side,,,kV,0.000010000000,-0.539309,0.000000,13638,99998,1,1,P
11,XFM-1:Phase Voltage B/LV-Side,,,kV,0.000010000000,-0.536695,0.000000,4314,99998,1,1,P
12,XFM-1:Phase Voltage C/LV-Side,,,kV,0.000010000000,-0.548768,0.000000,9782,99998,1,1,P
13,XFM-1:Phase Current C/LV-Side,,,A,0.010000000,-118.491066,0.000000,-77642,99998,1,1,P
14,XFM-1:Phase Current B/LV-Side,,,A,0.010000000,-148.967529,0.000000,-69279,99998,1,1,P
15,XFM-1:Phase Current A/LV-Side,,,A,0.10000000,-9000.982422,0.000000,79991,99998,1,1,P
50
1
15000.000000,3001
01/12/2020,16:26:15.000000
01/12/2020,16:26:15.000000
ASCII
1.000000
0000000001,0000000000,086766,026755,063582,035076,083058,095275,083854,096796,079745,085139,016762,059157,-40868,086932,086775
0000000002,0000000067,087261,027161,062721,035103,083017,095108,083583,096836,079912,085706,017216,058182,-39432,087272,086539
0000000003,0000000133,087743,027582,061859,035130,082981,094938,083314,096873,080082,086258,017686,057207,-37971,087578,086305
0000000004,0000000200,088211,028018,060996,035156,082948,094766,083047,096905,080254,086795,018174,056229,-36487,087850,086072
0000000005,0000000267,088651,028484,060132,035183,082924,094588,082784,096930,080432,087301,018695,055251,-34957,088052,085844
0000000006,0000000333,089077,028964,059268,035209,082904,094408,082524,096950,080612,087791,019233,054273,-33405,088219,085617
0000000007,0000000400,089489,029459,058404,035234,082887,094225,082266,096966,080795,088265,019788,053294,-31831,088352,085392
0000000008,0000000467,089872,029982,057542,035260,082879,094038,082012,096975,080982,088707,020374,052317,-30216,088416,085172
0000000009,0000000533,090240,030518,056681,035285,082875,093848,081762,096979,081171,089132,020976,051342,-28581,088444,084954
0000000010,0000000600,090593,031068,055822,035310,082874,093657,081514,096979,081363,089540,021594,050368,-26927,088438,084738
0000000011,0000000667,090917,031645,054967,035334,082882,093461,081272,096971,081559,089915,022242,049398,-25236,088362,084527
0000000012,0000000733,091225,032235,054114,035358,082894,093263,081032,096959,081757,090273,022904,048431,-23527,088251,084319
0000000013,0000000800,091517,032837,053264,035381,082910,093063,080796,096943,081957,090613,023582,047467,-21802,088106,084114
0000000014,0000000867,091779,033465,052420,035404,082935,092859,080566,096919,082160,090919,024288,046510,-20045,087891,083914
0000000015,0000000933,092025,034104,051581,035427,082963,092654,080340,096891,082365,091207,025007,045557,-18273,087641,083717
0000000016,0000001000,092256,034756,050745,035449,082995,092448,080117,096859,082572,091478,025741,044609,-16487,087357,083523
0000000017,0000001067,092454,035431,049918,035471,083035,092238,079900,096819,082782,091713,026501,043670,-14673,087005,083336
0000000018,0000001133,092637,036116,049096,035492,083079,092027,079688,096774,082993,091930,027273,042736,-12848,086618,083151
0000000019,0000001200,092804,036813,048279,035513,083127,091814,079479,096726,083206,092129,028058,041808,-11010,086198,082970
0000000020,0000001267,092939,037531,047473,035533,083183,091599,079278,096670,083420,092292,028868,040893,-09151,085710,082795
0000000021,0000001333,093057,038259,046673,035553,083243,091383,079081,096611,083636,092437,029689,039984,-07282,085188,082624
0000000022,0000001400,093159,038998,045880,035572,083307,091166,078887,096547,083853,092563,030522,039082,-05404,084633,082456
0000000023,0000001467,093229,039755,045100,035591,083378,090948,078702,096475,084072,092653,031376,038195,-03509,084012,082295
0000000024,0000001533,093282,040522,044327,035609,083453,090728,078521,096400,084292,092725,032241,037317,-01608,083358,082138
0000000025,0000001600,093319,041297,043561,035627,083532,090508,078345,096321,084512,092778,033116,036446,000300,082672,081985
0000000026,0000001667,093324,042089,042812,035643,083619,090286,078177,096235,084734,092794,034011,035593,002220,081922,081839
0000000027,0000001733,093312,042890,042070,035660,083709,090064,078013,096144,084956,092792,034915,034749,004143,081140,081698
0000000028,0000001800,093284,043698,041337,035676,083803,089842,077854,096051,085178,092772,035828,033914,006070,080326,081560
0000000029,0000001867,093223,044521,040622,035691,083904,089619,077704,095949,085401,092714,036758,033100,008003,079451,081430
0000000030,0000001933,093145,045351,039916,035705,084009,089396,077559,095845,085624,092639,037696,032295,009937,078545,081304
0000000031,0000002000,093052,046187,039219,035719,084117,089173,077418,095737,085847,092545,038641,031502,011873,077609,081183
0000000032,0000002067,092926,047036,038543,035732,084232,088950,077287,095621,086070,092414,039601,030730,013809,076613,081069
0000000033,0000002133,092784,047890,037876,035745,084351,088727,077161,095503,086293,092265,040567,029970,015743,075588,080960
0000000034,0000002200,092625,048750,037220,035757,084473,088504,077040,095381,086516,092098,041540,029222,017676,074535,080855
0000000035,0000002267,092435,049620,036586,035768,084601,088282,076929,095252,086738,091895,042524,028498,019603,073424,080759
0000000036,0000002333,092229,050494,035963,035779,084733,088061,076823,095121,086959,091674,043513,027787,021526,072287,080668
0000000037,0000002400,092007,051372,035351,035789,084868,087840,076721,094986,087180,091435,044508,027088,023445,071122,080580
0000000038,0000002467,091753,052258,034763,035798,085009,087620,076631,094845,087400,091160,045511,026416,025353,069903,080502
0000000039,0000002533,091484,053147,034187,035807,085153,087401,076545,094701,087619,090868,046517,025757,027254,068659,080428
0000000040,0000002600,091200,054039,033623,035815,085300,087183,076464,094553,087836,090558,047527,025112,029148,067389,080359
0000000041,0000002667,090885,054936,033084,035822,085453,086967,076394,094400,088052,090213,048543,024495,031026,066070,080299
0000000042,0000002733,090554,055834,032558,035828,085609,086753,076329,094245,088267,089852,049561,023893,032895,064726,080243
0000000043,0000002800,090209,056735,032045,035834,085767,086539,076270,094086,088481,089473,050582,023305,034754,063359,080192
0000000044,0000002867,089834,057637,031558,035839,085931,086328,076221,093922,088692,089061,051605,022747,036591,061945,080151
0000000045,0000002933,089444,058540,031085,035843,086098,086118,076177,093756,088902,088632,052629,022205,038416,060510,080114
0000000046,0000003000,089040,059444,030626,035847,086267,085910,076139,093587,089110,088187,053654,021678,040229,059053,080082
0000000047,0000003067,088607,060348,030195,035850,086441,085705,076112,093413,089315,087709,054678,021182,042015,057554,080059
0000000048,0000003133,088160,061250,029778,035852,086617,085502,076090,093236,089518,087215,055702,020703,043786,056035,080041
0000000049,0000003200,087699,062152,029375,035854,086796,085300,076073,093058,089720,086706,056725,020239,045542,054496,080027
0000000050,0000003267,087211,063051,029002,035854,086979,085102,076067,092875,089918,086165,057746,019809,047267,052920,080023
0000000051,0000003333,086709,063948,028643,035854,087164,084906,076067,092690,090114,085609,058764,019395,048974,051326,080024
0000000052,0000003400,086194,064843,028299,035854,087351,084712,076072,092502,090308,085039,059780,018997,050664,049714,080029
0000000053,0000003467,085653,065733,027985,035852,087542,084523,076088,092311,090497,084438,060790,018634,052318,048070,080044
0000000054,0000003533,085100,066619,027686,035850,087735,084336,076110,092119,090684,083824,061797,018288,053952,046410,080064
0000000055,0000003600,084534,067502,027403,035847,087930,084151,076137,091924,090869,083195,062800,017959,055566,044735,080088
0000000056,0000003667,083944,068377,027151,035844,088128,083971,076174,091726,091049,082538,063794,017666,057139,043032,080122
0000000057,0000003733,083342,069248,026914,035839,088327,083793,076217,091527,091227,081868,064783,017390,058690,041315,080161
0000000058,0000003800,082728,070114,026693,035834,088528,083618,076265,091326,091402,081184,065767,017131,060219,039586,080204
0000000059,0000003867,082091,070969,026504,035829,088732,083449,076324,091122,091571,080475,066740,016909,061702,037833,080256
0000000060,0000003933,081444,071819,026330,035822,088937,083282,076389,090917,091738,079754,067707,016704,063162,036070,080313
0000000061,0000004000,080786,072663,026173,035815,089143,083118,076458,090711,091902,079019,068667,016517,064597,034297,080375
0000000062,0000004067,080107,073495,026047,035807,089351,082959,076538,090502,092061,078262,069612,016367,065983,032505,080446
0000000063,0000004133,079418,074319,025938,035799,089561,082804,076623,090293,092216,077492,070550,016235,067342,030705,080521
0000000064,0000004200,078719,075136,025845,035790,089771,082652,076714,090083,092368,076712,071481,016122,068676,028897,080601
0000000065,0000004267,078001,075939,025785,035780,089983,082506,076815,089871,092514,075910,072394,016045,069955,027076,080689
0000000066,0000004333,077275,076733,025740,035769,090195,082363,076920,089658,092657,075097,073298,015986,071207,025250,080783
0000000067,0000004400,076539,077519,025712,035758,090408,082224,077031,089445,092796,074274,074194,015946,072431,023418,080880
0000000068,0000004467,075787,078288,025717,035746,090622,082091,077152,089231,092929,073433,075069,015943,073598,021579,080986
0000000069,0000004533,075026,079047,025738,035733,090837,081962,077277,089017,093058,072582,075935,015958,074735,019736,081097
0000000070,0000004600,074258,079797,025775,035720,091051,081836,077408,088802,093184,071722,076790,015992,075843,017891,081211
0000000071,0000004667,073476,080528,025844,035706,091267,081717,077548,088587,093303,070845,077623,016062,076890,016043,081334
0000000072,0000004733,072686,081248,025930,035692,091482,081601,077692,088372,093419,069960,078445,016151,077905,014195,081461
0000000073,0000004800,071890,081958,026032,035677,091697,081490,077842,088157,093530,069068,079255,016258,078890,012347,081592
0000000074,0000004867,071081,082647,026166,035661,091912,081385,078000,087942,093635,068161,080041,016402,079812,010501,081732
0000000075,0000004933,070267,083324,026317,035645,092126,081285,078163,087727,093735,067247,080814,016564,080700,008657,081875
0000000076,0000005000,069447,083990,026483,035628,092341,081188,078331,087513,093832,066328,081575,016744,081557,006817,082021
0000000077,0000005067,068617,084633,026681,035610,092554,081099,078507,087299,093921,065396,082309,016960,082347,004983,082176
0000000078,0000005133,067783,085263,026895,035592,092767,081013,078688,087086,094007,064459,083029,017195,083104,003155,082334
0000000079,0000005200,066944,085881,027125,035574,092980,080932,078872,086874,094088,063517,083736,017447,083828,001333,082496
0000000080,0000005267,066098,086474,027386,035554,093190,080858,079065,086663,094162,062566,084414,017734,084483,-00477,082665
0000000081,0000005333,065248,087053,027663,035535,093400,080789,079262,086453,094231,061611,085077,018039,085103,-02280,082837
0000000082,0000005400,064395,087620,027954,035515,093610,080723,079463,086244,094297,060652,085726,018362,085689,-04074,083013
0000000083,0000005467,063537,088160,028277,035494,093817,080666,079671,086037,094354,059687,086344,018719,086205,-05851,083195
0000000084,0000005533,062677,088686,028614,035473,094023,080613,079883,085831,094408,058719,086947,019094,086686,-07617,083381
0000000085,0000005600,061815,089197,028966,035451,094227,080563,080099,085626,094457,057749,087534,019485,087131,-09374,083570
0000000086,0000005667,060950,089681,029348,035429,094429,080522,080322,085424,094498,056776,088089,019910,087505,-11107,083765
0000000087,0000005733,060084,090150,029744,035406,094630,080485,080548,085224,094535,055801,088627,020351,087843,-12827,083963
0000000088,0000005800,059217,090604,030155,035383,094829,080452,080777,085024,094568,054825,089149,020809,088145,-14535,084163
0000000089,0000005867,058350,091029,030594,035360,095025,080428,081013,084828,094592,053848,089638,021299,088375,-16215,084370
0000000090,0000005933,057484,091438,031047,035336,095219,080408,081252,084634,094612,052871,090109,021805,088569,-17879,084578
0000000091,0000006000,056617,091832,031514,035312,095412,080392,081494,084442,094628,051895,090563,022326,088726,-19529,084790
0000000092,0000006067,055753,092196,032008,035287,095600,080384,081742,084253,094636,050921,090982,022879,088811,-21146,085006
0000000093,0000006133,054891,092543,032515,035262,095787,080381,081992,084067,094639,049948,091383,023446,088858,-22745,085225
0000000094,0000006200,054030,092875,033036,035236,095972,080382,082245,083882,094639,048977,091767,024029,088870,-24327,085446
0000000095,0000006267,053174,093175,033582,035211,096152,080391,082503,083702,094629,048010,092114,024641,088808,-25872,085672
0000000096,0000006333,052321,093459,034140,035185,096330,080404,082764,083524,094616,047047,092444,025266,088711,-27397,085899
0000000097,0000006400,051470,093726,034711,035158,096506,080422,083026,083348,094598,046087,092755,025907,088576,-28902,086128
0000000098,0000006467,050627,093961,035306,035132,096677,080448,083293,083177,094573,045134,093028,026574,088369,-30366,086362
0000000099,0000006533,049787,094179,035912,035105,096845,080478,083562,083008,094542,044185,093284,027255,088126,-31809,086596
0000000100,0000006600,048952,094381,036530,035078,097011,080512,083833,082842,094508,043241,093520,027949,087846,-33229,086833
0000000101,0000006667,048126,094549,037171,035050,097172,080555,084107,082682,094466,042307,093719,028669,087495,-34604,087072
0000000102,0000006733,047305,094701,037822,035023,097330,080601,084383,082524,094419,041379,093899,029400,087108,-35955,087313
0000000103,0000006800,046490,094836,038484,034995,097485,080652,084660,082369,094368,040457,094059,030144,086685,-37282,087555
0000000104,0000006867,045686,094937,039166,034967,097634,080711,084940,082219,094309,039547,094182,030912,086191,-38560,087800
0000000105,0000006933,044889,095021,039858,034939,097781,080774,085222,082073,094246,038644,094285,031691,085662,-39812,088045
0000000106,0000007000,044098,095089,040560,034911,097924,080841,085504,081929,094179,037748,094369,032480,085098,-41038,088291
0000000107,0000007067,043321,095122,041280,034882,098061,080916,085788,081792,094104,036868,094415,033291,084464,-42212,088540
0000000108,0000007133,042552,095138,042009,034854,098195,080995,086073,081658,094025,035996,094441,034112,083797,-43358,088788
0000000109,0000007200,041790,095137,042747,034825,098326,081078,086359,081527,093942,035132,094448,034944,083095,-44477,089038
0000000110,0000007267,041044,095102,043501,034796,098451,081169,086646,081403,093852,034286,094416,035794,082325,-45540,089288
0000000111,0000007333,040307,095050,044263,034768,098572,081263,086933,081281,093757,033449,094365,036652,081523,-46573,089538
0000000112,0000007400,039578,094981,045033,034739,098690,081361,087221,081164,093659,032622,094295,037520,080687,-47578,089789
0000000113,0000007467,038868,094878,045816,034710,098801,081467,087509,081053,093553,031816,094186,038404,079786,-48524,090040
0000000114,0000007533,038167,094759,046607,034681,098908,081576,087797,080945,093444,031019,094058,039296,078853,-49440,090291
0000000115,0000007600,037476,094622,047404,034653,099012,081689,088084,080842,093331,030234,093911,040195,077888,-50325,090542
0000000116,0000007667,036805,094452,048213,034624,099108,081810,088372,080745,093211,029471,093725,041108,076860,-51148,090792
0000000117,0000007733,036145,094265,049027,034595,099201,081933,088658,080652,093087,028720,093521,042028,075802,-51940,091042
0000000118,0000007800,035495,094061,049847,034567,099291,082061,088945,080563,092960,027980,093298,042954,074714,-52701,091292
0000000119,0000007867,034868,093825,050677,034538,099373,082195,089230,080481,092826,027265,093037,043891,073565,-53397,091540
0000000120,0000007933,034252,093572,051511,034510,099451,082332,089514,080403,092688,026563,092758,044833,072388,-54061,091788
0000000121,0000008000,033647,093303,052349,034481,099525,082473,089797,080328,092548,025874,092460,045780,071182,-54692,092034
0000000122,0000008067,033066,093001,053194,034453,099592,082620,090078,080261,092400,025211,092126,046735,069920,-55258,092279
0000000123,0000008133,032498,092683,054043,034425,099655,082770,090358,080199,092250,024563,091773,047695,068630,-55790,092523
0000000124,0000008200,031942,092350,054895,034397,099714,082923,090636,080140,092097,023927,091402,048658,067313,-56288,092765
0000000125,0000008267,031412,091985,055751,034370,099765,083083,090912,080089,091938,023321,090995,049627,065944,-56720,093005
0000000126,0000008333,030894,091604,056609,034342,099812,083245,091186,080041,091775,022729,090571,050598,064549,-57117,093244
0000000127,0000008400,030390,091209,057470,034315,099855,083410,091458,079998,091610,022151,090129,051571,063129,-57480,093481
0000000128,0000008467,029912,090782,058333,034288,099890,083581,091726,079963,091440,021604,089653,052548,061661,-57775,093715
0000000129,0000008533,029449,090341,059196,034262,099921,083754,091993,079932,091266,021072,089159,053525,060169,-58035,093946
0000000130,0000008600,028999,089885,060060,034235,099949,083930,092257,079905,091090,020556,088649,054503,058654,-58261,094176
0000000131,0000008667,028578,089400,060924,034209,099968,084111,092517,079886,090909,020071,088106,055482,057095,-58417,094403
0000000132,0000008733,028171,088901,061787,034184,099983,084294,092774,079871,090726,019602,087546,056460,055515,-58539,094627
0000000133,0000008800,027778,088388,062650,034158,099994,084480,093029,079860,090540,019150,086970,057437,053913,-58625,094848
0000000134,0000008867,027415,087846,063511,034133,099997,084670,093279,079857,090350,018730,086363,058412,052272,-58643,095066
0000000135,0000008933,027066,087292,064369,034108,099995,084863,093526,079858,090157,018327,085740,059386,050612,-58625,095281
0000000136,0000009000,026733,086724,065226,034084,099990,085057,093770,079863,089963,017941,085102,060357,048933,-58572,095493
0000000137,0000009067,026430,086130,066078,034060,099977,085256,094008,079876,089764,017589,084435,061323,047219,-58450,095700
0000000138,0000009133,026143,085523,066927,034037,099960,085456,094243,079894,089564,017254,083752,062286,045489,-58294,095905
0000000139,0000009200,025871,084904,067773,034013,099938,085658,094475,079915,089362,016937,083056,063246,043742,-58102,096106
0000000140,0000009267,025630,084260,068611,033991,099909,085864,094701,079944,089156,016655,082331,064197,041965,-57841,096302
0000000141,0000009333,025405,083605,069446,033969,099875,086071,094923,079978,088949,016390,081594,065144,040174,-57546,096495
0000000142,0000009400,025195,082937,070276,033947,099838,086280,095141,080015,088740,016143,080842,066087,038370,-57217,096685
0000000143,0000009467,025018,082248,071096,033926,099792,086492,095353,080061,088528,015932,080065,067018,036540,-56819,096869
0000000144,0000009533,024857,081547,071911,033905,099743,086705,095560,080110,088316,015739,079276,067944,034699,-56387,097049
