DIgSILENT PowerFactory,20000410,2000
10,10A,00D
1,LC684-652A:Phase Voltage A/Terminal i,,,kV,0.00010000000,-4.580462,0.000000,-7387,99998,1,1,P
2,LC684-652A:Phase Voltage C/Terminal i,,,kV,0.00010000000,-5.211078,0.000000,-5677,99998,1,1,P
3,LC692-675:Phase Voltage A/Terminal i,,,kV,0.00010000000,-4.563997,0.000000,-7530,99998,1,1,P
4,LC692-675:Phase Voltage B/Terminal i,,,kV,0.00010000000,-4.498340,0.000000,-33596,99998,1,1,P
5,LC692-675:Phase Voltage C/Terminal i,,,kV,0.00010000000,-5.237413,0.000000,-4646,99998,1,1,P
6,LOHL632-633:Phase Voltage A/Terminal i,,,kV,0.00010000000,-5.446673,0.000000,8981,99998,1,1,P
7,LOHL632-633:Phase Voltage B/Terminal i,,,kV,0.00010000000,-5.437111,0.000000,-5154,99998,1,1,P
8,LOHL632-633:Phase Voltage C/Terminal i,,,kV,0.00010000000,-5.778032,0.000000,11542,99998,1,1,P
9,LOHL645-646:Phase Voltage B/Terminal i,,,kV,0.00010000000,-5.449158,0.000000,-4855,99998,1,1,P
10,LOHL645-646:Phase Voltage C/Terminal i,,,kV,0.00010000000,-5.780624,0.000000,11604,99998,1,1,P
50
1
15000.000000,3001
11/11/2020,22:34:35.000000
11/11/2020,22:34:35.000000
ASCII
1.000000
0000000001,0000000000,076476,052391,076320,014334,052605,085398,023993,057579,024150,057594
0000000002,0000000067,076913,051487,076756,014793,051700,085824,024446,056687,024603,056701
0000000003,0000000133,077324,050584,077171,015270,050799,086232,024929,055784,025085,055799
0000000004,0000000200,077724,049687,077566,015765,049900,086617,025424,054889,025579,054907
0000000005,0000000267,078093,048786,077940,016277,049002,086982,025936,053999,026089,054016
0000000006,0000000333,078450,047889,078295,016809,048106,087330,026474,053101,026627,053120
0000000007,0000000400,078782,046996,078628,017358,047213,087654,027019,052217,027170,052237
0000000008,0000000467,079093,046105,078940,017925,046323,087958,027587,051331,027738,051352
0000000009,0000000533,079386,045220,079232,018508,045437,088240,028173,050448,028322,050469
0000000010,0000000600,079655,044337,079501,019109,044556,088501,028776,049570,028925,049592
0000000011,0000000667,079903,043460,079750,019726,043680,088741,029394,048698,029541,048720
0000000012,0000000733,080129,042589,079976,020358,042809,088960,030028,047831,030174,047854
0000000013,0000000800,080333,041724,080181,021007,041945,089155,030676,046972,030822,046996
0000000014,0000000867,080515,040864,080364,021671,041087,089329,031338,046121,031482,046146
0000000015,0000000933,080677,040012,080525,022349,040236,089481,032015,045276,032159,045302
0000000016,0000001000,080816,039169,080664,023042,039393,089611,032706,044440,032848,044466
0000000017,0000001067,080931,038332,080780,023747,038557,089697,033365,043589,033489,043616
0000000018,0000001133,081026,037505,080876,024460,037731,089766,033995,042767,034093,042796
0000000019,0000001200,081099,036685,080948,025187,036912,089803,034740,041897,034838,041925
0000000020,0000001267,081149,035876,080998,025918,036104,089845,035456,041113,035549,041140
0000000021,0000001333,081177,035077,081027,026659,035305,089879,036211,040326,036304,040356
0000000022,0000001400,081182,034288,081033,027409,034518,089891,037018,039577,037111,039607
0000000023,0000001467,081165,033510,081016,028165,033742,089879,037773,038833,037865,038868
0000000024,0000001533,081125,032743,080977,028930,032976,089848,038558,038084,038647,038121
0000000025,0000001600,081063,031988,080914,029701,032222,089747,039298,037325,039381,037361
0000000026,0000001667,080978,031245,080828,030482,031479,089623,040053,036564,040130,036598
0000000027,0000001733,080869,030513,080720,031273,030748,089539,040902,035833,040980,035868
0000000028,0000001800,080737,029796,080589,032070,030032,089414,041729,035177,041804,035216
0000000029,0000001867,080582,029091,080434,032874,029329,089244,042504,034476,042574,034515
0000000030,0000001933,080404,028399,080256,033687,028638,089041,043303,033773,043367,033811
0000000031,0000002000,080203,027722,080055,034509,027962,088851,044170,033135,044233,033177
0000000032,0000002067,079979,027059,079830,035337,027299,088585,044956,032441,045012,032479
0000000033,0000002133,079731,026410,079583,036175,026652,088350,045822,031803,045876,031841
0000000034,0000002200,079461,025778,079314,037019,026021,088100,046703,031219,046756,031261
0000000035,0000002267,079168,025161,079021,037869,025406,087789,047523,030623,047571,030667
0000000036,0000002333,078854,024559,078706,038727,024805,087463,048393,030015,048437,030057
0000000037,0000002400,078517,023974,078370,039589,024222,087110,049219,029442,049257,029485
0000000038,0000002467,078159,023406,078012,040459,023655,086751,050098,028897,050132,028941
0000000039,0000002533,077780,022855,077633,041333,023106,086364,050962,028350,050992,028393
0000000040,0000002600,077380,022322,077234,042212,022575,085980,051868,027850,051896,027896
0000000041,0000002667,076961,021808,076814,043093,022062,085554,052740,027364,052765,027411
0000000042,0000002733,076522,021311,076376,043979,021567,085105,053624,026858,053650,026903
0000000043,0000002800,076064,020835,075918,044868,021092,084665,054546,026427,054574,026475
0000000044,0000002867,075588,020378,075442,045757,020636,084173,055407,025978,055434,026025
0000000045,0000002933,075094,019940,074948,046651,020201,083688,056319,025570,056348,025619
0000000046,0000003000,074582,019524,074436,047545,019786,083160,057200,025153,057230,025200
0000000047,0000003067,074054,019128,073908,048442,019393,082649,058118,024809,058152,024859
0000000048,0000003133,073510,018754,073364,049339,019020,082105,059016,024449,059051,024499
0000000049,0000003200,072950,018402,072804,050236,018670,081540,059905,024120,059942,024171
0000000050,0000003267,072375,018072,072229,051133,018342,080950,060786,023790,060823,023840
0000000051,0000003333,071785,017765,071640,052029,018036,080355,061669,023507,061706,023557
0000000052,0000003400,071182,017481,071036,052923,017754,079751,062568,023250,062607,023301
0000000053,0000003467,070565,017220,070420,053814,017496,079131,063446,023015,063486,023067
0000000054,0000003533,069934,016983,069789,054701,017261,078486,064320,022783,064361,022835
0000000055,0000003600,069292,016771,069146,055583,017050,077823,065170,022576,065209,022628
0000000056,0000003667,068636,016583,068491,056460,016864,077166,066050,022408,066091,022460
0000000057,0000003733,067969,016419,067824,057330,016702,076485,066900,022255,066942,022308
0000000058,0000003800,067290,016281,067145,058192,016566,075796,067749,022140,067790,022193
0000000059,0000003867,066599,016168,066454,059045,016454,075088,068580,022034,068622,022088
0000000060,0000003933,065898,016079,065752,059889,016367,074367,069404,021939,069445,021992
0000000061,0000004000,065185,016017,065040,060723,016306,073651,070237,021900,070280,021955
0000000062,0000004067,064462,015979,064317,061545,016270,072910,071043,021868,071086,021923
0000000063,0000004133,063728,015967,063583,062355,016259,072160,071835,021863,071878,021918
0000000064,0000004200,062984,015980,062838,063153,016273,071397,072615,021873,072659,021928
0000000065,0000004267,062230,016018,062083,063937,016312,070619,073378,021909,073421,021963
0000000066,0000004333,061465,016081,061318,064708,016376,069848,074146,021986,074191,022041
0000000067,0000004400,060690,016169,060543,065465,016465,069057,074890,022073,074935,022128
0000000068,0000004467,059906,016281,059758,066206,016577,068255,075616,022188,075662,022243
0000000069,0000004533,059111,016416,058964,066933,016714,067453,076347,022327,076400,022383
0000000070,0000004600,058308,016576,058160,067646,016874,066640,077066,022489,077126,022545
0000000071,0000004667,057495,016759,057346,068346,017057,065816,077768,022670,077837,022725
0000000072,0000004733,056673,016964,056524,069032,017263,064991,078469,022884,078548,022939
0000000073,0000004800,055842,017192,055693,069705,017492,064153,079141,023112,079229,023167
0000000074,0000004867,055003,017442,054853,070367,017742,063313,079812,023373,079909,023428
0000000075,0000004933,054157,017713,054006,071017,018014,062466,080466,023647,080572,023703
0000000076,0000005000,053303,018006,053152,071654,018307,061603,081095,023940,081208,023995
0000000077,0000005067,052443,018318,052292,072280,018620,060737,081708,024253,081827,024307
0000000078,0000005133,051577,018651,051426,072894,018953,059868,082311,024588,082435,024643
0000000079,0000005200,050707,019004,050555,073493,019306,058988,082885,024938,083013,024992
0000000080,0000005267,049832,019376,049679,074079,019679,058107,083451,025309,083583,025363
0000000081,0000005333,048955,019767,048801,074649,020070,057223,083995,025702,084131,025756
0000000082,0000005400,048075,020176,047921,075203,020480,056340,084531,026115,084671,026169
0000000083,0000005467,047194,020604,047040,075739,020908,055456,085042,026549,085185,026603
0000000084,0000005533,046313,021049,046158,076256,021355,054568,085533,026997,085679,027051
0000000085,0000005600,045432,021512,045277,076752,021819,053677,085997,027459,086145,027513
0000000086,0000005667,044553,021993,044398,077227,022300,052795,086450,027947,086601,028001
0000000087,0000005733,043676,022491,043521,077679,022799,051909,086871,028445,087024,028499
0000000088,0000005800,042802,023005,042646,078106,023314,051029,087271,028969,087424,029023
0000000089,0000005867,041932,023537,041776,078507,023847,050146,087637,029500,087787,029554
0000000090,0000005933,041066,024085,040910,078881,024396,049268,087980,030050,088127,030104
0000000091,0000006000,040205,024649,040048,079225,024961,048394,088295,030618,088439,030672
0000000092,0000006067,039348,025230,039191,079540,025542,047525,088582,031201,088724,031255
0000000093,0000006133,038497,025827,038339,079824,026140,046662,088845,031801,088982,031854
0000000094,0000006200,037651,026439,037493,080076,026752,045801,089073,032413,089205,032466
0000000095,0000006267,036810,027066,036652,080295,027380,044947,089272,033042,089398,033095
0000000096,0000006333,035974,027709,035816,080482,028024,044099,089444,033688,089565,033741
0000000097,0000006400,035144,028366,034985,080635,028681,043259,089592,034347,089708,034400
0000000098,0000006467,034318,029037,034159,080756,029353,042424,089710,035022,089822,035074
0000000099,0000006533,033498,029723,033338,080846,030039,041600,089807,035713,089915,035765
0000000100,0000006600,032682,030421,032521,080903,030737,040776,089868,036412,089973,036463
0000000101,0000006667,031870,031133,031709,080931,031449,039967,089914,037132,090016,037184
0000000102,0000006733,031062,031857,030901,080929,032173,039158,089928,037858,090026,037909
0000000103,0000006800,030259,032592,030097,080900,032908,038360,089920,038600,090016,038651
0000000104,0000006867,029460,033339,029297,080845,033654,037568,089887,039355,089980,039405
0000000105,0000006933,028665,034096,028501,080766,034411,036782,089832,040116,089923,040166
0000000106,0000007000,027875,034863,027711,080664,035177,036002,089751,040888,089839,040937
0000000107,0000007067,027089,035639,026925,080540,035953,035234,089656,041674,089742,041723
0000000108,0000007133,026310,036423,026144,080397,036737,034472,089536,042465,089621,042513
0000000109,0000007200,025537,037215,025370,080235,037528,033718,089399,043265,089482,043313
0000000110,0000007267,024770,038014,024604,080056,038327,032978,089246,044077,089328,044125
0000000111,0000007333,024013,038820,023845,079861,039133,032244,089070,044892,089150,044938
0000000112,0000007400,023264,039631,023096,079651,039944,031522,088878,045714,088957,045761
0000000113,0000007467,022526,040448,022358,079426,040760,030816,088674,046548,088752,046593
0000000114,0000007533,021801,041270,021632,079188,041582,030119,088448,047381,088525,047426
0000000115,0000007600,021089,042096,020920,078936,042408,029438,088208,048220,088285,048265
0000000116,0000007667,020393,042927,020223,078671,043238,028774,087955,049069,088031,049113
0000000117,0000007733,019713,043761,019543,078393,044072,028124,087681,049916,087756,049960
0000000118,0000007800,019052,044598,018881,078101,044910,027493,087392,050772,087467,050815
0000000119,0000007867,018410,045439,018240,077795,045751,026880,087085,051630,087158,051673
0000000120,0000007933,017791,046282,017620,077475,046595,026287,086761,052491,086833,052532
0000000121,0000008000,017194,047129,017023,077140,047443,025715,086421,053354,086492,053395
0000000122,0000008067,016621,047979,016450,076789,048293,025165,086064,054220,086134,054260
0000000123,0000008133,016073,048832,015902,076422,049146,024637,085688,055088,085758,055128
0000000124,0000008200,015552,049687,015380,076037,050003,024134,085297,055960,085366,055999
0000000125,0000008267,015057,050546,014886,075635,050862,023654,084885,056833,084955,056871
0000000126,0000008333,014590,051408,014419,075215,051725,023200,084458,057710,084529,057747
0000000127,0000008400,014151,052272,013980,074776,052590,022771,084012,058587,084083,058623
0000000128,0000008467,013740,053140,013568,074318,053459,022367,083549,059467,083622,059503
0000000129,0000008533,013357,054011,013185,073841,054331,021988,083066,060347,083140,060383
0000000130,0000008600,013001,054886,012830,073346,055206,021635,082565,061230,082641,061265
0000000131,0000008667,012674,055763,012502,072831,056084,021307,082045,062112,082123,062146
0000000132,0000008733,012372,056643,012201,072297,056964,021003,081508,062995,081588,063028
0000000133,0000008800,012097,057526,011925,071745,057847,020723,080954,063878,081037,063910
0000000134,0000008867,011847,058412,011675,071175,058733,020467,080381,064759,080466,064791
0000000135,0000008933,011622,059299,011450,070588,059620,020235,079793,065641,079881,065671
0000000136,0000009000,011420,060188,011248,069985,060509,020024,079187,066520,079277,066550
0000000137,0000009067,011241,061078,011068,069365,061398,019837,078566,067399,078660,067427
0000000138,0000009133,011084,061969,010911,068731,062288,019671,077930,068273,078027,068301
0000000139,0000009200,010948,062859,010774,068082,063177,019527,077282,069146,077382,069173
0000000140,0000009267,010831,063748,010657,067420,064065,019403,076619,070014,076723,070041
0000000141,0000009333,010734,064636,010560,066746,064950,019301,075944,070879,076051,070905
0000000142,0000009400,010656,065520,010481,066060,065833,019218,075257,071739,075368,071763
0000000143,0000009467,010597,066400,010421,065364,066711,019156,074558,072592,074672,072616
0000000144,0000009533,010555,067275,010379,064657,067584,019113,073850,073439,073969,073462
0000000145,0000009600,010532,068143,010355,063941,068450,019087,073127,074274,073249,074296
0000000146,0000009667,010526,069004,010349,063217,069308,019084,072399,075106,072525,075127
0000000147,0000009733,010539,069856,010361,062484,070157,019100,071660,075924,071791,075945
0000000148,0000009800,010570,070697,010391,061742,070996,019134,070910,076731,071045,076751
0000000149,0000009867,010619,071527,010440,060994,071823,019189,070154,077529,070292,077547
0000000150,0000009933,010688,072345,010507,060237,072638,019263,069387,078310,069529,078328
0000000151,0000010000,010776,073148,010595,059474,073439,019359,068613,079081,068760,079098
0000000152,0000010067,010885,073936,010703,058703,074224,019477,067833,079837,067984,079854
0000000153,0000010133,011014,074708,010831,057924,074993,019613,067042,080575,067197,080591
0000000154,0000010200,011165,075462,010982,057138,075744,019773,066244,081299,066403,081314
0000000155,0000010267,011337,076197,011154,056345,076477,019955,065439,082006,065602,082020
0000000156,0000010333,011533,076913,011348,055543,077191,020157,064624,082693,064790,082706
0000000157,0000010400,011751,077609,011566,054734,077884,020383,063803,083362,063973,083374
0000000158,0000010467,011993,078283,011807,053916,078556,020633,062976,084014,063150,084025
0000000159,0000010533,012258,078936,012072,053090,079207,020905,062142,084644,062320,084655
0000000160,0000010600,012547,079566,012361,052256,079835,021200,061300,085254,061482,085264
0000000161,0000010667,012859,080173,012673,051414,080440,021519,060454,085845,060640,085854
0000000162,0000010733,013195,080757,013009,050565,081022,021859,059601,086414,059792,086423
0000000163,0000010800,013555,081317,013369,049707,081581,022222,058740,086960,058936,086968
0000000164,0000010867,013937,081853,013751,048843,082116,022607,057877,087487,058077,087494
0000000165,0000010933,014341,082366,014155,047972,082628,023015,057008,087992,057212,087999
0000000166,0000011000,014767,082854,014581,047095,083116,023441,056132,088472,056339,088478
0000000167,0000011067,015213,083319,015027,046212,083580,023883,055237,088928,055443,088934
0000000168,0000011133,015679,083760,015493,045323,084020,024347,054344,089364,054549,089369
0000000169,0000011200,016163,084178,015978,044429,084437,024829,053447,089776,053651,089780
0000000170,0000011267,016666,084572,016481,043529,084831,025327,052542,090165,052743,090169
0000000171,0000011333,017184,084943,017000,042625,085202,025845,051638,090534,051837,090538
0000000172,0000011400,017719,085292,017534,041716,085550,026379,050732,090880,050929,090883
0000000173,0000011467,018268,085618,018083,040803,085875,026929,049827,091204,050022,091207
0000000174,0000011533,018830,085922,018646,039887,086179,027495,048923,091509,049117,091512
0000000175,0000011600,019404,086204,019221,038970,086460,028076,048020,091790,048213,091792
0000000176,0000011667,019991,086464,019807,038051,086720,028669,047118,092051,047310,092052
0000000177,0000011733,020587,086703,020404,037133,086958,029278,046221,092291,046413,092293
0000000178,0000011800,021194,086920,021011,036216,087175,029898,045326,092510,045518,092510
0000000179,0000011867,021810,087117,021628,035302,087370,030529,044436,092706,044627,092706
0000000180,0000011933,022435,087293,022253,034393,087545,031173,043553,092883,043744,092883
0000000181,0000012000,023069,087447,022887,033489,087699,031827,042675,093037,042866,093037
0000000182,0000012067,023711,087581,023529,032591,087831,032492,041804,093169,041995,093168
0000000183,0000012133,024362,087694,024180,031702,087943,033168,040943,093282,041134,093281
0000000184,0000012200,025021,087786,024839,030822,088034,033854,040091,093373,040282,093371
0000000185,0000012267,025689,087857,025507,029953,088103,034550,039248,093441,039439,093439
0000000186,0000012333,026366,087907,026185,029096,088152,035257,038418,093489,038609,093487
0000000187,0000012400,027053,087935,026872,028251,088179,035975,037600,093515,037790,093512
0000000188,0000012467,027751,087943,027569,027420,088185,036702,036793,093518,036983,093515
0000000189,0000012533,028459,087929,028278,026604,088169,037441,036000,093500,036190,093497
0000000190,0000012600,029179,087893,028997,025803,088132,038191,035221,093461,035411,093458
0000000191,0000012667,029910,087836,029729,025018,088073,038952,034456,093398,034646,093395
0000000192,0000012733,030655,087757,030474,024249,087993,039724,033706,093315,033895,093311
0000000193,0000012800,031412,087656,031232,023498,087891,040508,032972,093209,033160,093206
0000000194,0000012867,032184,087534,032003,022763,087767,041297,032235,093077,032416,093073
0000000195,0000012933,032969,087389,032789,022045,087621,042096,031511,092921,031683,092917
0000000196,0000013000,033769,087223,033588,021343,087454,042907,030800,092744,030962,092740
0000000197,0000013067,034583,087035,034403,020657,087265,043729,030106,092545,030259,092541
0000000198,0000013133,035411,086825,035231,019985,087054,044564,029430,092324,029574,092320
0000000199,0000013200,036253,086594,036073,019328,086822,045412,028776,092085,028914,092082
0000000200,0000013267,037108,086342,036929,018685,086569,046271,028136,091823,028269,091820
0000000201,0000013333,037976,086069,037797,018058,086295,047139,027514,091541,027640,091538
0000000202,0000013400,038856,085775,038677,017445,086000,048017,026907,091238,027028,091235
0000000203,0000013467,039746,085460,039568,016848,085685,048903,026319,090916,026435,090913
