DIgSILENT PowerFactory,20000410,2000
10,10A,00D
1,LC684-652A:Phase Voltage A/Terminal i,,,kV,0.00010000000,-5.730346,0.000000,9491,99998,1,1,P
2,LC684-652A:Phase Voltage C/Terminal i,,,kV,0.00010000000,-5.026453,0.000000,5096,99998,1,1,P
3,LC692-675:Phase Voltage A/Terminal i,,,kV,0.00010000000,-5.731302,0.000000,9354,99998,1,1,P
4,LC692-675:Phase Voltage B/Terminal i,,,kV,0.00010000000,-5.127408,0.000000,4054,99998,1,1,P
5,LC692-675:Phase Voltage C/Terminal i,,,kV,0.00010000000,-5.046478,0.000000,5332,99998,1,1,P
6,LOHL632-633:Phase Voltage A/Terminal i,,,kV,0.00010000000,-6.034633,0.000000,17769,99998,1,1,P
7,LOHL632-633:Phase Voltage B/Terminal i,,,kV,0.00010000000,-5.186348,0.000000,7026,99998,1,1,P
8,LOHL632-633:Phase Voltage C/Terminal i,,,kV,0.00010000000,-5.195554,0.000000,7146,99998,1,1,P
9,LOHL645-646:Phase Voltage B/Terminal i,,,kV,0.00010000000,-5.200771,0.000000,7197,99998,1,1,P
10,LOHL645-646:Phase Voltage C/Terminal i,,,kV,0.00010000000,-5.198586,0.000000,7203,99998,1,1,P
50
1
15000.000000,3001
11/11/2020,23:04:59.000000
11/11/2020,23:04:59.000000
ASCII
1.000000
0000000001,0000000000,087974,050545,087993,020625,050696,091277,021485,051755,021666,051774
0000000002,0000000067,088411,049641,088429,021084,049791,091704,021939,050862,022118,050882
0000000003,0000000133,088825,048738,088844,021560,048891,092110,022420,049961,022599,049983
0000000004,0000000200,089219,047839,089238,022055,047991,092495,022913,049069,023090,049092
0000000005,0000000267,089594,046939,089614,022568,047093,092863,023431,048171,023609,048194
0000000006,0000000333,089947,046043,089968,023099,046197,093209,023961,047281,024137,047304
0000000007,0000000400,090283,045150,090301,023649,045303,093533,024517,046388,024692,046411
0000000008,0000000467,090593,044259,090613,024215,044414,093837,025084,045503,025258,045527
0000000009,0000000533,090882,043372,090904,024799,043528,094120,025665,044623,025838,044649
0000000010,0000000600,091154,042491,091175,025399,042647,094381,026265,043749,026437,043775
0000000011,0000000667,091402,041614,091423,026016,041770,094621,026887,042873,027058,042899
0000000012,0000000733,091627,040742,091649,026649,040900,094838,027518,042008,027688,042037
0000000013,0000000800,091833,039877,091854,027297,040035,095034,028164,041151,028334,041180
0000000014,0000000867,092014,039018,092037,027961,039177,095209,028832,040295,029000,040324
0000000015,0000000933,092175,038166,092198,028640,038326,095361,029509,039450,029676,039480
0000000016,0000001000,092313,037322,092337,029333,037483,095490,030201,038613,030367,038644
0000000017,0000001067,092430,036486,092454,030040,036648,095585,030881,037770,031032,037801
0000000018,0000001133,092525,035659,092550,030751,035823,095651,031490,036958,031610,036992
0000000019,0000001200,092597,034838,092620,031476,035001,095674,032216,036075,032334,036105
0000000020,0000001267,092648,034030,092671,032208,034194,095714,032935,035274,033057,035308
0000000021,0000001333,092676,033230,092700,032949,033395,095752,033699,034494,033817,034527
0000000022,0000001400,092681,032442,092706,033700,032609,095811,034554,033784,034674,033823
0000000023,0000001467,092664,031665,092689,034455,031834,095785,035275,033053,035391,033096
0000000024,0000001533,092624,030897,092650,035222,031066,095729,036080,032252,036196,032293
0000000025,0000001600,092562,030141,092587,035992,030312,095619,036781,031478,036887,031516
0000000026,0000001667,092477,029398,092501,036772,029570,095496,037538,030730,037638,030766
0000000027,0000001733,092367,028666,092393,037563,028838,095416,038391,030009,038493,030048
0000000028,0000001800,092236,027949,092262,038359,028124,095283,039184,029350,039282,029394
0000000029,0000001867,092081,027244,092107,039165,027419,095132,040009,028659,040105,028704
0000000030,0000001933,091904,026553,091929,039978,026728,094899,040784,027917,040871,027957
0000000031,0000002000,091702,025876,091728,040800,026052,094728,041664,027298,041751,027342
0000000032,0000002067,091477,025213,091504,041629,025390,094509,042503,026652,042587,026698
0000000033,0000002133,091230,024564,091256,042465,024742,094212,043289,025963,043365,026004
0000000034,0000002200,090960,023932,090987,043310,024112,093975,044188,025391,044264,025437
0000000035,0000002267,090667,023314,090694,044159,023496,093654,045005,024779,045075,024826
0000000036,0000002333,090353,022713,090379,045016,022895,093321,045841,024166,045905,024211
0000000037,0000002400,090016,022127,090043,045881,022312,092992,046735,023606,046798,023653
0000000038,0000002467,089658,021560,089685,046749,021746,092623,047581,023058,047638,023105
0000000039,0000002533,089279,021009,089306,047624,021197,092270,048486,022560,048542,022611
0000000040,0000002600,088880,020476,088907,048502,020665,091851,049347,022022,049398,022072
0000000041,0000002667,088460,019962,088488,049384,020153,091431,050229,021536,050277,021587
0000000042,0000002733,088021,019466,088049,050269,019658,091003,051133,021065,051184,021116
0000000043,0000002800,087563,018989,087591,051158,019183,090545,052031,020612,052083,020664
0000000044,0000002867,087087,018531,087115,052048,018727,090065,052913,020171,052964,020224
0000000045,0000002933,086593,018094,086621,052941,018292,089547,053777,019727,053826,019778
0000000046,0000003000,086081,017677,086109,053836,017877,089048,054701,019337,054755,019389
0000000047,0000003067,085553,017282,085581,054732,017483,088519,055597,018967,055653,019019
0000000048,0000003133,085009,016907,085037,055629,017111,087971,056491,018606,056549,018659
0000000049,0000003200,084449,016555,084477,056527,016760,087405,057381,018278,057440,018332
0000000050,0000003267,083874,016225,083902,057423,016432,086821,058264,017967,058323,018021
0000000051,0000003333,083284,015918,083313,058319,016127,086229,059154,017678,059215,017732
0000000052,0000003400,082681,015634,082710,059214,015845,085620,060047,017407,060109,017461
0000000053,0000003467,082064,015374,082092,060104,015586,084994,060921,017167,060983,017222
0000000054,0000003533,081433,015137,081462,060992,015351,084360,061807,016951,061870,017006
0000000055,0000003600,080790,014925,080819,061874,015141,083716,062679,016768,062743,016826
0000000056,0000003667,080135,014736,080164,062751,014955,083051,063550,016592,063615,016650
0000000057,0000003733,079467,014573,079497,063621,014793,082371,064398,016442,064463,016500
0000000058,0000003800,078789,014435,078818,064483,014657,081675,065240,016315,065305,016373
0000000059,0000003867,078098,014321,078127,065336,014545,080971,066080,016207,066146,016265
0000000060,0000003933,077397,014233,077426,066180,014458,080260,066910,016137,066977,016196
0000000061,0000004000,076684,014171,076713,067013,014397,079520,067713,016066,067778,016124
0000000062,0000004067,075961,014133,075990,067836,014360,078781,068525,016032,068591,016091
0000000063,0000004133,075227,014121,075256,068646,014350,078037,069323,016034,069390,016093
0000000064,0000004200,074483,014134,074511,069444,014364,077278,070108,016056,070176,016116
0000000065,0000004267,073728,014172,073756,070228,014403,076513,070887,016101,070956,016161
0000000066,0000004333,072964,014235,072991,070999,014467,075727,071636,016165,071705,016225
0000000067,0000004400,072189,014322,072216,071755,014555,074939,072385,016252,072455,016312
0000000068,0000004467,071405,014434,071432,072497,014668,074138,073112,016367,073182,016427
0000000069,0000004533,070610,014570,070637,073224,014804,073326,073831,016494,073907,016554
0000000070,0000004600,069807,014730,069833,073937,014965,072517,074556,016662,074640,016721
0000000071,0000004667,068994,014912,069019,074636,015148,071699,075264,016850,075358,016910
0000000072,0000004733,068172,015118,068197,075322,015354,070871,075958,017061,076061,017121
0000000073,0000004800,067341,015346,067366,075996,015582,070031,076634,017285,076745,017344
0000000074,0000004867,066502,015596,066527,076658,015833,069197,077311,017550,077432,017610
0000000075,0000004933,065656,015867,065679,077307,016104,068340,077952,017818,078081,017877
0000000076,0000005000,064802,016159,064825,077945,016397,067484,078588,018115,078725,018175
0000000077,0000005067,063942,016472,063965,078571,016711,066620,079205,018432,079348,018492
0000000078,0000005133,063076,016805,063099,079184,017044,065745,079797,018762,079945,018821
0000000079,0000005200,062206,017158,062228,079784,017397,064866,080375,019111,080527,019169
0000000080,0000005267,061331,017530,061353,080369,017769,063990,080946,019489,081101,019548
0000000081,0000005333,060453,017920,060474,080940,018161,063108,081497,019882,081657,019941
0000000082,0000005400,059574,018330,059594,081494,018571,062223,082027,020295,082191,020354
0000000083,0000005467,058693,018757,058713,082030,018999,061337,082536,020725,082703,020784
0000000084,0000005533,057811,019203,057831,082546,019445,060447,083024,021172,083194,021231
0000000085,0000005600,056931,019666,056950,083043,019909,059558,083490,021635,083662,021694
0000000086,0000005667,056052,020147,056071,083518,020391,058671,083937,022118,084111,022176
0000000087,0000005733,055175,020644,055194,083969,020889,057786,084360,022617,084536,022675
0000000088,0000005800,054301,021159,054319,084397,021405,056907,084762,023141,084938,023199
0000000089,0000005867,053431,021691,053449,084798,021937,056025,085129,023676,085303,023734
0000000090,0000005933,052565,022239,052583,085171,022486,055143,085466,024220,085637,024278
0000000091,0000006000,051703,022803,051721,085516,023052,054274,085786,024793,085954,024851
0000000092,0000006067,050847,023384,050864,085831,023633,053404,086076,025376,086241,025434
0000000093,0000006133,049996,023980,050012,086115,024230,052543,086340,025979,086502,026037
0000000094,0000006200,049149,024592,049166,086366,024843,051677,086559,026584,086715,026641
0000000095,0000006267,048309,025220,048325,086586,025471,050828,086766,027220,086916,027278
0000000096,0000006333,047473,025862,047489,086772,026114,049978,086936,027860,087080,027917
0000000097,0000006400,046643,026520,046658,086926,026772,049139,087085,028523,087225,028580
0000000098,0000006467,045817,027191,045832,087047,027444,048303,087202,029196,087337,029253
0000000099,0000006533,044997,027877,045011,087136,028129,047480,087300,029890,087432,029947
0000000100,0000006600,044180,028575,044194,087194,028828,046660,087366,030591,087495,030647
0000000101,0000006667,043369,029287,043382,087221,029540,045843,087403,031304,087528,031359
0000000102,0000006733,042561,030011,042574,087220,030263,045040,087422,032037,087544,032093
0000000103,0000006800,041758,030746,041770,087191,030999,044241,087414,032778,087534,032833
0000000104,0000006867,040959,031493,040970,087136,031745,043446,087379,033528,087496,033582
0000000105,0000006933,040164,032250,040174,087057,032502,042659,087321,034288,087436,034342
0000000106,0000007000,039374,033017,039384,086954,033268,041881,087244,035062,087356,035116
0000000107,0000007067,038588,033792,038598,086831,034044,041112,087147,035847,087257,035900
0000000108,0000007133,037809,034577,037817,086687,034828,040352,087029,036641,087138,036694
0000000109,0000007200,037035,035369,037044,086526,035619,039601,086895,037444,087002,037496
0000000110,0000007267,036269,036168,036277,086346,036418,038857,086736,038251,086842,038303
0000000111,0000007333,035511,036974,035518,086151,037223,038123,086561,039066,086665,039117
0000000112,0000007400,034763,037785,034769,085941,038034,037403,086372,039891,086475,039941
0000000113,0000007467,034025,038602,034031,085717,038851,036696,086166,040723,086268,040773
0000000114,0000007533,033300,039424,033305,085479,039673,035999,085941,041556,086042,041606
0000000115,0000007600,032588,040250,032593,085227,040499,035317,085699,042395,085799,042444
0000000116,0000007667,031892,041080,031896,084962,041329,034652,085444,043242,085544,043290
0000000117,0000007733,031212,041914,031216,084684,042163,034005,085175,044094,085274,044142
0000000118,0000007800,030551,042752,030554,084392,043001,033373,084884,044947,084982,044994
0000000119,0000007867,029909,043592,029913,084086,043842,032758,084574,045802,084671,045849
0000000120,0000007933,029289,044436,029293,083766,044686,032165,084252,046663,084347,046709
0000000121,0000008000,028692,045283,028696,083431,045533,031595,083914,047530,084009,047575
0000000122,0000008067,028120,046133,028123,083080,046384,031045,083557,048397,083651,048441
0000000123,0000008133,027572,046985,027575,082712,047237,030517,083181,049263,083274,049307
0000000124,0000008200,027051,047841,027053,082328,048094,030013,082788,050135,082882,050179
0000000125,0000008267,026556,048700,026559,081926,048953,029536,082381,051011,082475,051054
0000000126,0000008333,026089,049561,026092,081506,049816,029081,081953,051887,082048,051929
0000000127,0000008400,025650,050426,025653,081067,050681,028650,081504,052763,081600,052804
0000000128,0000008467,025239,051294,025241,080609,051550,028246,081039,053640,081136,053681
0000000129,0000008533,024856,052165,024858,080132,052422,027868,080558,054523,080657,054563
0000000130,0000008600,024500,053040,024503,079636,053297,027515,080057,055406,080157,055445
0000000131,0000008667,024172,053917,024175,079122,054174,027185,079537,056285,079638,056323
0000000132,0000008733,023871,054797,023874,078588,055055,026881,078999,057168,079102,057205
0000000133,0000008800,023596,055680,023598,078036,055938,026602,078445,058052,078551,058089
0000000134,0000008867,023346,056565,023348,077466,056823,026347,077875,058936,077984,058971
0000000135,0000008933,023121,057453,023123,076879,057711,026114,077284,059816,077396,059850
0000000136,0000009000,022919,058342,022921,076275,058599,025903,076678,060694,076793,060728
0000000137,0000009067,022740,059232,022741,075656,059489,025717,076060,061574,076177,061607
0000000138,0000009133,022583,060123,022584,075021,060379,025553,075425,062451,075546,062483
0000000139,0000009200,022446,061013,022447,074373,061268,025407,074775,063322,074899,063354
0000000140,0000009267,022330,061902,022330,073711,062155,025283,074111,064189,074238,064220
0000000141,0000009333,022233,062789,022233,073037,063041,025181,073436,065055,073567,065085
0000000142,0000009400,022155,063673,022154,072351,063923,025099,072751,065915,072885,065944
0000000143,0000009467,022096,064553,022094,071655,064802,025035,072051,066767,072189,066796
0000000144,0000009533,022054,065428,022052,070948,065674,024991,071339,067612,071481,067639
0000000145,0000009600,022031,066297,022028,070232,066540,024969,070622,068453,070768,068479
0000000146,0000009667,022025,067157,022022,069507,067399,024962,069889,069278,070039,069304
0000000147,0000009733,022038,068009,022034,068774,068248,024979,069152,070099,069306,070123
0000000148,0000009800,022069,068851,022064,068033,069087,025014,068403,070908,068562,070931
0000000149,0000009867,022118,069681,022113,067284,069914,025069,067646,071704,067809,071728
0000000150,0000009933,022187,070498,022180,066528,070729,025144,066881,072487,067047,072510
0000000151,0000010000,022275,071302,022268,065764,071529,025240,066107,073257,066278,073279
0000000152,0000010067,022383,072090,022376,064993,072315,025356,065325,074013,065500,074034
0000000153,0000010133,022513,072862,022504,064215,073084,025494,064536,074752,064715,074772
0000000154,0000010200,022663,073616,022655,063429,073835,025653,063738,075475,063921,075494
0000000155,0000010267,022836,074351,022827,062635,074568,025833,062929,076179,063116,076197
0000000156,0000010333,023031,075067,023021,061834,075282,026038,062117,076869,062308,076887
0000000157,0000010400,023250,075763,023239,061024,075975,026264,061296,077538,061490,077555
0000000158,0000010467,023491,076437,023480,060207,076647,026513,060469,078189,060666,078205
0000000159,0000010533,023757,077090,023745,059381,077297,026785,059634,078819,059836,078835
0000000160,0000010600,024046,077720,024034,058547,077925,027080,058794,079430,058999,079445
0000000161,0000010667,024358,078327,024347,057705,078531,027398,057946,080020,058157,080034
0000000162,0000010733,024694,078910,024683,056855,079113,027739,057093,080589,057307,080602
0000000163,0000010800,025054,079471,025042,055998,079672,028102,056233,081136,056452,081148
0000000164,0000010867,025436,080007,025424,055134,080207,028487,055368,081662,055592,081673
0000000165,0000010933,025840,080519,025828,054263,080718,028893,054499,082166,054727,082177
0000000166,0000011000,026265,081008,026254,053386,081206,029321,053624,082648,053856,082658
0000000167,0000011067,026712,081473,026700,052503,081670,029764,052731,083105,052961,083115
0000000168,0000011133,027178,081914,027166,051614,082111,030227,051837,083540,052065,083549
0000000169,0000011200,027662,082332,027651,050719,082528,030709,050940,083951,051168,083960
0000000170,0000011267,028164,082726,028154,049820,082921,031207,050035,084340,050260,084348
0000000171,0000011333,028683,083097,028673,048915,083292,031724,049129,084708,049352,084716
0000000172,0000011400,029218,083446,029207,048006,083640,032258,048224,085055,048445,085062
0000000173,0000011467,029766,083772,029757,047094,083966,032809,047320,085380,047539,085387
0000000174,0000011533,030329,084076,030319,046178,084269,033375,046416,085684,046633,085691
0000000175,0000011600,030903,084357,030894,045260,084551,033956,045512,085966,045729,085972
0000000176,0000011667,031489,084618,031480,044342,084810,034550,044611,086227,044827,086233
0000000177,0000011733,032086,084857,032077,043424,085048,035157,043713,086466,043928,086471
0000000178,0000011800,032693,085074,032684,042507,085265,035777,042818,086684,043034,086689
0000000179,0000011867,033309,085271,033301,041593,085461,036409,041928,086881,042144,086886
0000000180,0000011933,033934,085446,033926,040683,085636,037053,041045,087058,041260,087063
0000000181,0000012000,034568,085601,034560,039779,085789,037707,040168,087213,040383,087217
0000000182,0000012067,035210,085735,035202,038882,085922,038372,039298,087346,039513,087349
0000000183,0000012133,035861,085848,035853,037993,086033,039047,038435,087457,038650,087460
0000000184,0000012200,036520,085940,036512,037113,086124,039733,037583,087547,037797,087550
0000000185,0000012267,037188,086011,037180,036244,086194,040430,036741,087616,036956,087619
0000000186,0000012333,037865,086060,037858,035387,086242,041137,035911,087664,036125,087666
0000000187,0000012400,038552,086089,038545,034542,086269,041854,035092,087690,035306,087692
0000000188,0000012467,039250,086097,039242,033711,086275,042582,034286,087694,034500,087696
0000000189,0000012533,039958,086083,039951,032895,086260,043321,033493,087676,033707,087677
0000000190,0000012600,040677,086047,040670,032094,086223,044070,032713,087636,032927,087637
0000000191,0000012667,041409,085990,041402,031308,086164,044831,031948,087574,032161,087575
0000000192,0000012733,042154,085911,042147,030540,086084,045603,031198,087490,031411,087491
0000000193,0000012800,042911,085810,042905,029789,085982,046387,030464,087384,030676,087385
0000000194,0000012867,043683,085687,043676,029054,085858,047177,029729,087252,029933,087253
0000000195,0000012933,044468,085543,044462,028336,085712,047976,029004,087097,029200,087098
0000000196,0000013000,045268,085377,045262,027634,085544,048786,028292,086919,028478,086920
0000000197,0000013067,046082,085189,046076,026947,085355,049608,027598,086719,027774,086720
0000000198,0000013133,046910,084979,046904,026275,085145,050443,026922,086499,027089,086500
0000000199,0000013200,047752,084748,047746,025618,084913,051291,026267,086259,026429,086260
0000000200,0000013267,048607,084496,048602,024976,084660,052150,025629,085999,025785,086000
0000000201,0000013333,049475,084223,049470,024348,084386,053019,025006,085717,025157,085718
0000000202,0000013400,050354,083929,050350,023736,084091,053897,024401,085414,024546,085416
0000000203,0000013467,051244,083614,051241,023139,083776,054783,023812,085091,023952,085092
