DIgSILENT PowerFactory,20000410,2000
10,10A,00D
1,LC684-652A:Phase Voltage A/Terminal i,,,kV,0.00010000000,-5.512144,0.000000,8809,99998,1,1,P
2,LC684-652A:Phase Voltage C/Terminal i,,,kV,0.00010000000,-5.268828,0.000000,553,99998,1,1,P
3,LC692-675:Phase Voltage A/Terminal i,,,kV,0.00010000000,-5.511937,0.000000,8131,99998,1,1,P
4,LC692-675:Phase Voltage B/Terminal i,,,kV,0.00010000000,-4.589556,0.000000,-2804,99998,1,1,P
5,LC692-675:Phase Voltage C/Terminal i,,,kV,0.00010000000,-5.300346,0.000000,1124,99998,1,1,P
6,LOHL632-633:Phase Voltage A/Terminal i,,,kV,0.00010000000,-6.028610,0.000000,20199,99998,1,1,P
7,LOHL632-633:Phase Voltage B/Terminal i,,,kV,0.00010000000,-5.394512,0.000000,11419,99998,1,1,P
8,LOHL632-633:Phase Voltage C/Terminal i,,,kV,0.00010000000,-5.788651,0.000000,13446,99998,1,1,P
9,LOHL645-646:Phase Voltage B/Terminal i,,,kV,0.00010000000,-5.401103,0.000000,11540,99998,1,1,P
10,LOHL645-646:Phase Voltage C/Terminal i,,,kV,0.00010000000,-5.791440,0.000000,13506,99998,1,1,P
50
1
15000.000000,3001
11/11/2020,22:17:58.000000
11/11/2020,22:17:58.000000
ASCII
1.000000
0000000001,0000000000,085792,052968,085800,015247,053233,091217,023567,057686,023670,057702
0000000002,0000000067,086226,052064,086235,015705,052331,091642,024019,056795,024121,056811
0000000003,0000000133,086645,051164,086650,016182,051429,092049,024505,055889,024607,055908
0000000004,0000000200,087039,050264,087045,016677,050529,092437,024993,055000,025093,055020
0000000005,0000000267,087411,049362,087420,017190,049631,092804,025515,054099,025614,054121
0000000006,0000000333,087767,048468,087774,017721,048735,093148,026045,053211,026143,053231
0000000007,0000000400,088100,047574,088108,018270,047842,093472,026594,052322,026692,052344
0000000008,0000000467,088410,046682,088420,018836,046953,093778,027160,051438,027255,051460
0000000009,0000000533,088702,045797,088711,019420,046067,094060,027745,050556,027840,050579
0000000010,0000000600,088972,044915,088981,020021,045185,094320,028348,049678,028442,049702
0000000011,0000000667,089218,044037,089229,020637,044309,094560,028966,048806,029059,048831
0000000012,0000000733,089445,043166,089455,021271,043439,094778,029601,047938,029693,047963
0000000013,0000000800,089651,042301,089660,021919,042574,094975,030250,047078,030340,047104
0000000014,0000000867,089833,041442,089843,022583,041716,095149,030913,046226,031003,046253
0000000015,0000000933,089992,040589,090004,023262,040865,095300,031591,045381,031680,045408
0000000016,0000001000,090131,039745,090143,023955,040022,095430,032282,044545,032370,044573
0000000017,0000001067,090249,038909,090260,024659,039186,095515,032936,043693,033005,043722
0000000018,0000001133,090342,038082,090357,025372,038362,095584,033559,042871,033602,042904
0000000019,0000001200,090415,037262,090428,026099,037540,095624,034313,041999,034352,042025
0000000020,0000001267,090467,036454,090478,026829,036734,095655,035007,041249,035047,041282
0000000021,0000001333,090493,035654,090506,027571,035934,095691,035786,040408,035823,040433
0000000022,0000001400,090500,034866,090512,028319,035148,095685,036522,039673,036555,039705
0000000023,0000001467,090482,034087,090495,029078,034370,095686,037348,038917,037386,038953
0000000024,0000001533,090442,033321,090456,029844,033605,095669,038159,038184,038194,038221
0000000025,0000001600,090380,032566,090393,030614,032852,095573,038887,037453,038917,037492
0000000026,0000001667,090294,031821,090308,031396,032107,095471,039675,036653,039702,036689
0000000027,0000001733,090186,031091,090199,032183,031378,095331,040425,035951,040445,035989
0000000028,0000001800,090054,030372,090068,032981,030660,095198,041243,035225,041259,035261
0000000029,0000001867,089899,029668,089913,033788,029957,095064,042114,034568,042132,034609
0000000030,0000001933,089721,028977,089735,034600,029267,094865,042904,033871,042914,033910
0000000031,0000002000,089520,028300,089534,035420,028591,094632,043680,033196,043684,033236
0000000032,0000002067,089296,027636,089310,036250,027928,094410,044539,032528,044541,032567
0000000033,0000002133,089048,026988,089063,037087,027282,094197,045428,031946,045430,031989
0000000034,0000002200,088778,026356,088793,037930,026651,093898,046240,031326,046237,031371
0000000035,0000002267,088486,025738,088500,038781,026034,093585,047083,030681,047075,030722
0000000036,0000002333,088170,025137,088186,039638,025435,093275,047937,030122,047924,030166
0000000037,0000002400,087834,024552,087849,040502,024851,092952,048835,029571,048821,029618
0000000038,0000002467,087476,023983,087491,041371,024284,092574,049686,028994,049667,029040
0000000039,0000002533,087097,023433,087113,042245,023736,092204,050562,028485,050539,028533
0000000040,0000002600,086697,022900,086713,043124,023204,091797,051439,027947,051412,027994
0000000041,0000002667,086278,022386,086294,044005,022691,091376,052315,027476,052286,027526
0000000042,0000002733,085839,021889,085855,044891,022197,090942,053216,026990,053189,027039
0000000043,0000002800,085381,021413,085397,045779,021722,090482,054105,026542,054079,026593
0000000044,0000002867,084905,020955,084921,046670,021265,089987,054984,026073,054957,026121
0000000045,0000002933,084411,020518,084427,047562,020830,089492,055864,025663,055836,025712
0000000046,0000003000,083899,020101,083916,048458,020416,088994,056791,025279,056768,025329
0000000047,0000003067,083371,019706,083388,049354,020022,088467,057687,024916,057665,024968
0000000048,0000003133,082827,019331,082843,050251,019649,087909,058569,024538,058548,024589
0000000049,0000003200,082267,018979,082284,051148,019299,087353,059474,024210,059455,024261
0000000050,0000003267,081692,018649,081709,052045,018971,086759,060346,023894,060327,023945
0000000051,0000003333,081102,018342,081119,052942,018666,086187,061266,023630,061250,023683
0000000052,0000003400,080498,018058,080516,053835,018384,085572,062137,023361,062121,023414
0000000053,0000003467,079882,017797,079899,054726,018125,084932,063001,023096,062984,023148
0000000054,0000003533,079251,017561,079269,055613,017890,084312,063895,022901,063881,022956
0000000055,0000003600,078608,017348,078626,056495,017679,083642,064743,022680,064728,022733
0000000056,0000003667,077953,017160,077970,057372,017493,082977,065610,022512,065595,022566
0000000057,0000003733,077285,016997,077303,058242,017332,082303,066471,022365,066457,022420
0000000058,0000003800,076606,016858,076624,059104,017195,081617,067327,022243,067314,022299
0000000059,0000003867,075916,016745,075933,059958,017083,080907,068157,022134,068144,022189
0000000060,0000003933,075215,016657,075232,060801,016997,080196,068986,022064,068974,022120
0000000061,0000004000,074502,016594,074519,061635,016935,079466,069806,022003,069794,022060
0000000062,0000004067,073779,016557,073796,062457,016899,078725,070606,021971,070595,022027
0000000063,0000004133,073045,016544,073062,063267,016888,077973,071401,021959,071389,022015
0000000064,0000004200,072301,016558,072318,064065,016902,077216,072188,021982,072177,022039
0000000065,0000004267,071547,016596,071563,064849,016942,076443,072955,022022,072944,022079
0000000066,0000004333,070782,016659,070798,065620,017006,075667,073719,022094,073709,022152
0000000067,0000004400,070007,016746,070023,066377,017094,074877,074463,022184,074454,022242
0000000068,0000004467,069223,016858,069238,067118,017207,074071,075184,022289,075175,022346
0000000069,0000004533,068428,016994,068443,067845,017343,073264,075911,022426,075909,022483
0000000070,0000004600,067625,017154,067639,068558,017503,072459,076638,022599,076643,022657
0000000071,0000004667,066812,017336,066826,069258,017687,071638,077347,022780,077362,022837
0000000072,0000004733,065990,017542,066003,069944,017893,070815,078045,022998,078070,023056
0000000073,0000004800,065159,017770,065172,070618,018121,069982,078728,023229,078762,023287
0000000074,0000004867,064320,018020,064333,071279,018371,069137,079394,023480,079437,023538
0000000075,0000004933,063474,018291,063486,071929,018643,068277,080030,023745,080081,023801
0000000076,0000005000,062620,018583,062632,072567,018936,067418,080665,024037,080724,024093
0000000077,0000005067,061760,018896,061771,073192,019249,066559,081285,024361,081350,024418
0000000078,0000005133,060894,019229,060905,073805,019582,065680,081876,024684,081944,024740
0000000079,0000005200,060024,019582,060034,074405,019936,064806,082458,025045,082531,025101
0000000080,0000005267,059149,019953,059159,074991,020308,063932,083032,025422,083110,025478
0000000081,0000005333,058271,020344,058281,075561,020700,063047,083576,025815,083658,025871
0000000082,0000005400,057392,020754,057401,076115,021109,062158,084103,026219,084188,026275
0000000083,0000005467,056511,021181,056519,076651,021538,061270,084609,026648,084697,026704
0000000084,0000005533,055629,021627,055638,077168,021984,060386,085106,027100,085198,027156
0000000085,0000005600,054749,022090,054757,077665,022448,059503,085578,027573,085672,027629
0000000086,0000005667,053870,022570,053877,078139,022929,058614,086024,028052,086120,028108
0000000087,0000005733,052993,023068,053000,078591,023428,057733,086450,028558,086549,028614
0000000088,0000005800,052119,023583,052126,079018,023944,056846,086843,029071,086941,029126
0000000089,0000005867,051249,024114,051255,079419,024476,055960,087206,029599,087301,029654
0000000090,0000005933,050383,024663,050389,079793,025025,055087,087553,030157,087646,030212
0000000091,0000006000,049521,025227,049527,080138,025590,054213,087868,030724,087958,030779
0000000092,0000006067,048665,025808,048670,080452,026172,053341,088153,031301,088239,031356
0000000093,0000006133,047813,026404,047819,080736,026769,052483,088421,031909,088504,031964
0000000094,0000006200,046967,027016,046972,080988,027382,051621,088647,032521,088725,032576
0000000095,0000006267,046127,027644,046131,081207,028010,050768,088847,033152,088919,033207
0000000096,0000006333,045291,028286,045295,081394,028653,049921,089021,033797,089087,033852
0000000097,0000006400,044461,028943,044464,081548,029311,049080,089167,034456,089229,034510
0000000098,0000006467,043635,029615,043638,081669,029982,048244,089286,035128,089344,035182
0000000099,0000006533,042815,030300,042817,081758,030668,047416,089378,035815,089431,035868
0000000100,0000006600,041999,030999,042000,081815,031367,046595,089443,036517,089493,036570
0000000101,0000006667,041187,031710,041188,081843,032078,045783,089484,037234,089530,037287
0000000102,0000006733,040379,032434,040380,081841,032802,044980,089504,037967,089548,038020
0000000103,0000006800,039576,033170,039576,081812,033537,044177,089490,038705,089531,038757
0000000104,0000006867,038777,033916,038776,081757,034284,043386,089460,039457,089498,039510
0000000105,0000006933,037982,034674,037981,081678,035040,042602,089405,040224,089442,040275
0000000106,0000007000,037192,035440,037190,081576,035807,041822,089326,040994,089360,041045
0000000107,0000007067,036406,036216,036404,081452,036582,041052,089228,041778,089260,041829
0000000108,0000007133,035627,037001,035624,081309,037366,040293,089113,042573,089143,042624
0000000109,0000007200,034853,037793,034850,081147,038158,039540,088976,043374,089005,043425
0000000110,0000007267,034087,038592,034083,080968,038956,038794,088815,044178,088842,044227
0000000111,0000007333,033329,039397,033325,080773,039762,038062,088642,044996,088667,045045
0000000112,0000007400,032581,040209,032576,080563,040573,037341,088451,045820,088476,045868
0000000113,0000007467,031843,041026,031838,080338,041390,036635,088249,046653,088272,046701
0000000114,0000007533,031118,041848,031112,080100,042211,035937,088021,047485,088044,047532
0000000115,0000007600,030406,042674,030399,079848,043037,035258,087783,048329,087805,048376
0000000116,0000007667,029709,043504,029702,079583,043868,034593,087527,049174,087548,049220
0000000117,0000007733,029030,044338,029022,079305,044702,033943,087255,050023,087275,050068
0000000118,0000007800,028368,045175,028361,079013,045539,033313,086968,050879,086987,050924
0000000119,0000007867,027727,046016,027719,078708,046380,032697,086656,051733,086674,051777
0000000120,0000007933,027107,046860,027099,078387,047225,032107,086335,052597,086353,052641
0000000121,0000008000,026510,047707,026502,078052,048072,031533,085994,053458,086010,053501
0000000122,0000008067,025937,048556,025929,077701,048922,030984,085637,054325,085653,054367
0000000123,0000008133,025390,049409,025381,077334,049776,030458,085264,055196,085279,055238
0000000124,0000008200,024868,050265,024860,076949,050632,029952,084869,056066,084884,056106
0000000125,0000008267,024374,051123,024365,076547,051492,029476,084463,056942,084479,056983
0000000126,0000008333,023907,051985,023898,076127,052354,029019,084032,057815,084049,057854
0000000127,0000008400,023468,052850,023459,075688,053220,028591,083588,058695,083605,058734
0000000128,0000008467,023057,053718,023048,075230,054089,028187,083122,059574,083141,059612
0000000129,0000008533,022674,054589,022665,074754,054960,027807,082639,060453,082659,060490
0000000130,0000008600,022318,055463,022309,074258,055835,027455,082140,061337,082162,061373
0000000131,0000008667,021990,056341,021981,073743,056713,027124,081617,062216,081641,062252
0000000132,0000008733,021689,057221,021680,073209,057594,026822,081082,063102,081108,063137
0000000133,0000008800,021414,058104,021405,072657,058477,026541,080526,063982,080554,064016
0000000134,0000008867,021164,058989,021155,072088,059362,026286,079955,064865,079985,064898
0000000135,0000008933,020939,059877,020929,071500,060249,026054,079366,065747,079400,065780
0000000136,0000009000,020737,060766,020727,070897,061138,025843,078759,066625,078795,066657
0000000137,0000009067,020558,061656,020548,070277,062027,025658,078142,067506,078181,067537
0000000138,0000009133,020401,062546,020390,069643,062917,025490,077505,068379,077547,068409
0000000139,0000009200,020264,063437,020253,068994,063806,025348,076857,069254,076903,069283
0000000140,0000009267,020148,064326,020137,068332,064694,025224,076194,070122,076243,070151
0000000141,0000009333,020051,065213,020039,067658,065580,025121,075518,070986,075571,071013
0000000142,0000009400,019973,066097,019961,066973,066462,025039,074833,071846,074889,071873
0000000143,0000009467,019914,066977,019901,066276,067340,024974,074131,072697,074191,072722
0000000144,0000009533,019872,067852,019859,065569,068213,024932,073423,073545,073487,073570
0000000145,0000009600,019849,068720,019835,064854,069079,024907,072701,074381,072769,074405
0000000146,0000009667,019843,069581,019828,064129,069937,024903,071972,075210,072044,075233
0000000147,0000009733,019856,070433,019840,063396,070786,024919,071233,076030,071309,076052
0000000148,0000009800,019887,071275,019870,062655,071625,024952,070483,076837,070563,076858
0000000149,0000009867,019936,072105,019919,061906,072453,025009,069728,077635,069812,077656
0000000150,0000009933,020005,072922,019987,061150,073267,025082,068960,078416,069049,078436
0000000151,0000010000,020093,073726,020074,060386,074068,025179,068188,079188,068281,079207
0000000152,0000010067,020202,074514,020182,059615,074853,025295,067406,079943,067502,079961
0000000153,0000010133,020331,075285,020311,058836,075622,025434,066617,080683,066718,080700
0000000154,0000010200,020482,076039,020461,058050,076374,025593,065820,081406,065925,081423
0000000155,0000010267,020654,076775,020633,057257,077107,025773,065011,082110,065119,082126
0000000156,0000010333,020849,077491,020828,056455,077820,025976,064197,082798,064309,082813
0000000157,0000010400,021068,078187,021046,055646,078513,026202,063377,083468,063492,083482
0000000158,0000010467,021309,078861,021287,054828,079186,026451,062548,084118,062668,084132
0000000159,0000010533,021575,079513,021552,054002,079836,026725,061717,084751,061840,084764
0000000160,0000010600,021864,080143,021840,053169,080464,027019,060874,085360,061002,085372
0000000161,0000010667,022176,080750,022153,052327,081070,027338,060028,085951,060160,085963
0000000162,0000010733,022512,081334,022489,051477,081652,027679,059174,086520,059311,086531
0000000163,0000010800,022872,081894,022848,050620,082211,028042,058315,087068,058456,087078
0000000164,0000010867,023254,082431,023230,049755,082746,028427,057450,087593,057596,087603
0000000165,0000010933,023658,082943,023634,048884,083257,028833,056581,088097,056730,088105
0000000166,0000011000,024084,083432,024060,048007,083745,029260,055705,088578,055859,088586
0000000167,0000011067,024530,083897,024506,047124,084209,029703,054812,089035,054964,089042
0000000168,0000011133,024996,084338,024973,046235,084649,030166,053918,089470,054068,089477
0000000169,0000011200,025480,084755,025457,045341,085066,030649,053022,089882,053172,089889
0000000170,0000011267,025982,085150,025960,044441,085460,031147,052116,090271,052263,090277
0000000171,0000011333,026501,085521,026479,043537,085831,031664,051211,090639,051355,090645
0000000172,0000011400,027036,085869,027014,042628,086179,032198,050306,090986,050449,090992
0000000173,0000011467,027584,086195,027563,041715,086504,032748,049401,091311,049541,091315
0000000174,0000011533,028147,086499,028125,040800,086808,033314,048497,091614,048636,091619
0000000175,0000011600,028721,086781,028700,039882,087089,033895,047594,091897,047733,091901
0000000176,0000011667,029307,087042,029287,038963,087349,034489,046692,092157,046830,092161
0000000177,0000011733,029904,087280,029884,038045,087587,035097,045795,092397,045932,092400
0000000178,0000011800,030511,087498,030491,037128,087804,035717,044900,092616,045038,092619
0000000179,0000011867,031127,087694,031107,036215,088000,036348,044010,092812,044147,092815
0000000180,0000011933,031752,087870,031732,035305,088174,036992,043126,092988,043263,092990
0000000181,0000012000,032386,088025,032366,034401,088328,037647,042249,093143,042386,093145
0000000182,0000012067,033028,088158,033008,033503,088460,038311,041379,093276,041515,093277
0000000183,0000012133,033679,088271,033659,032614,088572,038987,040517,093389,040654,093389
0000000184,0000012200,034338,088363,034319,031735,088663,039673,039665,093479,039801,093479
0000000185,0000012267,035006,088434,034987,030865,088732,040369,038823,093547,038959,093547
0000000186,0000012333,035683,088484,035664,030008,088781,041077,037993,093595,038129,093595
0000000187,0000012400,036370,088513,036351,029163,088808,041794,037174,093621,037310,093620
0000000188,0000012467,037068,088520,037049,028332,088814,042521,036367,093624,036502,093623
0000000189,0000012533,037776,088506,037757,027516,088799,043261,035574,093607,035710,093606
0000000190,0000012600,038495,088471,038477,026715,088761,044010,034795,093567,034930,093566
0000000191,0000012667,039227,088413,039209,025930,088703,044771,034030,093505,034165,093503
0000000192,0000012733,039972,088334,039953,025161,088622,045544,033281,093422,033415,093420
0000000193,0000012800,040729,088234,040711,024410,088520,046327,032546,093315,032679,093313
0000000194,0000012867,041501,088111,041482,023675,088396,047116,031809,093182,031935,093180
0000000195,0000012933,042286,087967,042268,022957,088251,047916,031085,093028,031203,093026
0000000196,0000013000,043086,087800,043068,022255,088083,048726,030374,092850,030481,092848
0000000197,0000013067,043899,087612,043882,021569,087894,049548,029679,092650,029777,092648
0000000198,0000013133,044728,087403,044710,020897,087684,050384,029004,092431,029094,092429
0000000199,0000013200,045570,087172,045553,020240,087452,051231,028349,092190,028433,092189
0000000200,0000013267,046425,086920,046408,019598,087198,052090,027710,091929,027788,091928
0000000201,0000013333,047293,086646,047277,018970,086924,052959,027088,091648,027160,091647
0000000202,0000013400,048172,086352,048157,018357,086630,053836,026481,091345,026548,091344
0000000203,0000013467,049062,086038,049047,017761,086314,054722,025893,091021,025955,091020
