DIgSILENT PowerFactory,20000410,2000
10,10A,00D
1,LC684-652A:Phase Voltage A/Terminal i,,,kV,0.00010000000,-3.932562,0.000000,-8540,99998,1,1,P
2,LC684-652A:Phase Voltage C/Terminal i,,,kV,0.00010000000,-5.330775,0.000000,3791,99998,1,1,P
3,LC692-675:Phase Voltage A/Terminal i,,,kV,0.00010000000,-3.928639,0.000000,-7029,99998,1,1,P
4,LC692-675:Phase Voltage B/Terminal i,,,kV,0.00010000000,-5.203456,0.000000,-19398,99998,1,1,P
5,LC692-675:Phase Voltage C/Terminal i,,,kV,0.00010000000,-5.352159,0.000000,4406,99998,1,1,P
6,LOHL632-633:Phase Voltage A/Terminal i,,,kV,0.00010000000,-4.968727,0.000000,7889,99998,1,1,P
7,LOHL632-633:Phase Voltage B/Terminal i,,,kV,0.00010000000,-5.796699,0.000000,1556,99998,1,1,P
8,LOHL632-633:Phase Voltage C/Terminal i,,,kV,0.00010000000,-5.833139,0.000000,16606,99998,1,1,P
9,LOHL645-646:Phase Voltage B/Terminal i,,,kV,0.00010000000,-5.803032,0.000000,1718,99998,1,1,P
10,LOHL645-646:Phase Voltage C/Terminal i,,,kV,0.00010000000,-5.835763,0.000000,16659,99998,1,1,P
50
1
15000.000000,3001
11/11/2020,22:26:32.000000
11/11/2020,22:26:32.000000
ASCII
1.000000
0000000001,0000000000,069997,053586,069968,021388,053748,080618,027589,058130,027689,058146
0000000002,0000000067,070433,052684,070402,021844,052849,081043,028041,057239,028141,057256
0000000003,0000000133,070844,051783,070816,022321,051948,081452,028526,056334,028625,056353
0000000004,0000000200,071246,050884,071213,022816,051048,081838,029015,055446,029113,055464
0000000005,0000000267,071616,049983,071587,023329,050149,082204,029538,054544,029634,054563
0000000006,0000000333,071968,049085,071941,023860,049254,082549,030072,053651,030167,053669
0000000007,0000000400,072306,048194,072275,024409,048360,082874,030616,052767,030710,052787
0000000008,0000000467,072614,047302,072587,024976,047471,083178,031188,051877,031282,051898
0000000009,0000000533,072905,046415,072878,025559,046585,083460,031767,051001,031860,051023
0000000010,0000000600,073177,045535,073148,026160,045703,083723,032373,050119,032465,050141
0000000011,0000000667,073423,044657,073396,026776,044828,083962,032986,049253,033076,049276
0000000012,0000000733,073650,043786,073622,027409,043957,084180,033620,048385,033709,048409
0000000013,0000000800,073855,042920,073827,028058,043092,084376,034270,047525,034358,047549
0000000014,0000000867,074037,042061,074010,028722,042234,084550,034935,046671,035022,046696
0000000015,0000000933,074197,041209,074171,029400,041383,084702,035613,045826,035699,045852
0000000016,0000001000,074335,040365,074310,030094,040540,084832,036305,044989,036390,045015
0000000017,0000001067,074453,039529,074427,030800,039705,084928,036985,044148,037056,044176
0000000018,0000001133,074547,038702,074522,031512,038878,084980,037591,043301,037633,043333
0000000019,0000001200,074619,037881,074595,032238,038058,085032,038343,042449,038379,042473
0000000020,0000001267,074671,037074,074645,032968,037252,085053,039031,041682,039066,041711
0000000021,0000001333,074697,036273,074673,033710,036451,085089,039802,040854,039837,040882
0000000022,0000001400,074703,035485,074679,034457,035665,085085,040545,040113,040576,040142
0000000023,0000001467,074687,034707,074662,035216,034889,085100,041371,039380,041406,039416
0000000024,0000001533,074646,033940,074623,035982,034123,085071,042181,038633,042213,038667
0000000025,0000001600,074584,033185,074560,036753,033370,084981,042921,037898,042948,037935
0000000026,0000001667,074498,032441,074475,037535,032625,084877,043702,037109,043726,037144
0000000027,0000001733,074390,031711,074366,038322,031896,084728,044445,036388,044463,036423
0000000028,0000001800,074259,030992,074235,039120,031178,084587,045269,035651,045284,035685
0000000029,0000001867,074103,030287,074080,039924,030475,084428,046053,034980,046063,035016
0000000030,0000001933,073925,029597,073902,040739,029786,084282,046934,034356,046945,034397
0000000031,0000002000,073724,028919,073701,041559,029108,084041,047717,033632,047719,033669
0000000032,0000002067,073500,028256,073477,042389,028446,083808,048559,032984,048559,033023
0000000033,0000002133,073252,027608,073230,043225,027801,083583,049426,032394,049424,032436
0000000034,0000002200,072982,026975,072960,044069,027168,083292,050254,031742,050246,031782
0000000035,0000002267,072690,026357,072667,044920,026552,082978,051097,031119,051086,031159
0000000036,0000002333,072375,025756,072353,045777,025953,082669,051949,030558,051933,030600
0000000037,0000002400,072038,025171,072016,046642,025369,082348,052855,030005,052838,030048
0000000038,0000002467,071680,024603,071659,047511,024803,081990,053723,029455,053702,029499
0000000039,0000002533,071301,024052,071280,048384,024253,081595,054579,028912,054553,028956
0000000040,0000002600,070901,023519,070880,049263,023722,081201,055465,028398,055435,028443
0000000041,0000002667,070482,023005,070461,050145,023209,080781,056348,027908,056316,027955
0000000042,0000002733,070043,022508,070022,051030,022714,080317,057211,027400,057179,027445
0000000043,0000002800,069585,022032,069564,051917,022239,079859,058093,026952,058061,026998
0000000044,0000002867,069109,021575,069088,052809,021784,079406,059023,026543,058994,026592
0000000045,0000002933,068615,021137,068594,053701,021348,078890,059883,026103,059852,026150
0000000046,0000003000,068103,020720,068083,054597,020933,078382,060798,025706,060770,025754
0000000047,0000003067,067575,020325,067555,055493,020540,077862,061699,025348,061674,025397
0000000048,0000003133,067031,019951,067011,056390,020168,077325,062610,025000,062588,025050
0000000049,0000003200,066471,019599,066451,057287,019818,076757,063497,024670,063476,024721
0000000050,0000003267,065896,019269,065876,058184,019489,076176,064388,024351,064368,024402
0000000051,0000003333,065306,018962,065286,059080,019184,075581,065276,024068,065258,024120
0000000052,0000003400,064703,018678,064683,059974,018902,074975,066162,023809,066144,023861
0000000053,0000003467,064086,018417,064066,060865,018643,074350,067041,023563,067024,023615
0000000054,0000003533,063455,018180,063436,061753,018409,073715,067924,023345,067908,023397
0000000055,0000003600,062812,017968,062793,062634,018198,073049,068772,023135,068754,023187
0000000056,0000003667,062157,017780,062137,063511,018012,072393,069649,022974,069633,023027
0000000057,0000003733,061490,017616,061470,064381,017850,071704,070493,022808,070476,022861
0000000058,0000003800,060811,017478,060791,065243,017713,071005,071331,022674,071314,022727
0000000059,0000003867,060120,017365,060100,066096,017602,070308,072177,022583,072161,022637
0000000060,0000003933,059419,017276,059399,066940,017515,069585,072995,022491,072979,022544
0000000061,0000004000,058706,017214,058686,067774,017454,068872,073831,022457,073816,022513
0000000062,0000004067,057983,017176,057963,068596,017417,068123,074627,022411,074613,022466
0000000063,0000004133,057249,017164,057229,069406,017406,067374,075425,022404,075411,022459
0000000064,0000004200,056505,017177,056485,070204,017421,066619,076211,022431,076198,022486
0000000065,0000004267,055751,017215,055730,070989,017460,065854,076992,022476,076980,022532
0000000066,0000004333,054986,017278,054965,071759,017524,065069,077742,022538,077729,022594
0000000067,0000004400,054211,017366,054190,072515,017612,064271,078477,022618,078465,022673
0000000068,0000004467,053427,017477,053405,073257,017725,063477,079215,022737,079204,022793
0000000069,0000004533,052633,017613,052610,073985,017861,062670,079943,022872,079938,022928
0000000070,0000004600,051829,017773,051806,074698,018022,061864,080668,023045,080672,023102
0000000071,0000004667,051016,017956,050993,075397,018205,061037,081366,023223,081378,023278
0000000072,0000004733,050194,018161,050170,076083,018411,060215,082066,023438,082089,023494
0000000073,0000004800,049363,018389,049339,076757,018639,059375,082741,023663,082772,023718
0000000074,0000004867,048524,018639,048500,077418,018890,058537,083413,023926,083453,023981
0000000075,0000004933,047678,018910,047653,078068,019161,057681,084055,024195,084103,024250
0000000076,0000005000,046824,019203,046799,078706,019454,056828,084695,024495,084752,024551
0000000077,0000005067,045964,019515,045938,079331,019767,055954,085300,024799,085361,024854
0000000078,0000005133,045098,019848,045072,079945,020101,055082,085899,025131,085965,025186
0000000079,0000005200,044228,020201,044201,080544,020454,054207,086481,025486,086552,025541
0000000080,0000005267,043353,020573,043326,081130,020826,053332,087052,025866,087127,025921
0000000081,0000005333,042476,020964,042448,081700,021218,052445,087593,026254,087672,026309
0000000082,0000005400,041596,021373,041568,082254,021628,051559,088122,026665,088204,026719
0000000083,0000005467,040715,021801,040686,082790,022056,050678,088640,027101,088726,027156
0000000084,0000005533,039834,022246,039805,083307,022502,049787,089127,027545,089216,027599
0000000085,0000005600,038953,022709,038924,083803,022966,048898,089594,028009,089686,028063
0000000086,0000005667,038074,023190,038044,084278,023447,048017,090048,028499,090142,028553
0000000087,0000005733,037197,023688,037167,084730,023946,047130,090468,028998,090563,029052
0000000088,0000005800,036323,024202,036293,085157,024462,046243,090860,029512,090954,029565
0000000089,0000005867,035453,024734,035422,085558,024994,045366,091233,030052,091325,030106
0000000090,0000005933,034587,025282,034556,085932,025543,044487,091573,030601,091663,030655
0000000091,0000006000,033726,025846,033694,086276,026108,043611,091886,031164,091973,031218
0000000092,0000006067,032869,026427,032837,086591,026690,042746,092181,031753,092265,031806
0000000093,0000006133,032018,027024,031986,086875,027287,041880,092437,032349,092518,032402
0000000094,0000006200,031172,027636,031139,087127,027900,041023,092668,032966,092743,033020
0000000095,0000006267,030331,028263,030298,087346,028528,040167,092866,033593,092935,033646
0000000096,0000006333,029495,028906,029462,087533,029171,039318,093039,034235,093103,034288
0000000097,0000006400,028665,029563,028631,087687,029829,038478,093185,034897,093244,034949
0000000098,0000006467,027839,030234,027805,087808,030500,037643,093304,035571,093359,035624
0000000099,0000006533,027019,030920,026984,087897,031186,036817,093398,036260,093449,036312
0000000100,0000006600,026203,031618,026167,087954,031885,035997,093466,036963,093513,037015
0000000101,0000006667,025391,032330,025355,087982,032596,035184,093506,037680,093551,037732
0000000102,0000006733,024583,033054,024547,087980,033320,034377,093521,038408,093562,038459
0000000103,0000006800,023780,033789,023743,087951,034055,033578,093513,039149,093551,039200
0000000104,0000006867,022981,034536,022943,087896,034802,032787,093481,039903,093517,039954
0000000105,0000006933,022186,035293,022148,087817,035559,032000,093425,040665,093458,040715
0000000106,0000007000,021396,036060,021357,087715,036325,031223,093348,041440,093379,041490
0000000107,0000007067,020610,036836,020571,087591,037100,030455,093252,042224,093281,042274
0000000108,0000007133,019831,037620,019791,087448,037884,029692,093132,043015,093160,043063
0000000109,0000007200,019058,038412,019017,087286,038676,028939,092994,043815,093020,043864
0000000110,0000007267,018291,039211,018250,087107,039475,028198,092840,044628,092865,044676
0000000111,0000007333,017534,040017,017492,086912,040280,027466,092668,045444,092691,045492
0000000112,0000007400,016785,040828,016743,086702,041091,026743,092475,046266,092497,046312
0000000113,0000007467,016048,041645,016005,086477,041908,026035,092267,047096,092288,047142
0000000114,0000007533,015322,042467,015279,086239,042729,025341,092047,047933,092067,047979
0000000115,0000007600,014610,043293,014566,085987,043556,024660,091806,048774,091826,048819
0000000116,0000007667,013914,044124,013869,085722,044386,023993,091548,049618,091567,049662
0000000117,0000007733,013234,044958,013189,085444,045220,023344,091276,050467,091294,050510
0000000118,0000007800,012573,045795,012528,085152,046058,022713,090988,051323,091005,051366
0000000119,0000007867,011931,046636,011886,084847,046899,022101,090681,052181,090696,052223
0000000120,0000007933,011312,047479,011266,084526,047743,021506,090356,053039,090370,053081
0000000121,0000008000,010715,048326,010669,084191,048590,020933,090014,053902,090027,053943
0000000122,0000008067,010142,049176,010096,083840,049441,020385,089659,054771,089672,054811
0000000123,0000008133,009594,050029,009548,083473,050294,019859,089286,055641,089299,055681
0000000124,0000008200,009073,050884,009027,083088,051150,019355,088893,056512,088905,056551
0000000125,0000008267,008578,051743,008532,082686,052010,018875,088482,057385,088495,057423
0000000126,0000008333,008111,052605,008065,082266,052872,018422,088056,058262,088069,058300
0000000127,0000008400,007672,053469,007626,081827,053738,017994,087611,059142,087625,059179
0000000128,0000008467,007261,054337,007215,081369,054607,017588,087145,060019,087161,060055
0000000129,0000008533,006878,055208,006832,080893,055478,017208,086660,060898,086677,060933
0000000130,0000008600,006523,056083,006476,080397,056353,016855,086159,061780,086178,061815
0000000131,0000008667,006195,056960,006148,079882,057231,016527,085642,062663,085663,062697
0000000132,0000008733,005893,057840,005847,079348,058112,016223,085103,063545,085126,063578
0000000133,0000008800,005618,058723,005572,078796,058995,015941,084547,064426,084572,064458
0000000134,0000008867,005368,059609,005322,078227,059880,015687,083976,065309,084004,065341
0000000135,0000008933,005143,060496,005096,077639,060767,015455,083388,066192,083419,066223
0000000136,0000009000,004941,061385,004894,077036,061656,015246,082784,067072,082818,067102
0000000137,0000009067,004762,062275,004715,076416,062546,015057,082162,067949,082198,067978
0000000138,0000009133,004605,063166,004557,075782,063435,014892,081527,068825,081567,068853
0000000139,0000009200,004468,064056,004420,075133,064325,014749,080880,069699,080923,069727
0000000140,0000009267,004352,064945,004304,074471,065212,014626,080217,070568,080263,070595
0000000141,0000009333,004255,065833,004206,073797,066098,014521,079539,071430,079589,071455
0000000142,0000009400,004177,066717,004128,073112,066980,014440,078855,072291,078908,072316
0000000143,0000009467,004118,067597,004068,072415,067858,014376,078154,073144,078212,073168
0000000144,0000009533,004076,068472,004026,071708,068731,014333,077444,073989,077505,074012
0000000145,0000009600,004053,069340,004001,070993,069597,014309,076724,074826,076789,074848
0000000146,0000009667,004047,070201,003995,070268,070455,014304,075993,075655,076062,075676
0000000147,0000009733,004060,071053,004007,069535,071305,014320,075255,076475,075329,076496
0000000148,0000009800,004091,071894,004037,068794,072144,014354,074505,077282,074582,077301
0000000149,0000009867,004140,072724,004086,068045,072971,014410,073749,078079,073831,078098
0000000150,0000009933,004209,073542,004154,067289,073786,014484,072983,078861,073068,078879
0000000151,0000010000,004297,074345,004241,066525,074586,014580,072210,079633,072300,079650
0000000152,0000010067,004406,075133,004349,065754,075371,014696,071427,080387,071521,080403
0000000153,0000010133,004535,075905,004478,064975,076140,014835,070639,081127,070737,081143
0000000154,0000010200,004686,076659,004628,064189,076892,014994,069840,081850,069942,081865
0000000155,0000010267,004858,077394,004800,063396,077625,015175,069034,082556,069140,082571
0000000156,0000010333,005054,078110,004995,062594,078338,015378,068220,083244,068329,083257
0000000157,0000010400,005272,078806,005213,061785,079032,015605,067399,083914,067512,083927
0000000158,0000010467,005514,079480,005454,060967,079704,015853,066572,084564,066689,084576
0000000159,0000010533,005779,080133,005719,060141,080354,016126,065737,085195,065858,085206
0000000160,0000010600,006068,080763,006007,059308,080982,016421,064897,085806,065022,085816
0000000161,0000010667,006380,081370,006320,058466,081588,016739,064049,086395,064179,086405
0000000162,0000010733,006716,081954,006656,057616,082170,017080,063196,086965,063330,086974
0000000163,0000010800,007076,082514,007015,056759,082729,017443,062337,087512,062475,087520
0000000164,0000010867,007458,083050,007397,055894,083264,017828,061473,088038,061616,088046
0000000165,0000010933,007862,083563,007801,055023,083775,018235,060603,088542,060750,088549
0000000166,0000011000,008288,084051,008227,054146,084263,018662,059729,089025,059880,089031
0000000167,0000011067,008734,084516,008674,053263,084727,019104,058833,089479,058982,089485
0000000168,0000011133,009200,084957,009140,052374,085168,019568,057940,089915,058087,089921
0000000169,0000011200,009684,085375,009624,051480,085584,020049,057043,090326,057190,090331
0000000170,0000011267,010187,085769,010127,050580,085978,020549,056140,090718,056284,090722
0000000171,0000011333,010705,086140,010646,049676,086349,021065,055233,091084,055374,091088
0000000172,0000011400,011240,086489,011181,048767,086697,021600,054330,091432,054469,091435
0000000173,0000011467,011789,086815,011730,047854,087023,022149,053422,091755,053560,091758
0000000174,0000011533,012351,087119,012292,046939,087326,022717,052520,092061,052657,092063
0000000175,0000011600,012925,087401,012867,046021,087607,023296,051615,092341,051751,092343
0000000176,0000011667,013512,087661,013454,045102,087867,023891,050715,092604,050851,092606
0000000177,0000011733,014108,087900,014051,044184,088105,024498,049816,092841,049951,092843
0000000178,0000011800,014715,088118,014658,043267,088322,025119,048923,093062,049058,093063
0000000179,0000011867,015331,088314,015274,042354,088518,025749,048031,093257,048166,093258
0000000180,0000011933,015956,088490,015899,041444,088692,026394,047149,093434,047284,093435
0000000181,0000012000,016590,088644,016533,040540,088846,027047,046270,093587,046404,093587
0000000182,0000012067,017232,088778,017175,039642,088979,027713,045401,093722,045535,093722
0000000183,0000012133,017883,088891,017826,038753,089090,028388,044539,093833,044673,093832
0000000184,0000012200,018542,088983,018486,037874,089181,029074,043686,093923,043820,093921
0000000185,0000012267,019210,089054,019154,037004,089251,029770,042844,093992,042978,093990
0000000186,0000012333,019887,089104,019831,036147,089299,030478,042015,094040,042148,094038
0000000187,0000012400,020574,089132,020518,035302,089326,031196,041197,094066,041330,094064
0000000188,0000012467,021272,089140,021216,034471,089332,031923,040389,094069,040522,094067
0000000189,0000012533,021980,089126,021924,033655,089317,032662,039596,094052,039729,094050
0000000190,0000012600,022700,089090,022644,032854,089280,033412,038818,094012,038950,094010
0000000191,0000012667,023431,089033,023376,032069,089221,034173,038053,093951,038185,093948
0000000192,0000012733,024176,088954,024120,031300,089141,034945,037303,093867,037435,093864
0000000193,0000012800,024933,088853,024878,030549,089038,035729,036568,093761,036699,093757
0000000194,0000012867,025705,088731,025649,029814,088914,036516,035830,093627,035954,093623
0000000195,0000012933,026490,088586,026435,029096,088769,037318,035108,093473,035223,093470
0000000196,0000013000,027290,088420,027235,028394,088601,038127,034396,093295,034501,093292
0000000197,0000013067,028104,088232,028049,027708,088412,038950,033702,093096,033798,093093
0000000198,0000013133,028932,088022,028877,027036,088202,039784,033025,092875,033112,092872
0000000199,0000013200,029774,087791,029720,026379,087970,040633,032371,092635,032452,092632
0000000200,0000013267,030629,087539,030575,025737,087717,041492,031733,092375,031808,092372
0000000201,0000013333,031497,087266,031444,025109,087442,042359,031109,092092,031178,092089
0000000202,0000013400,032377,086972,032324,024496,087148,043238,030504,091790,030568,091788
0000000203,0000013467,033267,086657,033214,023900,086832,044124,029915,091467,029974,091464
