DIgSILENT PowerFactory,20000410,2000
10,10A,00D
1,LC684-652A:Phase Voltage A/Terminal i,,,kV,0.00010000000,-5.482052,0.000000,9631,99998,1,1,P
2,LC684-652A:Phase Voltage C/Terminal i,,,kV,0.00010000000,-5.372477,0.000000,8954,99998,1,1,P
3,LC692-675:Phase Voltage A/Terminal i,,,kV,0.00010000000,-5.481589,0.000000,9627,99998,1,1,P
4,LC692-675:Phase Voltage B/Terminal i,,,kV,0.00010000000,-5.578880,0.000000,6369,99998,1,1,P
5,LC692-675:Phase Voltage C/Terminal i,,,kV,0.00010000000,-5.383567,0.000000,9306,99998,1,1,P
6,LOHL632-633:Phase Voltage A/Terminal i,,,kV,0.00010000000,-5.946807,0.000000,19018,99998,1,1,P
7,LOHL632-633:Phase Voltage B/Terminal i,,,kV,0.00010000000,-5.967900,0.000000,16614,99998,1,1,P
8,LOHL632-633:Phase Voltage C/Terminal i,,,kV,0.00010000000,-5.799680,0.000000,17049,99998,1,1,P
9,LOHL645-646:Phase Voltage B/Terminal i,,,kV,0.00010000000,-5.970117,0.000000,16695,99998,1,1,P
10,LOHL645-646:Phase Voltage C/Terminal i,,,kV,0.00010000000,-5.802227,0.000000,17102,99998,1,1,P
50
1
15000.000000,3001
11/11/2020,23:31:21.000000
11/11/2020,23:31:21.000000
ASCII
1.000000
0000000001,0000000000,085491,054005,085496,025140,054067,090399,029301,057796,029360,057810
0000000002,0000000067,085928,053100,085932,025598,053162,090824,029753,056905,029813,056918
0000000003,0000000133,086340,052198,086347,026074,052262,091232,030237,056001,030293,056017
0000000004,0000000200,086739,051300,086742,026570,051362,091617,030727,055111,030784,055128
0000000005,0000000267,087111,050401,087116,027083,050463,091985,031250,054209,031305,054226
0000000006,0000000333,087464,049504,087470,027615,049568,092331,031781,053318,031835,053336
0000000007,0000000400,087797,048609,087804,028164,048674,092654,032329,052431,032382,052450
0000000008,0000000467,088112,047720,088116,028730,047785,092959,032895,051547,032947,051567
0000000009,0000000533,088399,046832,088407,029314,046899,093242,033485,050661,033536,050682
0000000010,0000000600,088671,045952,088677,029914,046018,093503,034082,049788,034132,049810
0000000011,0000000667,088918,045074,088925,030531,045141,093742,034699,048917,034748,048939
0000000012,0000000733,089144,044202,089152,031164,044271,093960,035335,048048,035383,048071
0000000013,0000000800,089350,043337,089357,031812,043406,094157,035983,047189,036030,047213
0000000014,0000000867,089531,042478,089540,032476,042548,094331,036646,046337,036692,046361
0000000015,0000000933,089692,041626,089700,033155,041697,094483,037323,045493,037368,045518
0000000016,0000001000,089831,040782,089840,033848,040854,094612,038015,044655,038059,044681
0000000017,0000001067,089948,039946,089956,034552,040018,094695,038668,043801,038693,043828
0000000018,0000001133,090042,039118,090052,035266,039193,094780,039307,043008,039306,043039
0000000019,0000001200,090115,038299,090124,035993,038373,094800,040044,042112,040045,042143
0000000020,0000001267,090165,037489,090175,036724,037564,094861,040785,041315,040778,041336
0000000021,0000001333,090193,036691,090203,037463,036768,094887,041518,040588,041511,040616
0000000022,0000001400,090198,035902,090209,038215,035980,094926,042349,039821,042346,039854
0000000023,0000001467,090182,035123,090191,038971,035201,094844,043062,038983,043053,039012
0000000024,0000001533,090142,034357,090151,039736,034435,094812,043858,038248,043848,038280
0000000025,0000001600,090079,033601,090090,040509,033682,094772,044652,037538,044641,037574
0000000026,0000001667,089994,032859,090005,041287,032941,094636,045365,036786,045343,036819
0000000027,0000001733,089885,032127,089896,042077,032209,094519,046183,036022,046160,036055
0000000028,0000001800,089753,031410,089764,042873,031493,094364,046954,035346,046926,035381
0000000029,0000001867,089598,030704,089610,043680,030789,094228,047806,034651,047777,034686
0000000030,0000001933,089420,030013,089432,044494,030099,094059,048647,034003,048615,034041
0000000031,0000002000,089219,029336,089231,045314,029424,093852,049458,033350,049422,033390
0000000032,0000002067,088994,028673,089007,046144,028761,093614,050299,032671,050259,032710
0000000033,0000002133,088747,028025,088759,046980,028115,093369,051142,032071,051098,032113
0000000034,0000002200,088477,027392,088489,047823,027483,093076,051969,031419,051920,031460
0000000035,0000002267,088184,026775,088197,048674,026867,092785,052825,030833,052773,030875
0000000036,0000002333,087870,026173,087882,049531,026267,092449,053666,030225,053609,030266
0000000037,0000002400,087533,025588,087546,050395,025684,092126,054545,029677,054485,029721
0000000038,0000002467,087175,025020,087188,051265,025117,091771,055441,029126,055380,029171
0000000039,0000002533,086796,024470,086809,052139,024568,091390,056299,028599,056232,028646
0000000040,0000002600,086397,023937,086410,053016,024036,090962,057146,028061,057074,028106
0000000041,0000002667,085977,023422,085990,053898,023523,090544,058032,027563,057957,027608
0000000042,0000002733,085538,022926,085552,054784,023028,090116,058949,027090,058877,027136
0000000043,0000002800,085080,022449,085094,055672,022554,089663,059839,026648,059769,026695
0000000044,0000002867,084604,021991,084617,056563,022098,089173,060725,026188,060654,026234
0000000045,0000002933,084110,021554,084123,057456,021662,088683,061624,025778,061554,025825
0000000046,0000003000,083598,021138,083612,058350,021248,088162,062500,025374,062431,025420
0000000047,0000003067,083070,020742,083084,059247,020854,087648,063419,025023,063354,025072
0000000048,0000003133,082526,020368,082540,060144,020482,087099,064311,024670,064247,024719
0000000049,0000003200,081966,020016,081980,061041,020132,086530,065200,024326,065136,024376
0000000050,0000003267,081391,019686,081405,061938,019803,085946,066084,024003,066022,024052
0000000051,0000003333,080801,019378,080816,062834,019498,085352,066976,023720,066915,023769
0000000052,0000003400,080198,019095,080212,063728,019216,084746,067859,023459,067798,023510
0000000053,0000003467,079581,018834,079595,064619,018957,084119,068745,023210,068686,023260
0000000054,0000003533,078950,018597,078965,065507,018722,083483,069623,022993,069564,023044
0000000055,0000003600,078307,018385,078322,066389,018512,082826,070481,022794,070422,022845
0000000056,0000003667,077652,018197,077667,067265,018326,082165,071350,022628,071292,022680
0000000057,0000003733,076985,018033,076999,068135,018164,081489,072210,022484,072153,022537
0000000058,0000003800,076306,017895,076320,068997,018027,080795,073053,022351,072996,022404
0000000059,0000003867,075615,017782,075630,069851,017916,080093,073893,022252,073837,022305
0000000060,0000003933,074914,017694,074928,070695,017829,079377,074720,022168,074664,022221
0000000061,0000004000,074201,017631,074216,071528,017768,078650,075542,022115,075487,022168
0000000062,0000004067,073478,017593,073492,072350,017731,077904,076340,022076,076284,022130
0000000063,0000004133,072744,017581,072758,073160,017721,077155,077132,022072,077077,022126
0000000064,0000004200,072000,017594,072014,073958,017735,076394,077915,022089,077860,022143
0000000065,0000004267,071245,017632,071259,074743,017774,075626,078692,022128,078638,022183
0000000066,0000004333,070481,017695,070494,075514,017838,074847,079452,022197,079398,022252
0000000067,0000004400,069706,017783,069719,076270,017926,074051,080187,022286,080133,022340
0000000068,0000004467,068922,017895,068934,077011,018039,073257,080924,022404,080872,022459
0000000069,0000004533,068127,018030,068140,077739,018175,072450,081653,022537,081607,022592
0000000070,0000004600,067324,018190,067336,078452,018336,071644,082375,022711,082336,022766
0000000071,0000004667,066511,018373,066522,079151,018519,070815,083076,022884,083047,022939
0000000072,0000004733,065689,018578,065700,079837,018725,069996,083778,023104,083759,023159
0000000073,0000004800,064858,018806,064869,080511,018953,069153,084446,023328,084436,023382
0000000074,0000004867,064019,019056,064029,081172,019204,068317,085122,023591,085121,023646
0000000075,0000004933,063173,019327,063182,081822,019475,067462,085769,023858,085776,023912
0000000076,0000005000,062319,019620,062328,082460,019768,066610,086408,024160,086424,024215
0000000077,0000005067,061459,019932,061468,083086,020081,065735,087012,024462,087033,024516
0000000078,0000005133,060593,020265,060602,083699,020415,064870,087619,024804,087644,024858
0000000079,0000005200,059723,020618,059730,084299,020768,063990,088194,025154,088223,025208
0000000080,0000005267,058848,020990,058855,084884,021140,063109,088758,025528,088791,025582
0000000081,0000005333,057970,021381,057977,085455,021532,062230,089312,025925,089350,025980
0000000082,0000005400,057091,021790,057097,086008,021941,061338,089835,026327,089876,026380
0000000083,0000005467,056210,022218,056216,086544,022370,060457,090351,026765,090396,026819
0000000084,0000005533,055328,022663,055334,087061,022816,059567,090837,027211,090885,027265
0000000085,0000005600,054448,023126,054453,087558,023280,058680,091306,027676,091356,027729
0000000086,0000005667,053569,023607,053574,088033,023762,057798,091760,028164,091813,028218
0000000087,0000005733,052692,024105,052696,088484,024260,056908,092177,028659,092231,028712
0000000088,0000005800,051818,024619,051822,088911,024776,056029,092578,029184,092632,029237
0000000089,0000005867,050948,025151,050952,089313,025308,055148,092947,029717,092999,029770
0000000090,0000005933,050082,025699,050085,089686,025857,054268,093287,030266,093336,030319
0000000091,0000006000,049221,026263,049224,090031,026422,053392,093598,030829,093644,030882
0000000092,0000006067,048364,026844,048367,090346,027004,052526,093892,031417,093935,031470
0000000093,0000006133,047513,027441,047515,090629,027601,051664,094154,032019,094193,032072
0000000094,0000006200,046667,028053,046669,090881,028214,050803,094381,032631,094414,032683
0000000095,0000006267,045826,028680,045827,091101,028842,049949,094581,033260,094609,033312
0000000096,0000006333,044990,029323,044992,091287,029485,049100,094752,033903,094774,033955
0000000097,0000006400,044160,029980,044161,091441,030143,048261,094900,034564,094918,034616
0000000098,0000006467,043334,030651,043335,091562,030814,047425,095018,035238,095031,035289
0000000099,0000006533,042514,031337,042514,091651,031500,046598,095110,035926,095119,035978
0000000100,0000006600,041698,032035,041697,091709,032199,045781,095182,036634,095188,036685
0000000101,0000006667,040886,032747,040885,091736,032911,044967,095220,037348,095223,037399
0000000102,0000006733,040078,033471,040077,091735,033634,044159,095234,038074,095234,038124
0000000103,0000006800,039275,034206,039273,091706,034370,043361,095229,038817,095226,038868
0000000104,0000006867,038476,034953,038473,091651,035116,042567,095192,039568,095187,039618
0000000105,0000006933,037681,035710,037677,091571,035873,041781,095137,040330,095129,040379
0000000106,0000007000,036891,036477,036886,091469,036639,041004,095060,041105,095050,041154
0000000107,0000007067,036105,037253,036101,091345,037415,040236,094964,041890,094953,041939
0000000108,0000007133,035326,038037,035320,091202,038198,039474,094846,042684,094832,042732
0000000109,0000007200,034552,038829,034546,091040,038990,038722,094708,043485,094693,043533
0000000110,0000007267,033786,039628,033780,090861,039789,037977,094550,044291,094533,044338
0000000111,0000007333,033028,040434,033021,090666,040594,037246,094378,045108,094360,045155
0000000112,0000007400,032280,041245,032272,090456,041405,036526,094189,045933,094170,045979
0000000113,0000007467,031542,042062,031534,090232,042222,035815,093979,046760,093959,046806
0000000114,0000007533,030817,042884,030808,089993,043044,035121,093757,047598,093736,047643
0000000115,0000007600,030105,043710,030096,089742,043870,034440,093517,048439,093495,048483
0000000116,0000007667,029409,044541,029399,089477,044700,033773,093259,049283,093237,049326
0000000117,0000007733,028729,045375,028719,089198,045534,033126,092990,050135,092967,050178
0000000118,0000007800,028068,046212,028057,088907,046372,032494,092700,050989,092676,051031
0000000119,0000007867,027426,047053,027416,088601,047213,031880,092391,051843,092365,051885
0000000120,0000007933,026806,047896,026796,088281,048057,031288,092069,052706,092042,052747
0000000121,0000008000,026209,048743,026198,087945,048904,030716,091728,053570,091701,053611
0000000122,0000008067,025637,049593,025625,087594,049755,030165,091370,054435,091342,054475
0000000123,0000008133,025089,050446,025078,087227,050608,029640,090998,055306,090969,055346
0000000124,0000008200,024568,051301,024556,086843,051464,029136,090605,056177,090577,056215
0000000125,0000008267,024073,052160,024062,086441,052324,028657,090195,057052,090167,057089
0000000126,0000008333,023606,053022,023595,086020,053186,028202,089768,057927,089740,057964
0000000127,0000008400,023167,053886,023156,085581,054052,027773,089321,058804,089294,058840
0000000128,0000008467,022756,054754,022744,085124,054921,027369,088856,059683,088831,059719
0000000129,0000008533,022373,055625,022361,084647,055793,026989,088372,060563,088348,060598
0000000130,0000008600,022018,056500,022006,084151,056667,026636,087871,061445,087849,061479
0000000131,0000008667,021689,057377,021678,083636,057545,026307,087352,062327,087331,062360
0000000132,0000008733,021388,058257,021376,083103,058426,026003,086815,063210,086797,063242
0000000133,0000008800,021113,059140,021101,082551,059309,025724,086260,064093,086244,064124
0000000134,0000008867,020863,060026,020851,081981,060194,025468,085689,064976,085676,065006
0000000135,0000008933,020638,060913,020626,081394,061082,025236,085100,065858,085090,065888
0000000136,0000009000,020436,061802,020424,080790,061970,025026,084495,066738,084488,066767
0000000137,0000009067,020257,062692,020244,080171,062860,024839,083876,067616,083871,067645
0000000138,0000009133,020100,063583,020087,079536,063749,024674,083240,068491,083239,068519
0000000139,0000009200,019963,064473,019950,078888,064639,024530,082591,069364,082593,069391
0000000140,0000009267,019847,065362,019833,078226,065526,024406,081928,070232,081933,070258
0000000141,0000009333,019750,066250,019736,077551,066412,024303,081252,071097,081261,071122
0000000142,0000009400,019672,067134,019657,076866,067294,024219,080564,071955,080576,071979
0000000143,0000009467,019613,068014,019597,076169,068172,024158,079867,072809,079883,072833
0000000144,0000009533,019571,068889,019555,075463,069045,024114,079157,073655,079177,073678
0000000145,0000009600,019548,069757,019531,074747,069911,024090,078437,074493,078461,074514
0000000146,0000009667,019542,070618,019525,074022,070769,024086,077707,075322,077735,075343
0000000147,0000009733,019555,071470,019537,073289,071619,024101,076967,076141,076999,076161
0000000148,0000009800,019586,072311,019567,072548,072458,024136,076219,076949,076255,076968
0000000149,0000009867,019635,073141,019615,071799,073285,024189,075460,077743,075500,077762
0000000150,0000009933,019704,073959,019683,071043,074100,024266,074696,078528,074741,078546
0000000151,0000010000,019792,074762,019771,070279,074900,024360,073921,079297,073969,079313
0000000152,0000010067,019901,075550,019879,069508,075685,024478,073140,080053,073193,080069
0000000153,0000010133,020030,076322,020007,068730,076454,024615,072350,080792,072406,080806
0000000154,0000010200,020181,077076,020157,067944,077206,024774,071552,081515,071613,081529
0000000155,0000010267,020353,077811,020330,067150,077939,024956,070746,082222,070811,082235
0000000156,0000010333,020549,078527,020524,066348,078652,025159,069932,082909,070000,082922
0000000157,0000010400,020767,079223,020742,065539,079346,025385,069111,083578,069182,083590
0000000158,0000010467,021008,079897,020983,064721,080018,025635,068285,084230,068360,084241
0000000159,0000010533,021274,080550,021248,063896,080668,025906,067449,084860,067529,084870
0000000160,0000010600,021563,081180,021537,063062,081296,026202,066608,085471,066692,085481
0000000161,0000010667,021875,081787,021849,062220,081902,026520,065762,086062,065850,086071
0000000162,0000010733,022211,082371,022185,061370,082484,026860,064908,086629,065000,086638
0000000163,0000010800,022571,082931,022545,060513,083043,027223,064049,087177,064146,087185
0000000164,0000010867,022953,083467,022927,059649,083578,027609,063185,087704,063287,087711
0000000165,0000010933,023357,083980,023331,058778,084089,028015,062315,088207,062421,088213
0000000166,0000011000,023783,084468,023757,057901,084577,028442,061439,088689,061549,088695
0000000167,0000011067,024229,084933,024203,057017,085041,028885,060546,089145,060654,089150
0000000168,0000011133,024695,085374,024669,056128,085482,029348,059651,089580,059757,089584
0000000169,0000011200,025179,085792,025154,055234,085899,029831,058756,089993,058862,089997
0000000170,0000011267,025681,086186,025656,054334,086292,030329,057850,090382,057953,090385
0000000171,0000011333,026200,086557,026176,053430,086663,030846,056946,090750,057046,090753
0000000172,0000011400,026735,086906,026710,052521,087011,031380,056040,091096,056139,091099
0000000173,0000011467,027284,087232,027259,051608,087337,031930,055135,091421,055232,091423
0000000174,0000011533,027846,087536,027822,050693,087640,032497,054231,091725,054327,091727
0000000175,0000011600,028420,087818,028397,049775,087921,033077,053327,092007,053422,092008
0000000176,0000011667,029006,088078,028983,048857,088181,033672,052427,092268,052521,092269
0000000177,0000011733,029603,088317,029580,047938,088419,034279,051528,092507,051622,092508
0000000178,0000011800,030210,088534,030187,047022,088636,034899,050634,092726,050728,092726
0000000179,0000011867,030826,088731,030803,046108,088832,035531,049744,092923,049838,092923
0000000180,0000011933,031451,088907,031429,045198,089006,036174,048860,093099,048953,093098
0000000181,0000012000,032085,089061,032063,044294,089160,036829,047983,093254,048076,093253
0000000182,0000012067,032727,089195,032705,043397,089293,037493,047112,093386,047205,093385
0000000183,0000012133,033378,089308,033356,042508,089404,038169,046251,093499,046344,093497
0000000184,0000012200,034037,089400,034015,041628,089495,038855,045399,093589,045491,093587
0000000185,0000012267,034705,089471,034683,040759,089565,039552,044557,093658,044650,093656
0000000186,0000012333,035382,089521,035361,039901,089613,040258,043726,093705,043818,093702
0000000187,0000012400,036069,089549,036048,039057,089640,040976,042907,093731,043000,093728
0000000188,0000012467,036767,089557,036745,038226,089646,041704,042101,093735,042193,093732
0000000189,0000012533,037475,089543,037453,037409,089631,042442,041308,093717,041399,093713
0000000190,0000012600,038194,089507,038173,036608,089594,043192,040529,093677,040621,093674
0000000191,0000012667,038926,089450,038905,035823,089535,043953,039764,093615,039855,093611
0000000192,0000012733,039671,089371,039650,035055,089455,044726,039015,093532,039105,093528
0000000193,0000012800,040428,089270,040407,034303,089352,045509,038279,093425,038369,093421
0000000194,0000012867,041200,089147,041179,033569,089228,046298,037543,093293,037626,093289
0000000195,0000012933,041985,089003,041965,032851,089083,047098,036819,093138,036893,093134
0000000196,0000013000,042785,088837,042764,032149,088915,047908,036108,092960,036171,092956
0000000197,0000013067,043599,088649,043579,031462,088726,048731,035414,092761,035468,092757
0000000198,0000013133,044427,088439,044407,030790,088516,049565,034737,092540,034783,092537
0000000199,0000013200,045269,088208,045249,030133,088284,050413,034083,092301,034123,092297
0000000200,0000013267,046124,087956,046105,029491,088031,051272,033444,092040,033478,092036
0000000201,0000013333,046992,087683,046973,028863,087757,052140,032821,091757,032850,091754
0000000202,0000013400,047871,087389,047853,028251,087462,053018,032216,091455,032239,091452
0000000203,0000013467,048762,087074,048744,027654,087146,053904,031627,091132,031645,091128
