DIgSILENT PowerFactory,20000410,2000
10,10A,00D
1,LC684-652A:Phase Voltage A/Terminal i,,,kV,0.00010000000,-5.420688,0.000000,8557,99998,1,1,P
2,LC684-652A:Phase Voltage C/Terminal i,,,kV,0.00010000000,-5.324362,0.000000,7923,99998,1,1,P
3,LC692-675:Phase Voltage A/Terminal i,,,kV,0.00010000000,-5.420339,0.000000,8554,99998,1,1,P
4,LC692-675:Phase Voltage B/Terminal i,,,kV,0.00010000000,-5.528201,0.000000,4765,99998,1,1,P
5,LC692-675:Phase Voltage C/Terminal i,,,kV,0.00010000000,-5.336215,0.000000,8265,99998,1,1,P
6,LOHL632-633:Phase Voltage A/Terminal i,,,kV,0.00010000000,-5.920382,0.000000,18583,99998,1,1,P
7,LOHL632-633:Phase Voltage B/Terminal i,,,kV,0.00010000000,-5.938697,0.000000,15637,99998,1,1,P
8,LOHL632-633:Phase Voltage C/Terminal i,,,kV,0.00010000000,-5.769272,0.000000,16425,99998,1,1,P
9,LOHL645-646:Phase Voltage B/Terminal i,,,kV,0.00010000000,-5.941275,0.000000,15713,99998,1,1,P
10,LOHL645-646:Phase Voltage C/Terminal i,,,kV,0.00010000000,-5.771849,0.000000,16479,99998,1,1,P
50
1
15000.000000,3001
11/11/2020,22:07:37.000000
11/11/2020,22:07:37.000000
ASCII
1.000000
0000000001,0000000000,084878,053522,084885,024635,053588,090135,029009,057492,029071,057506
0000000002,0000000067,085315,052620,085319,025092,052690,090560,029461,056600,029523,056617
0000000003,0000000133,085725,051718,085733,025568,051789,090969,029946,055695,030008,055714
0000000004,0000000200,086127,050820,086130,026063,050888,091354,030435,054807,030496,054825
0000000005,0000000267,086498,049919,086504,026576,049990,091721,030958,053906,031016,053924
0000000006,0000000333,086849,049021,086858,027108,049094,092066,031492,053012,031549,053030
0000000007,0000000400,087187,048130,087192,027657,048201,092391,032036,052128,032093,052148
0000000008,0000000467,087496,047238,087504,028223,047311,092695,032608,051238,032665,051258
0000000009,0000000533,087787,046351,087795,028807,046426,092977,033187,050362,033242,050384
0000000010,0000000600,088059,045471,088065,029407,045544,093239,033793,049481,033847,049502
0000000011,0000000667,088304,044593,088313,030024,044668,093478,034406,048614,034458,048637
0000000012,0000000733,088531,043722,088539,030657,043797,093696,035040,047747,035092,047770
0000000013,0000000800,088736,042856,088744,031305,042933,093892,035690,046886,035741,046910
0000000014,0000000867,088918,041997,088927,031969,042075,094066,036355,046033,036405,046057
0000000015,0000000933,089078,041145,089088,032648,041224,094218,037033,045187,037081,045213
0000000016,0000001000,089217,040301,089227,033341,040381,094348,037725,044350,037772,044376
0000000017,0000001067,089334,039465,089344,034048,039545,094444,038405,043510,038438,043537
0000000018,0000001133,089428,038637,089439,034760,038719,094496,039011,042662,039015,042694
0000000019,0000001200,089500,037817,089512,035486,037898,094549,039762,041810,039761,041834
0000000020,0000001267,089552,037010,089562,036216,037093,094569,040451,041044,040448,041072
0000000021,0000001333,089579,036209,089590,036957,036292,094606,041222,040216,041219,040243
0000000022,0000001400,089585,035421,089596,037705,035506,094601,041965,039474,041959,039503
0000000023,0000001467,089568,034643,089579,038463,034729,094617,042791,038742,042789,038777
0000000024,0000001533,089527,033876,089540,039230,033963,094588,043601,037994,043596,038028
0000000025,0000001600,089465,033121,089477,040001,033210,094497,044341,037259,044330,037296
0000000026,0000001667,089380,032377,089392,040782,032466,094394,045122,036471,045109,036505
0000000027,0000001733,089272,031647,089283,041569,031737,094244,045865,035749,045845,035784
0000000028,0000001800,089140,030928,089152,042368,031018,094103,046689,035013,046666,035046
0000000029,0000001867,088985,030223,088997,043171,030316,093944,047473,034341,047445,034377
0000000030,0000001933,088806,029533,088819,043986,029627,093799,048354,033717,048327,033758
0000000031,0000002000,088605,028854,088618,044807,028949,093557,049137,032994,049102,033029
0000000032,0000002067,088381,028192,088394,045636,028287,093325,049979,032346,049941,032384
0000000033,0000002133,088134,027544,088147,046473,027641,093099,050846,031755,050806,031797
0000000034,0000002200,087863,026910,087877,047316,027009,092808,051674,031104,051629,031143
0000000035,0000002267,087571,026293,087584,048167,026392,092495,052517,030480,052469,030520
0000000036,0000002333,087256,025692,087270,049024,025793,092186,053369,029919,053316,029960
0000000037,0000002400,086919,025107,086933,049889,025210,091864,054275,029366,054221,029409
0000000038,0000002467,086561,024539,086576,050758,024643,091507,055143,028816,055084,028860
0000000039,0000002533,086182,023988,086197,051632,024094,091112,055999,028273,055935,028317
0000000040,0000002600,085782,023455,085797,052511,023562,090718,056885,027759,056818,027804
0000000041,0000002667,085363,022941,085378,053392,023049,090298,057768,027269,057699,027316
0000000042,0000002733,084924,022444,084939,054277,022554,089834,058631,026761,058561,026806
0000000043,0000002800,084467,021968,084481,055165,022080,089376,059513,026314,059444,026359
0000000044,0000002867,083990,021511,084005,056057,021625,088923,060443,025905,060377,025953
0000000045,0000002933,083496,021073,083511,056949,021189,088406,061303,025464,061234,025511
0000000046,0000003000,082985,020656,083000,057844,020774,087898,062218,025068,062153,025115
0000000047,0000003067,082456,020261,082472,058740,020381,087379,063119,024710,063056,024758
0000000048,0000003133,081912,019887,081928,059638,020008,086841,064030,024361,063970,024411
0000000049,0000003200,081352,019535,081368,060535,019658,086274,064917,024032,064859,024082
0000000050,0000003267,080777,019205,080793,061432,019330,085692,065808,023713,065751,023763
0000000051,0000003333,080188,018898,080203,062328,019025,085098,066696,023430,066640,023480
0000000052,0000003400,079584,018614,079600,063221,018743,084491,067582,023170,067526,023222
0000000053,0000003467,078967,018353,078983,064112,018484,083867,068461,022924,068406,022976
0000000054,0000003533,078337,018116,078353,065000,018249,083231,069344,022706,069290,022758
0000000055,0000003600,077694,017904,077710,065882,018038,082566,070192,022496,070136,022548
0000000056,0000003667,077038,017716,077054,066759,017852,081909,071069,022335,071015,022388
0000000057,0000003733,076371,017552,076387,067628,017690,081221,071913,022169,071859,022222
0000000058,0000003800,075692,017414,075708,068490,017554,080521,072751,022036,072697,022088
0000000059,0000003867,075002,017301,075017,069344,017442,079825,073597,021945,073543,021998
0000000060,0000003933,074300,017212,074316,070188,017355,079102,074415,021852,074361,021905
0000000061,0000004000,073588,017150,073603,071021,017294,078389,075250,021819,075199,021873
0000000062,0000004067,072864,017112,072880,071844,017258,077640,076047,021773,075995,021826
0000000063,0000004133,072131,017100,072146,072654,017247,076891,076845,021766,076794,021820
0000000064,0000004200,071386,017113,071402,073452,017261,076136,077631,021792,077580,021847
0000000065,0000004267,070632,017151,070647,074236,017300,075370,078412,021837,078362,021893
0000000066,0000004333,069867,017214,069882,075007,017364,074586,079162,021900,079112,021955
0000000067,0000004400,069093,017301,069107,075763,017453,073788,079897,021979,079847,022034
0000000068,0000004467,068308,017413,068322,076505,017565,072994,080635,022098,080586,022154
0000000069,0000004533,067514,017549,067527,077232,017702,072187,081363,022234,081321,022289
0000000070,0000004600,066710,017709,066723,077945,017862,071381,082088,022406,082054,022462
0000000071,0000004667,065897,017891,065910,078644,018045,070554,082786,022584,082761,022639
0000000072,0000004733,065075,018097,065087,079331,018251,069732,083486,022800,083471,022855
0000000073,0000004800,064244,018325,064256,080004,018480,068891,084161,023024,084154,023079
0000000074,0000004867,063406,018575,063417,080666,018730,068054,084833,023287,084835,023342
0000000075,0000004933,062559,018846,062570,081315,019002,067197,085475,023556,085486,023611
0000000076,0000005000,061705,019139,061716,081953,019295,066345,086115,023856,086134,023912
0000000077,0000005067,060845,019451,060855,082579,019608,065471,086720,024160,086744,024215
0000000078,0000005133,059980,019784,059989,083192,019941,064599,087319,024492,087347,024546
0000000079,0000005200,059109,020137,059118,083792,020294,063723,087901,024848,087934,024902
0000000080,0000005267,058234,020509,058243,084377,020667,062848,088472,025228,088509,025282
0000000081,0000005333,057357,020900,057365,084948,021058,061961,089013,025616,089054,025670
0000000082,0000005400,056477,021309,056485,085501,021468,061075,089542,026026,089587,026080
0000000083,0000005467,055596,021736,055603,086037,021896,060194,090060,026462,090108,026517
0000000084,0000005533,054715,022182,054722,086554,022343,059304,090547,026906,090598,026960
0000000085,0000005600,053834,022645,053841,087051,022806,058415,091014,027370,091068,027424
0000000086,0000005667,052955,023126,052961,087526,023288,057534,091468,027860,091524,027914
0000000087,0000005733,052078,023623,052084,087977,023787,056647,091888,028359,091946,028413
0000000088,0000005800,051205,024138,051210,088404,024302,055760,092279,028873,092337,028926
0000000089,0000005867,050334,024670,050339,088806,024835,054883,092653,029413,092708,029467
0000000090,0000005933,049468,025218,049473,089179,025384,054004,092993,029963,093045,030016
0000000091,0000006000,048607,025782,048611,089524,025949,053127,093306,030526,093355,030579
0000000092,0000006067,047750,026363,047754,089839,026530,052263,093601,031114,093647,031167
0000000093,0000006133,046899,026959,046903,090122,027127,051396,093857,031710,093900,031763
0000000094,0000006200,046053,027572,046056,090374,027740,050539,094088,032328,094125,032381
0000000095,0000006267,045212,028199,045215,090594,028368,049683,094286,032954,094318,033007
0000000096,0000006333,044377,028842,044379,090780,029011,048835,094459,033597,094485,033649
0000000097,0000006400,043546,029499,043548,090934,029669,047994,094605,034258,094626,034310
0000000098,0000006467,042721,030170,042722,091055,030341,047160,094724,034932,094741,034984
0000000099,0000006533,041900,030856,041901,091144,031027,046333,094818,035622,094831,035673
0000000100,0000006600,041084,031554,041084,091202,031725,045514,094886,036324,094895,036375
0000000101,0000006667,040272,032266,040272,091229,032437,044701,094926,037041,094933,037093
0000000102,0000006733,039465,032990,039464,091228,033161,043894,094941,037769,094945,037820
0000000103,0000006800,038661,033725,038660,091199,033896,043094,094933,038510,094934,038561
0000000104,0000006867,037862,034472,037860,091144,034642,042303,094901,039265,094899,039315
0000000105,0000006933,037067,035229,037065,091064,035399,041517,094845,040027,094841,040076
0000000106,0000007000,036277,035996,036274,090962,036166,040740,094768,040801,094761,040850
0000000107,0000007067,035492,036772,035488,090839,036941,039971,094672,041586,094664,041635
0000000108,0000007133,034712,037556,034708,090695,037725,039208,094552,042376,094542,042424
0000000109,0000007200,033939,038348,033934,090533,038516,038455,094414,043177,094402,043224
0000000110,0000007267,033173,039147,033167,090354,039315,037715,094260,043989,094247,044037
0000000111,0000007333,032415,039953,032409,090159,040121,036983,094088,044806,094073,044852
0000000112,0000007400,031666,040764,031660,089949,040932,036260,093895,045627,093879,045673
0000000113,0000007467,030929,041581,030922,089725,041748,035551,093687,046457,093670,046503
0000000114,0000007533,030203,042403,030196,089487,042570,034858,093467,047294,093449,047340
0000000115,0000007600,029491,043229,029483,089235,043396,034177,093226,048136,093208,048180
0000000116,0000007667,028795,044059,028786,088970,044226,033510,092968,048979,092949,049023
0000000117,0000007733,028115,044893,028106,088692,045060,032860,092696,049828,092677,049871
0000000118,0000007800,027454,045731,027445,088400,045898,032230,092408,050685,092387,050727
0000000119,0000007867,026813,046572,026803,088094,046739,031617,092101,051542,092079,051584
0000000120,0000007933,026193,047415,026183,087774,047583,031023,091776,052400,091752,052442
0000000121,0000008000,025596,048262,025586,087439,048431,030450,091434,053264,091410,053304
0000000122,0000008067,025023,049112,025013,087088,049281,029902,091079,054132,091055,054172
0000000123,0000008133,024475,049964,024465,086720,050135,029376,090706,055003,090682,055042
0000000124,0000008200,023954,050820,023944,086336,050991,028872,090313,055873,090288,055912
0000000125,0000008267,023460,051679,023449,085934,051850,028392,089902,056746,089878,056784
0000000126,0000008333,022992,052540,022982,085513,052713,027938,089476,057623,089452,057661
0000000127,0000008400,022553,053405,022543,085075,053579,027510,089031,058503,089008,058540
0000000128,0000008467,022142,054273,022132,084617,054447,027105,088565,059380,088543,059416
0000000129,0000008533,021759,055144,021749,084140,055319,026725,088080,060259,088060,060294
0000000130,0000008600,021404,056019,021393,083644,056194,026371,087579,061141,087561,061176
0000000131,0000008667,021076,056896,021065,083129,057072,026044,087062,062025,087045,062058
0000000132,0000008733,020775,057776,020764,082596,057952,025739,086523,062907,086508,062939
0000000133,0000008800,020499,058659,020489,082044,058835,025458,085967,063787,085954,063819
0000000134,0000008867,020250,059544,020239,081474,059721,025203,085396,064670,085386,064701
0000000135,0000008933,020024,060432,020013,080887,060608,024972,084808,065554,084801,065584
0000000136,0000009000,019823,061321,019811,080283,061497,024762,084204,066434,084200,066463
0000000137,0000009067,019644,062211,019632,079664,062386,024574,083582,067310,083581,067339
0000000138,0000009133,019486,063102,019474,079029,063276,024409,082947,068186,082949,068214
0000000139,0000009200,019350,063992,019337,078381,064165,024266,082300,069061,082306,069088
0000000140,0000009267,019233,064881,019221,077719,065053,024142,081637,069929,081646,069955
0000000141,0000009333,019137,065768,019123,077045,065938,024037,080959,070791,080971,070816
0000000142,0000009400,019059,066653,019045,076359,066821,023957,080275,071653,080291,071677
0000000143,0000009467,018999,067533,018985,075662,067699,023893,079574,072505,079595,072528
0000000144,0000009533,018958,068407,018943,074956,068572,023849,078864,073350,078888,073373
0000000145,0000009600,018934,069276,018918,074240,069438,023825,078144,074187,078171,074209
0000000146,0000009667,018929,070137,018912,073515,070296,023820,077413,075016,077445,075037
0000000147,0000009733,018941,070988,018924,072782,071145,023837,076675,075836,076711,075857
0000000148,0000009800,018972,071830,018954,072041,071984,023870,075925,076643,075965,076662
0000000149,0000009867,019022,072660,019003,071292,072812,023926,075169,077441,075213,077459
0000000150,0000009933,019090,073477,019071,070536,073626,024000,074403,078223,074451,078240
0000000151,0000010000,019178,074281,019158,069772,074427,024097,073630,078994,073682,079011
0000000152,0000010067,019287,075069,019266,069001,075212,024212,072847,079748,072904,079764
0000000153,0000010133,019416,075841,019395,068223,075981,024351,072059,080489,072119,080504
0000000154,0000010200,019567,076595,019545,067437,076732,024510,071260,081211,071324,081226
0000000155,0000010267,019740,077330,019717,066643,077465,024692,070454,081918,070522,081931
0000000156,0000010333,019935,078046,019912,065842,078179,024894,069640,082605,069711,082618
0000000157,0000010400,020153,078742,020130,065032,078872,025121,068819,083275,068895,083288
0000000158,0000010467,020395,079416,020371,064215,079544,025370,067992,083925,068071,083937
0000000159,0000010533,020660,080069,020636,063389,080195,025642,067157,084556,067241,084567
0000000160,0000010600,020949,080699,020924,062555,080823,025937,066317,085167,066404,085177
0000000161,0000010667,021262,081306,021237,061713,081428,026255,065469,085757,065561,085766
0000000162,0000010733,021598,081890,021573,060863,082011,026596,064616,086326,064712,086335
0000000163,0000010800,021957,082450,021932,060006,082569,026959,063757,086873,063857,086881
0000000164,0000010867,022339,082986,022314,059142,083104,027345,062893,087400,062998,087407
0000000165,0000010933,022743,083498,022718,058271,083616,027751,062023,087903,062133,087910
0000000166,0000011000,023169,083987,023144,057394,084104,028179,061149,088386,061262,088392
0000000167,0000011067,023615,084452,023591,056510,084568,028620,060253,088840,060364,088846
0000000168,0000011133,024081,084893,024057,055622,085008,029084,059360,089277,059470,089282
0000000169,0000011200,024566,085311,024541,054727,085425,029566,058463,089688,058573,089692
0000000170,0000011267,025068,085705,025044,053828,085819,030066,057560,090079,057666,090083
0000000171,0000011333,025587,086076,025563,052923,086190,030581,056653,090445,056757,090448
0000000172,0000011400,026121,086425,026098,052014,086538,031117,055750,090793,055852,090796
0000000173,0000011467,026670,086751,026647,051102,086863,031666,054842,091116,054943,091119
0000000174,0000011533,027232,087055,027209,050186,087167,032233,053940,091422,054039,091424
0000000175,0000011600,027807,087337,027784,049268,087448,032812,053035,091702,053133,091704
0000000176,0000011667,028393,087597,028371,048350,087708,033408,052135,091965,052233,091967
0000000177,0000011733,028990,087836,028968,047432,087946,034014,051236,092203,051333,092204
0000000178,0000011800,029596,088053,029575,046515,088163,034635,050343,092423,050440,092424
0000000179,0000011867,030212,088250,030191,045601,088358,035266,049451,092618,049548,092618
0000000180,0000011933,030837,088425,030816,044691,088533,035911,048569,092796,048666,092795
0000000181,0000012000,031471,088580,031450,043787,088687,036564,047690,092949,047786,092948
0000000182,0000012067,032113,088714,032092,042890,088819,037230,046821,093084,046918,093083
0000000183,0000012133,032764,088827,032743,042001,088931,037905,045959,093194,046055,093193
0000000184,0000012200,033423,088919,033403,041121,089022,038590,045106,093284,045202,093282
0000000185,0000012267,034091,088990,034071,040252,089091,039287,044264,093353,044360,093351
0000000186,0000012333,034769,089040,034748,039394,089140,039994,043435,093401,043531,093399
0000000187,0000012400,035456,089068,035435,038550,089167,040712,042617,093428,042712,093425
0000000188,0000012467,036153,089076,036133,037719,089173,041439,041809,093431,041904,093428
0000000189,0000012533,036861,089062,036841,036902,089157,042178,041016,093413,041112,093410
0000000190,0000012600,037581,089026,037561,036101,089120,042929,040238,093374,040333,093371
0000000191,0000012667,038313,088969,038293,035316,089061,043689,039473,093312,039567,093308
0000000192,0000012733,039057,088890,039037,034548,088981,044462,038723,093228,038817,093225
0000000193,0000012800,039815,088789,039795,033797,088879,045245,037988,093122,038082,093118
0000000194,0000012867,040586,088666,040566,033062,088755,046033,037250,092988,037336,092984
0000000195,0000012933,041371,088522,041352,032344,088609,046834,036528,092834,036606,092831
0000000196,0000013000,042171,088356,042152,031642,088442,047644,035816,092656,035883,092653
0000000197,0000013067,042985,088168,042966,030955,088253,048467,035122,092457,035180,092454
0000000198,0000013133,043813,087958,043794,030283,088042,049301,034445,092236,034494,092232
0000000199,0000013200,044655,087727,044637,029626,087810,050149,033791,091996,033834,091993
0000000200,0000013267,045510,087475,045492,028984,087557,051008,033153,091736,033190,091733
0000000201,0000013333,046378,087202,046361,028356,087283,051876,032529,091453,032561,091450
0000000202,0000013400,047258,086908,047241,027744,086988,052754,031924,091152,031951,091149
0000000203,0000013467,048148,086593,048131,027147,086673,053640,031335,090828,031357,090825
