DIgSILENT PowerFactory,20000410,2000
10,10A,00D
1,LC684-652A:Phase Voltage A/Terminal i,,,kV,0.00010000000,-5.191963,0.000000,8848,99998,1,1,P
2,LC684-652A:Phase Voltage C/Terminal i,,,kV,0.00010000000,-5.280020,0.000000,1894,99998,1,1,P
3,LC692-675:Phase Voltage A/Terminal i,,,kV,0.00010000000,-5.182036,0.000000,8759,99998,1,1,P
4,LC692-675:Phase Voltage B/Terminal i,,,kV,0.00010000000,-5.226221,0.000000,7642,99998,1,1,P
5,LC692-675:Phase Voltage C/Terminal i,,,kV,0.00010000000,-5.290788,0.000000,2421,99998,1,1,P
6,LOHL632-633:Phase Voltage A/Terminal i,,,kV,0.00010000000,-5.707154,0.000000,17152,99998,1,1,P
7,LOHL632-633:Phase Voltage B/Terminal i,,,kV,0.00010000000,-5.773036,0.000000,17760,99998,1,1,P
8,LOHL632-633:Phase Voltage C/Terminal i,,,kV,0.00010000000,-5.820286,0.000000,14081,99998,1,1,P
9,LOHL645-646:Phase Voltage B/Terminal i,,,kV,0.00010000000,-5.780961,0.000000,17891,99998,1,1,P
10,LOHL645-646:Phase Voltage C/Terminal i,,,kV,0.00010000000,-5.822968,0.000000,14142,99998,1,1,P
50
1
15000.000000,3001
11/11/2020,22:06:04.000000
11/11/2020,22:06:04.000000
ASCII
1.000000
0000000001,0000000000,082591,053081,082500,021613,053139,088002,027352,058002,027468,058018
0000000002,0000000067,083028,052176,082936,022072,052234,088429,027805,057110,027921,057125
0000000003,0000000133,083439,051274,083351,022549,051333,088837,028288,056207,028403,056223
0000000004,0000000200,083839,050376,083746,023044,050434,089222,028784,055312,028897,055330
0000000005,0000000267,084208,049475,084121,023556,049536,089587,029295,054421,029407,054439
0000000006,0000000333,084565,048578,084475,024088,048640,089934,029833,053523,029945,053543
0000000007,0000000400,084897,047685,084808,024637,047747,090259,030378,052640,030488,052660
0000000008,0000000467,085208,046795,085121,025203,046857,090563,030946,051754,031056,051775
0000000009,0000000533,085501,045909,085412,025787,045971,090845,031532,050871,031640,050893
0000000010,0000000600,085770,045026,085682,026387,045090,091106,032135,049992,032243,050015
0000000011,0000000667,086018,044149,085930,027004,044213,091346,032753,049120,032859,049144
0000000012,0000000733,086244,043278,086156,027637,043343,091565,033387,048253,033492,048277
0000000013,0000000800,086448,042413,086361,028286,042478,091760,034035,047395,034140,047420
0000000014,0000000867,086630,041553,086544,028949,041620,091934,034697,046543,034800,046569
0000000015,0000000933,086792,040702,086705,029628,040770,092086,035375,045699,035477,045725
0000000016,0000001000,086931,039858,086844,030321,039926,092216,036066,044863,036166,044890
0000000017,0000001067,087047,039021,086961,031026,039091,092301,036725,044011,036807,044039
0000000018,0000001133,087141,038194,087057,031739,038265,092371,037355,043189,037411,043219
0000000019,0000001200,087214,037374,087128,032466,037445,092408,038099,042320,038156,042348
0000000020,0000001267,087264,036566,087179,033196,036637,092450,038815,041536,038867,041564
0000000021,0000001333,087292,035766,087207,033938,035839,092484,039570,040749,039622,040780
0000000022,0000001400,087297,034977,087213,034688,035051,092496,040377,039999,040429,040030
0000000023,0000001467,087280,034200,087196,035444,034275,092483,041132,039255,041183,039292
0000000024,0000001533,087240,033433,087157,036209,033509,092453,041917,038507,041965,038544
0000000025,0000001600,087178,032678,087094,036980,032755,092352,042657,037748,042699,037785
0000000026,0000001667,087093,031934,087009,037761,032013,092227,043412,036987,043448,037021
0000000027,0000001733,086984,031202,086901,038551,031281,092144,044261,036256,044298,036291
0000000028,0000001800,086852,030485,086769,039349,030566,092019,045088,035600,045122,035640
0000000029,0000001867,086697,029780,086615,040153,029862,091849,045864,034899,045892,034939
0000000030,0000001933,086519,029089,086437,040966,029172,091646,046663,034196,046685,034234
0000000031,0000002000,086318,028412,086235,041788,028496,091456,047529,033558,047551,033600
0000000032,0000002067,086094,027749,086011,042616,027833,091190,048315,032864,048330,032903
0000000033,0000002133,085846,027100,085764,043453,027186,090955,049182,032225,049194,032265
0000000034,0000002200,085576,026467,085494,044298,026555,090705,050062,031642,050074,031685
0000000035,0000002267,085283,025850,085202,045147,025940,090394,050883,031046,050889,031090
0000000036,0000002333,084969,025248,084887,046006,025339,090068,051753,030437,051755,030480
0000000037,0000002400,084632,024663,084550,046868,024756,089715,052579,029865,052575,029909
0000000038,0000002467,084274,024096,084192,047737,024189,089356,053457,029319,053450,029364
0000000039,0000002533,083895,023545,083814,048611,023640,088968,054321,028772,054310,028817
0000000040,0000002600,083495,023012,083414,049491,023108,088585,055227,028273,055214,028319
0000000041,0000002667,083076,022497,082995,050372,022596,088159,056099,027786,056083,027834
0000000042,0000002733,082637,022001,082556,051257,022100,087709,056983,027281,056968,027327
0000000043,0000002800,082179,021524,082098,052146,021626,087270,057905,026850,057892,026898
0000000044,0000002867,081703,021067,081622,053036,021170,086777,058767,026401,058752,026449
0000000045,0000002933,081209,020630,081128,053930,020735,086293,059679,025993,059666,026042
0000000046,0000003000,080697,020213,080617,054824,020320,085765,060559,025575,060548,025623
0000000047,0000003067,080169,019818,080089,055721,019927,085254,061478,025231,061470,025282
0000000048,0000003133,079625,019443,079545,056618,019554,084709,062375,024872,062369,024922
0000000049,0000003200,079065,019091,078985,057515,019204,084144,063265,024543,063260,024594
0000000050,0000003267,078490,018761,078410,058412,018875,083555,064146,024213,064141,024263
0000000051,0000003333,077900,018454,077820,059307,018570,082959,065028,023930,065024,023981
0000000052,0000003400,077297,018170,077217,060202,018288,082356,065927,023672,065925,023725
0000000053,0000003467,076680,017910,076600,061093,018030,081736,066805,023437,066804,023490
0000000054,0000003533,076049,017673,075970,061980,017795,081091,067680,023206,067679,023258
0000000055,0000003600,075407,017460,075327,062862,017584,080428,068529,022999,068527,023051
0000000056,0000003667,074751,017272,074671,063739,017398,079771,069409,022831,069409,022884
0000000057,0000003733,074084,017109,074004,064609,017236,079089,070260,022678,070260,022731
0000000058,0000003800,073405,016970,073325,065471,017100,078401,071108,022562,071108,022617
0000000059,0000003867,072714,016857,072634,066324,016988,077693,071940,022457,071940,022511
0000000060,0000003933,072013,016769,071933,067168,016901,076972,072763,022361,072763,022415
0000000061,0000004000,071300,016706,071220,068002,016840,076256,073596,022323,073598,022378
0000000062,0000004067,070577,016669,070497,068824,016804,075515,074402,022291,074404,022346
0000000063,0000004133,069843,016657,069763,069634,016793,074764,075194,022286,075196,022342
0000000064,0000004200,069099,016670,069019,070432,016807,074001,075975,022296,075977,022351
0000000065,0000004267,068345,016708,068264,071216,016846,073224,076737,022332,076739,022387
0000000066,0000004333,067580,016771,067499,071987,016910,072453,077506,022408,077509,022465
0000000067,0000004400,066805,016858,066724,072743,016998,071662,078249,022495,078253,022552
0000000068,0000004467,066021,016970,065939,073485,017111,070860,078975,022610,078980,022667
0000000069,0000004533,065226,017106,065144,074212,017248,070057,079707,022750,079718,022806
0000000070,0000004600,064423,017265,064340,074925,017408,069245,080425,022912,080444,022968
0000000071,0000004667,063610,017448,063527,075624,017591,068421,081127,023092,081155,023148
0000000072,0000004733,062788,017654,062704,076311,017797,067596,081828,023306,081866,023363
0000000073,0000004800,061957,017882,061873,076984,018025,066757,082500,023535,082547,023590
0000000074,0000004867,061118,018132,061034,077646,018276,065918,083171,023795,083227,023851
0000000075,0000004933,060272,018403,060187,078296,018548,065070,083826,024070,083890,024126
0000000076,0000005000,059418,018695,059333,078933,018840,064208,084454,024362,084526,024418
0000000077,0000005067,058558,019008,058472,079559,019154,063342,085067,024675,085145,024731
0000000078,0000005133,057692,019341,057606,080172,019487,062473,085671,025011,085753,025067
0000000079,0000005200,056822,019693,056735,080772,019840,061593,086244,025361,086331,025416
0000000080,0000005267,055947,020065,055860,081358,020212,060712,086811,025732,086901,025787
0000000081,0000005333,055070,020456,054982,081928,020604,059828,087355,026124,087449,026179
0000000082,0000005400,054190,020865,054102,082482,021014,058945,087890,026537,087989,026593
0000000083,0000005467,053309,021293,053220,083018,021442,058060,088401,026972,088503,027027
0000000084,0000005533,052428,021739,052339,083535,021888,057173,088892,027419,088997,027475
0000000085,0000005600,051547,022202,051458,084031,022352,056282,089356,027881,089463,027936
0000000086,0000005667,050668,022682,050578,084506,022834,055400,089809,028370,089919,028425
0000000087,0000005733,049791,023180,049701,084958,023332,054514,090231,028868,090342,028922
0000000088,0000005800,048917,023695,048827,085385,023848,053634,090630,029391,090742,029446
0000000089,0000005867,048047,024226,047956,085786,024380,052751,090997,029923,091105,029978
0000000090,0000005933,047181,024774,047090,086159,024929,051873,091339,030473,091445,030527
0000000091,0000006000,046320,025339,046228,086504,025495,050999,091654,031041,091757,031095
0000000092,0000006067,045463,025920,045371,086819,026076,050130,091942,031624,092042,031678
0000000093,0000006133,044612,026516,044520,087103,026673,049266,092204,032223,092300,032277
0000000094,0000006200,043766,027128,043673,087355,027286,048406,092432,032836,092523,032890
0000000095,0000006267,042925,027756,042832,087574,027914,047552,092631,033465,092716,033519
0000000096,0000006333,042089,028398,041996,087761,028557,046704,092804,034110,092883,034164
0000000097,0000006400,041259,029055,041165,087914,029215,045864,092951,034770,093026,034823
0000000098,0000006467,040433,029727,040339,088035,029887,045029,093070,035444,093140,035497
0000000099,0000006533,039613,030412,039518,088124,030572,044205,093166,036136,093233,036189
0000000100,0000006600,038797,031111,038701,088182,031271,043381,093228,036834,093291,036887
0000000101,0000006667,037985,031822,037889,088210,031983,042572,093274,037555,093334,037607
0000000102,0000006733,037177,032546,037081,088208,032706,041763,093287,038280,093344,038332
0000000103,0000006800,036374,033282,036277,088179,033442,040964,093279,039022,093334,039074
0000000104,0000006867,035575,034028,035477,088124,034188,040173,093246,039777,093298,039829
0000000105,0000006933,034780,034785,034682,088045,034945,039387,093191,040539,093241,040589
0000000106,0000007000,033990,035552,033891,087942,035711,038607,093110,041310,093157,041361
0000000107,0000007067,033204,036328,033105,087819,036487,037839,093015,042097,093060,042147
0000000108,0000007133,032425,037112,032325,087675,037271,037077,092896,042887,092939,042937
0000000109,0000007200,031652,037905,031551,087514,038062,036323,092758,043687,092800,043736
0000000110,0000007267,030885,038704,030784,087335,038861,035583,092606,044500,092646,044548
0000000111,0000007333,030128,039509,030026,087140,039666,034849,092429,045314,092468,045362
0000000112,0000007400,029379,040321,029277,086929,040477,034127,092237,046137,092275,046184
0000000113,0000007467,028641,041138,028539,086705,041294,033421,092033,046970,092070,047017
0000000114,0000007533,027916,041960,027813,086467,042116,032724,091807,047803,091843,047849
0000000115,0000007600,027204,042786,027100,086215,042942,032043,091567,048643,091603,048688
0000000116,0000007667,026508,043616,026403,085950,043772,031379,091314,049491,091349,049536
0000000117,0000007733,025828,044450,025723,085672,044606,030728,091040,050339,091074,050383
0000000118,0000007800,025167,045287,025062,085380,045444,030098,090752,051195,090785,051239
0000000119,0000007867,024525,046128,024420,085074,046285,029485,090445,052053,090476,052096
0000000120,0000007933,023906,046972,023800,084754,047129,028892,090120,052913,090151,052956
0000000121,0000008000,023309,047819,023203,084419,047977,028320,089780,053776,089810,053818
0000000122,0000008067,022736,048668,022630,084068,048827,027770,089423,054642,089452,054683
0000000123,0000008133,022188,049521,022082,083700,049680,027242,089048,055511,089076,055551
0000000124,0000008200,021667,050377,021561,083316,050537,026739,088656,056383,088684,056422
0000000125,0000008267,021172,051235,021066,082914,051396,026259,088244,057256,088273,057295
0000000126,0000008333,020705,052097,020599,082494,052259,025805,087818,058132,087847,058171
0000000127,0000008400,020266,052962,020160,082055,053124,025375,087371,059009,087401,059047
0000000128,0000008467,019855,053830,019749,081597,053993,024972,086908,059889,086940,059926
0000000129,0000008533,019472,054701,019366,081120,054865,024593,086425,060770,086458,060806
0000000130,0000008600,019117,055575,019010,080625,055740,024240,085924,061653,085959,061688
0000000131,0000008667,018789,056452,018682,080110,056617,023912,085405,062535,085441,062570
0000000132,0000008733,018487,057333,018381,079576,057498,023608,084867,063418,084906,063452
0000000133,0000008800,018212,058216,018106,079024,058381,023328,084313,064300,084355,064333
0000000134,0000008867,017962,059101,017856,078454,059266,023072,083740,065182,083784,065214
0000000135,0000008933,017737,059989,017630,077867,060154,022840,083152,066063,083199,066095
0000000136,0000009000,017535,060878,017428,077263,061042,022629,082546,066943,082595,066973
0000000137,0000009067,017356,061768,017249,076644,061932,022442,081926,067821,081978,067851
0000000138,0000009133,017199,062658,017091,076009,062822,022276,081289,068696,081345,068724
0000000139,0000009200,017063,063549,016954,075361,063711,022132,080641,069569,080700,069597
0000000140,0000009267,016946,064438,016838,074699,064599,022008,079978,070437,080041,070464
0000000141,0000009333,016849,065325,016740,074025,065484,021906,079303,071302,079369,071328
0000000142,0000009400,016771,066209,016662,073339,066367,021823,078616,072161,078686,072187
0000000143,0000009467,016712,067089,016602,072643,067245,021760,077917,073015,077990,073039
0000000144,0000009533,016670,067964,016560,071936,068117,021718,077210,073862,077287,073886
0000000145,0000009600,016647,068832,016535,071220,068983,021692,076486,074697,076567,074719
0000000146,0000009667,016642,069693,016529,070495,069842,021689,075758,075528,075843,075550
0000000147,0000009733,016654,070545,016541,069762,070691,021705,075020,076347,075109,076368
0000000148,0000009800,016685,071387,016571,069021,071530,021739,074269,077154,074363,077174
0000000149,0000009867,016734,072217,016620,068273,072357,021794,073513,077951,073610,077971
0000000150,0000009933,016803,073034,016688,067516,073172,021868,072746,078733,072847,078751
0000000151,0000010000,016891,073837,016775,066753,073972,021964,071973,079503,072078,079521
0000000152,0000010067,017000,074625,016883,065981,074758,022081,071192,080260,071302,080277
0000000153,0000010133,017129,075397,017012,065203,075527,022218,070401,080998,070515,081014
0000000154,0000010200,017280,076151,017162,064417,076278,022378,069603,081721,069721,081737
0000000155,0000010267,017452,076887,017334,063623,077011,022560,068798,082428,068920,082443
0000000156,0000010333,017648,077603,017529,062822,077725,022762,067983,083116,068108,083130
0000000157,0000010400,017866,078298,017747,062012,078418,022988,067162,083784,067291,083798
0000000158,0000010467,018108,078973,017988,061195,079090,023238,066336,084436,066468,084449
0000000159,0000010533,018373,079625,018253,060369,079740,023510,065501,085067,065638,085078
0000000160,0000010600,018662,080255,018541,059535,080369,023805,064659,085676,064800,085687
0000000161,0000010667,018974,080862,018854,058693,080974,024123,063813,086267,063958,086278
0000000162,0000010733,019310,081446,019190,057844,081556,024464,062960,086836,063110,086846
0000000163,0000010800,019670,082006,019549,056986,082115,024827,062100,087383,062254,087392
0000000164,0000010867,020052,082543,019931,056122,082650,025212,061236,087909,061395,087918
0000000165,0000010933,020456,083055,020335,055251,083162,025620,060367,088415,060530,088422
0000000166,0000011000,020882,083544,020761,054374,083649,026046,059491,088895,059657,088902
0000000167,0000011067,021328,084008,021207,053491,084113,026488,058597,089351,058761,089357
0000000168,0000011133,021794,084450,021674,052602,084554,026952,057704,089786,057867,089792
0000000169,0000011200,022278,084867,022158,051708,084971,027434,056807,090198,056970,090204
0000000170,0000011267,022781,085261,022661,050808,085364,027932,055902,090588,056061,090593
0000000171,0000011333,023299,085633,023180,049903,085735,028450,054998,090956,055155,090961
0000000172,0000011400,023834,085981,023715,048994,086083,028983,054091,091302,054247,091306
0000000173,0000011467,024383,086307,024264,048082,086409,029534,053186,091626,053340,091630
0000000174,0000011533,024945,086611,024826,047166,086712,030100,052282,091932,052435,091935
0000000175,0000011600,025519,086893,025401,046249,086994,030680,051379,092213,051531,092216
0000000176,0000011667,026106,087153,025988,045330,087253,031274,050477,092473,050628,092476
0000000177,0000011733,026702,087392,026585,044412,087492,031883,049580,092714,049731,092716
0000000178,0000011800,027309,087610,027192,043495,087708,032502,048686,092932,048836,092934
0000000179,0000011867,027925,087806,027808,042581,087904,033134,047795,093128,047945,093130
0000000180,0000011933,028550,087982,028433,041672,088079,033778,046912,093305,047062,093306
0000000181,0000012000,029184,088137,029067,040767,088232,034432,046034,093460,046184,093460
0000000182,0000012067,029826,088270,029709,039870,088365,035096,045164,093592,045313,093592
0000000183,0000012133,030477,088383,030360,038981,088477,035773,044303,093705,044452,093705
0000000184,0000012200,031136,088475,031020,038101,088567,036459,043451,093795,043600,093795
0000000185,0000012267,031804,088546,031688,037232,088637,037154,042608,093863,042757,093862
0000000186,0000012333,032481,088596,032365,036375,088685,037862,041778,093911,041927,093910
0000000187,0000012400,033169,088625,033052,035530,088713,038579,040959,093937,041108,093936
0000000188,0000012467,033866,088632,033750,034699,088719,039307,040152,093941,040301,093939
0000000189,0000012533,034574,088618,034458,033883,088703,040046,039359,093923,039508,093921
0000000190,0000012600,035294,088583,035178,033082,088666,040796,038580,093884,038729,093881
0000000191,0000012667,036025,088525,035910,032297,088607,041556,037815,093821,037964,093818
0000000192,0000012733,036770,088446,036654,031528,088527,042329,037066,093738,037213,093735
0000000193,0000012800,037527,088346,037412,030777,088425,043113,036331,093632,036478,093629
0000000194,0000012867,038299,088223,038183,030042,088301,043902,035594,093499,035734,093497
0000000195,0000012933,039084,088078,038969,029324,088155,044701,034870,093343,035001,093340
0000000196,0000013000,039884,087912,039769,028622,087988,045512,034159,093166,034280,093163
0000000197,0000013067,040698,087724,040583,027935,087799,046334,033465,092967,033577,092965
0000000198,0000013133,041526,087515,041411,027264,087588,047169,032789,092746,032892,092744
0000000199,0000013200,042368,087284,042254,026607,087356,048017,032135,092507,032232,092505
0000000200,0000013267,043223,087032,043109,025964,087103,048876,031496,092246,031587,092244
0000000201,0000013333,044091,086758,043978,025337,086829,049744,030873,091964,030959,091961
0000000202,0000013400,044971,086464,044858,024724,086534,050621,030266,091661,030346,091659
0000000203,0000013467,045861,086150,045748,024127,086219,051508,029678,091339,029753,091337
