DIgSILENT PowerFactory,20000410,2000
10,10A,00D
1,LC684-652A:Phase Voltage A/Terminal i,,,kV,0.00010000000,-5.481818,0.000000,7995,99998,1,1,P
2,LC684-652A:Phase Voltage C/Terminal i,,,kV,0.00010000000,-5.318883,0.000000,925,99998,1,1,P
3,LC692-675:Phase Voltage A/Terminal i,,,kV,0.00010000000,-5.571127,0.000000,9709,99998,1,1,P
4,LC692-675:Phase Voltage B/Terminal i,,,kV,0.00010000000,-4.654327,0.000000,-1181,99998,1,1,P
5,LC692-675:Phase Voltage C/Terminal i,,,kV,0.00010000000,-5.350576,0.000000,1895,99998,1,1,P
6,LOHL632-633:Phase Voltage A/Terminal i,,,kV,0.00010000000,-6.044936,0.000000,20490,99998,1,1,P
7,LOHL632-633:Phase Voltage B/Terminal i,,,kV,0.00010000000,-5.418552,0.000000,12212,99998,1,1,P
8,LOHL632-633:Phase Voltage C/Terminal i,,,kV,0.00010000000,-5.825552,0.000000,13900,99998,1,1,P
9,LOHL645-646:Phase Voltage B/Terminal i,,,kV,0.00010000000,-5.423620,0.000000,12316,99998,1,1,P
10,LOHL645-646:Phase Voltage C/Terminal i,,,kV,0.00010000000,-5.828291,0.000000,13962,99998,1,1,P
50
1
15000.000000,3001
11/11/2020,23:55:25.000000
11/11/2020,23:55:25.000000
ASCII
1.000000
0000000001,0000000000,085489,053469,086391,015894,053737,091380,023807,058055,023895,058071
0000000002,0000000067,085923,052566,086826,016353,052833,091805,024259,057164,024346,057179
0000000003,0000000133,086343,051665,087242,016829,051932,092212,024746,056258,024831,056277
0000000004,0000000200,086736,050764,087637,017325,051032,092600,025233,055369,025318,055389
0000000005,0000000267,087109,049866,088011,017838,050133,092967,025757,054467,025840,054486
0000000006,0000000333,087463,048968,088366,018369,049238,093311,026283,053582,026365,053603
0000000007,0000000400,087795,048073,088699,018918,048344,093638,026839,052687,026921,052707
0000000008,0000000467,088107,047183,089012,019484,047455,093940,027401,051807,027481,051829
0000000009,0000000533,088400,046297,089303,020068,046569,094223,027991,050920,028071,050942
0000000010,0000000600,088668,045415,089573,020669,045688,094484,028590,050045,028669,050068
0000000011,0000000667,088916,044538,089821,021285,044811,094724,029206,049175,029284,049199
0000000012,0000000733,089142,043667,090047,021918,043941,094941,029838,048311,029914,048336
0000000013,0000000800,089347,042801,090252,022567,043076,095137,030486,047451,030561,047477
0000000014,0000000867,089529,041942,090435,023230,042218,095312,031150,046599,031224,046625
0000000015,0000000933,089690,041091,090596,023909,041368,095464,031828,045752,031902,045779
0000000016,0000001000,089828,040246,090735,024602,040524,095593,032522,044914,032594,044942
0000000017,0000001067,089945,039410,090852,025308,039689,095684,033193,044066,033248,044093
0000000018,0000001133,090039,038583,090947,026020,038863,095749,033809,043248,033837,043279
0000000019,0000001200,090112,037763,091019,026746,038042,095774,034537,042373,034568,042405
0000000020,0000001267,090162,036954,091070,027479,037235,095858,035318,041586,035348,041618
0000000021,0000001333,090191,036156,091098,028218,036439,095882,036046,040877,036073,040914
0000000022,0000001400,090195,035366,091104,028970,035650,095893,036860,040065,036887,040102
0000000023,0000001467,090179,034589,091088,029724,034874,095884,037590,039344,037613,039384
0000000024,0000001533,090139,033821,091048,030490,034107,095803,038367,038531,038384,038566
0000000025,0000001600,090076,033065,090986,031261,033352,095722,039099,037773,039111,037808
0000000026,0000001667,089992,032322,090900,032042,032610,095599,039865,037017,039873,037052
0000000027,0000001733,089882,031591,090792,032832,031879,095517,040711,036306,040718,036342
0000000028,0000001800,089750,030874,090660,033628,031164,095383,041501,035646,041504,035686
0000000029,0000001867,089596,030168,090505,034436,030459,095233,042362,034943,042365,034983
0000000030,0000001933,089418,029478,090328,035248,029770,095053,043154,034283,043151,034326
0000000031,0000002000,089216,028800,090126,036068,029092,094807,043943,033559,043934,033598
0000000032,0000002067,088992,028137,089902,036897,028431,094586,044786,032933,044774,032975
0000000033,0000002133,088744,027489,089655,037735,027785,094357,045658,032324,045644,032368
0000000034,0000002200,088475,026856,089385,038578,027152,094061,046482,031675,046463,031717
0000000035,0000002267,088182,026238,089092,039429,026536,093751,047322,031053,047298,031095
0000000036,0000002333,087867,025637,088778,040287,025936,093451,048207,030487,048181,030531
0000000037,0000002400,087530,025053,088441,041150,025354,093116,049069,029955,049040,030002
0000000038,0000002467,087173,024484,088083,042018,024787,092722,049897,029355,049860,029400
0000000039,0000002533,086794,023933,087705,042892,024238,092355,050782,028837,050742,028884
0000000040,0000002600,086394,023400,087305,043772,023706,091966,051694,028330,051653,028377
0000000041,0000002667,085975,022885,086886,044653,023192,091525,052546,027806,052501,027852
0000000042,0000002733,085536,022390,086447,045539,022698,091098,053453,027343,053410,027390
0000000043,0000002800,085077,021913,085989,046427,022223,090644,054349,026892,054308,026941
0000000044,0000002867,084602,021456,085513,047317,021768,090153,055217,026458,055174,026507
0000000045,0000002933,084107,021019,085019,048210,021333,089660,056110,026040,056067,026090
0000000046,0000003000,083596,020601,084507,049105,020917,089136,057010,025620,056969,025668
0000000047,0000003067,083068,020206,083979,050002,020524,088621,057925,025265,057888,025315
0000000048,0000003133,082523,019832,083435,050899,020152,088088,058837,024928,058803,024979
0000000049,0000003200,081963,019480,082876,051796,019802,087527,059727,024597,059694,024649
0000000050,0000003267,081389,019150,082301,052693,019474,086939,060607,024286,060574,024339
0000000051,0000003333,080799,018842,081711,053589,019168,086331,061479,023973,061446,024024
0000000052,0000003400,080196,018558,081108,054483,018886,085726,062371,023712,062340,023764
0000000053,0000003467,079578,018298,080491,055374,018627,085112,063267,023485,063237,023539
0000000054,0000003533,078948,018061,079861,056261,018393,084471,064134,023261,064105,023314
0000000055,0000003600,078305,017849,079218,057144,018182,083817,065006,023062,064977,023116
0000000056,0000003667,077650,017661,078562,058019,017996,083141,065847,022880,065817,022934
0000000057,0000003733,076982,017497,077895,058890,017834,082473,066723,022741,066695,022796
0000000058,0000003800,076303,017359,077216,059752,017697,081770,067550,022603,067521,022657
0000000059,0000003867,075613,017246,076525,060605,017586,081078,068405,022519,068377,022575
0000000060,0000003933,074911,017158,075824,061449,017499,080358,069228,022426,069201,022481
0000000061,0000004000,074199,017095,075111,062283,017438,079628,070041,022370,070014,022425
0000000062,0000004067,073476,017057,074388,063105,017401,078883,070843,022333,070815,022388
0000000063,0000004133,072742,017045,073654,063915,017391,078135,071638,022329,071611,022385
0000000064,0000004200,071998,017058,072909,064713,017405,077382,072431,022356,072405,022413
0000000065,0000004267,071243,017096,072155,065497,017444,076608,073199,022394,073174,022451
0000000066,0000004333,070478,017159,071390,066268,017508,075829,073957,022463,073932,022520
0000000067,0000004400,069704,017247,070615,067024,017596,075033,074694,022546,074669,022602
0000000068,0000004467,068919,017359,069830,067766,017709,074232,075423,022652,075399,022709
0000000069,0000004533,068125,017495,069035,068493,017846,073435,076161,022804,076144,022861
0000000070,0000004600,067321,017654,068231,069206,018006,072626,076884,022968,076875,023025
0000000071,0000004667,066508,017837,067418,069906,018189,071806,077592,023156,077592,023213
0000000072,0000004733,065686,018042,066595,070592,018395,070975,078283,023361,078292,023418
0000000073,0000004800,064856,018270,065764,071265,018623,070136,078958,023587,078977,023643
0000000074,0000004867,064017,018520,064925,071927,018874,069300,079631,023851,079659,023908
0000000075,0000004933,063170,018791,064078,072576,019145,068443,080273,024119,080308,024176
0000000076,0000005000,062317,019084,063224,073214,019438,067585,080907,024414,080950,024470
0000000077,0000005067,061457,019396,062363,073840,019751,066717,081521,024723,081570,024779
0000000078,0000005133,060591,019729,061497,074453,020085,065848,082119,025062,082173,025118
0000000079,0000005200,059720,020082,060626,075053,020438,064970,082699,025412,082756,025467
0000000080,0000005267,058846,020454,059751,075639,020810,064088,083263,025784,083325,025839
0000000081,0000005333,057968,020845,058873,076209,021202,063207,083814,026178,083880,026234
0000000082,0000005400,057088,021254,057992,076763,021612,062325,084347,026593,084417,026649
0000000083,0000005467,056207,021682,057111,077299,022040,061440,084861,027025,084934,027081
0000000084,0000005533,055326,022127,056229,077816,022486,060550,085348,027470,085424,027526
0000000085,0000005600,054446,022590,055348,078312,022950,059661,085814,027932,085893,027987
0000000086,0000005667,053566,023071,054469,078787,023432,058774,086258,028417,086339,028472
0000000087,0000005733,052690,023569,053592,079239,023930,057892,086688,028921,086771,028976
0000000088,0000005800,051816,024083,052718,079666,024446,057009,087083,029440,087166,029495
0000000089,0000005867,050946,024615,051847,080067,024978,056126,087449,029971,087529,030026
0000000090,0000005933,050080,025163,050981,080440,025527,055249,087791,030525,087868,030580
0000000091,0000006000,049218,025728,050119,080785,026092,054374,088105,031089,088179,031144
0000000092,0000006067,048362,026308,049262,081100,026674,053507,088398,031675,088469,031730
0000000093,0000006133,047510,026905,048410,081384,027271,052643,088656,032274,088724,032328
0000000094,0000006200,046664,027517,047564,081636,027884,051784,088887,032890,088949,032945
0000000095,0000006267,045823,028144,046723,081855,028512,050928,089085,033516,089141,033570
0000000096,0000006333,044988,028787,045887,082042,029155,050084,089261,034166,089312,034220
0000000097,0000006400,044157,029444,045056,082195,029813,049240,089405,034821,089451,034875
0000000098,0000006467,043332,030115,044230,082316,030485,048409,089528,035499,089571,035552
0000000099,0000006533,042511,030801,043409,082405,031170,047579,089617,036185,089655,036238
0000000100,0000006600,041695,031499,042592,082463,031869,046764,089688,036893,089723,036947
0000000101,0000006667,040883,032211,041780,082490,032581,045946,089724,037605,089755,037658
0000000102,0000006733,040076,032935,040972,082489,033304,045143,089744,038336,089773,038389
0000000103,0000006800,039273,033670,040168,082460,034040,044343,089734,039078,089760,039130
0000000104,0000006867,038473,034417,039368,082405,034786,043547,089697,039825,089720,039877
0000000105,0000006933,037678,035174,038573,082326,035543,042765,089646,040594,089667,040645
0000000106,0000007000,036888,035941,037782,082224,036309,041985,089567,041363,089586,041413
0000000107,0000007067,036103,036717,036996,082100,037085,041216,089469,042147,089486,042198
0000000108,0000007133,035323,037501,036216,081956,037869,040455,089351,042941,089365,042991
0000000109,0000007200,034550,038293,035442,081795,038660,039702,089214,043742,089227,043791
0000000110,0000007267,033784,039092,034675,081616,039459,038960,089058,044553,089070,044602
0000000111,0000007333,033026,039898,033917,081421,040264,038227,088886,045367,088896,045416
0000000112,0000007400,032278,040710,033168,081210,041075,037505,088692,046190,088701,046238
0000000113,0000007467,031540,041526,032430,080986,041892,036798,088488,047022,088497,047069
0000000114,0000007533,030815,042348,031704,080748,042714,036101,088262,047855,088269,047901
0000000115,0000007600,030103,043174,030991,080496,043540,035422,088024,048698,088031,048744
0000000116,0000007667,029406,044005,030294,080231,044370,034755,087767,049542,087773,049587
0000000117,0000007733,028727,044839,029614,079953,045204,034107,087495,050393,087501,050438
0000000118,0000007800,028065,045676,028953,079661,046042,033477,087208,051248,087213,051292
0000000119,0000007867,027424,046517,028311,079355,046883,032860,086896,052102,086898,052146
0000000120,0000007933,026804,047360,027691,079035,047727,032270,086577,052966,086579,053009
0000000121,0000008000,026207,048207,027094,078700,048574,031696,086234,053828,086234,053870
0000000122,0000008067,025634,049057,026521,078349,049425,031147,085878,054694,085878,054736
0000000123,0000008133,025087,049910,025973,077982,050278,030621,085504,055565,085504,055606
0000000124,0000008200,024565,050765,025452,077597,051135,030116,085110,056435,085111,056475
0000000125,0000008267,024071,051624,024957,077195,051994,029639,084703,057311,084704,057351
0000000126,0000008333,023604,052486,024490,076775,052857,029182,084272,058185,084273,058223
0000000127,0000008400,023165,053350,024051,076336,053722,028755,083829,059064,083831,059102
0000000128,0000008467,022754,054218,023640,075878,054591,028350,083363,059943,083366,059981
0000000129,0000008533,022370,055090,023257,075401,055463,027970,082879,060821,082884,060858
0000000130,0000008600,022015,055964,022901,074906,056338,027618,082380,061706,082386,061742
0000000131,0000008667,021687,056841,022573,074391,057215,027288,081858,062585,081866,062620
0000000132,0000008733,021386,057721,022272,073857,058096,026985,081322,063470,081333,063504
0000000133,0000008800,021111,058604,021997,073305,058979,026705,080766,064351,080779,064385
0000000134,0000008867,020861,059490,021747,072735,059864,026449,080195,065234,080210,065266
0000000135,0000008933,020636,060377,021521,072148,060752,026217,079607,066117,079625,066149
0000000136,0000009000,020434,061266,021319,071545,061640,026006,079000,066993,079021,067024
0000000137,0000009067,020255,062156,021140,070925,062530,025821,078382,067876,078406,067906
0000000138,0000009133,020097,063047,020982,070291,063419,025654,077746,068749,077773,068778
0000000139,0000009200,019961,063937,020845,069642,064309,025510,077097,069622,077127,069651
0000000140,0000009267,019845,064826,020728,068980,065197,025388,076435,070492,076469,070519
0000000141,0000009333,019748,065714,020631,068306,066082,025284,075758,071355,075796,071382
0000000142,0000009400,019670,066598,020553,067620,066964,025202,075072,072215,075114,072242
0000000143,0000009467,019610,067478,020492,066924,067843,025137,074372,073066,074416,073091
0000000144,0000009533,019569,068353,020450,066217,068715,025095,073663,073914,073712,073938
0000000145,0000009600,019546,069221,020426,065501,069581,025071,072943,074751,072995,074774
0000000146,0000009667,019540,070082,020420,064777,070440,025066,072212,075578,072268,075601
0000000147,0000009733,019553,070934,020432,064043,071289,025081,071472,076397,071533,076419
0000000148,0000009800,019583,071775,020462,063302,072128,025116,070725,077206,070789,077227
0000000149,0000009867,019633,072605,020511,062554,072955,025172,069969,078004,070038,078024
0000000150,0000009933,019702,073423,020579,061797,073770,025247,069203,078787,069276,078806
0000000151,0000010000,019790,074226,020666,061034,074570,025342,068428,079556,068505,079574
0000000152,0000010067,019898,075014,020774,060263,075356,025458,067646,080310,067727,080328
0000000153,0000010133,020027,075786,020903,059484,076124,025596,066856,081050,066942,081067
0000000154,0000010200,020178,076540,021053,058698,076876,025757,066060,081775,066150,081791
0000000155,0000010267,020351,077275,021225,057904,077609,025937,065252,082481,065345,082496
0000000156,0000010333,020546,077991,021420,057103,078322,026140,064438,083168,064534,083182
0000000157,0000010400,020764,078687,021638,056293,079016,026367,063618,083838,063718,083852
0000000158,0000010467,021006,079361,021879,055476,079688,026617,062791,084490,062895,084503
0000000159,0000010533,021271,080014,022144,054650,080338,026888,061956,085119,062064,085132
0000000160,0000010600,021560,080644,022432,053816,080966,027182,061114,085729,061227,085740
0000000161,0000010667,021873,081251,022745,052974,081572,027501,060267,086320,060384,086331
0000000162,0000010733,022209,081835,023081,052125,082154,027842,059415,086889,059536,086899
0000000163,0000010800,022568,082395,023440,051267,082713,028205,058556,087436,058681,087446
0000000164,0000010867,022950,082931,023822,050403,083248,028589,057690,087961,057820,087970
0000000165,0000010933,023355,083444,024226,049532,083759,028997,056822,088466,056956,088474
0000000166,0000011000,023780,083932,024652,048655,084247,029424,055947,088949,056085,088956
0000000167,0000011067,024226,084397,025098,047772,084711,029866,055053,089404,055189,089412
0000000168,0000011133,024692,084838,025565,046883,085152,030329,054157,089837,054292,089844
0000000169,0000011200,025177,085256,026049,045989,085569,030811,053262,090251,053396,090257
0000000170,0000011267,025679,085650,026552,045089,085962,031311,052358,090642,052490,090647
0000000171,0000011333,026198,086021,027071,044184,086333,031828,051453,091009,051582,091014
0000000172,0000011400,026732,086370,027606,043276,086681,032361,050546,091354,050673,091359
0000000173,0000011467,027281,086696,028155,042363,087007,032913,049643,091681,049768,091686
0000000174,0000011533,027843,087000,028717,041447,087310,033477,048737,091983,048861,091987
0000000175,0000011600,028418,087282,029292,040530,087592,034058,047833,092265,047957,092269
0000000176,0000011667,029004,087542,029879,039611,087851,034652,046932,092526,047055,092529
0000000177,0000011733,029601,087781,030476,038693,088089,035259,046034,092765,046156,092767
0000000178,0000011800,030208,087999,031083,037776,088306,035880,045141,092985,045263,092987
0000000179,0000011867,030824,088195,031699,036862,088502,036512,044251,093182,044372,093183
0000000180,0000011933,031449,088371,032324,035953,088677,037155,043367,093358,043488,093359
0000000181,0000012000,032082,088525,032958,035048,088830,037810,042489,093512,042610,093513
0000000182,0000012067,032725,088659,033600,034151,088963,038475,041619,093646,041741,093646
0000000183,0000012133,033375,088772,034251,033262,089074,039150,040757,093757,040878,093757
0000000184,0000012200,034034,088864,034910,032382,089165,039837,039906,093848,040027,093848
0000000185,0000012267,034703,088935,035579,031513,089235,040532,039063,093916,039184,093916
0000000186,0000012333,035380,088985,036256,030656,089283,041240,038233,093964,038354,093964
0000000187,0000012400,036067,089014,036943,029811,089311,041957,037413,093989,037534,093988
0000000188,0000012467,036764,089021,037641,028980,089316,042685,036608,093994,036728,093993
0000000189,0000012533,037473,089007,038349,028164,089301,043423,035814,093975,035934,093973
0000000190,0000012600,038192,088971,039069,027363,089264,044174,035036,093936,035156,093935
0000000191,0000012667,038924,088914,039800,026578,089205,044934,034270,093874,034389,093872
0000000192,0000012733,039668,088835,040545,025809,089125,045707,033522,093791,033641,093789
0000000193,0000012800,040426,088734,041303,025058,089022,046490,032785,093684,032904,093681
0000000194,0000012867,041197,088612,042074,024323,088899,047280,032050,093552,032161,093550
0000000195,0000012933,041983,088467,042860,023605,088753,048078,031325,093396,031427,093394
0000000196,0000013000,042782,088301,043660,022903,088585,048889,030615,093219,030707,093217
0000000197,0000013067,043596,088113,044474,022216,088396,049712,029920,093019,030003,093018
0000000198,0000013133,044424,087903,045302,021545,088186,050547,029244,092799,029318,092797
0000000199,0000013200,045266,087672,046145,020888,087954,051394,028589,092559,028657,092557
0000000200,0000013267,046122,087420,047000,020245,087701,052253,027950,092298,028013,092296
0000000201,0000013333,046990,087147,047869,019618,087427,053122,027328,092016,027385,092015
0000000202,0000013400,047869,086853,048749,019005,087132,054000,026722,091714,026774,091712
0000000203,0000013467,048759,086538,049639,018408,086816,054886,026133,091391,026180,091389
