DIgSILENT PowerFactory,20000410,2000
10,10A,00D
1,LC684-652A:Phase Voltage A/Terminal i,,,kV,0.00010000000,-5.454340,0.000000,5892,99998,1,1,P
2,LC684-652A:Phase Voltage C/Terminal i,,,kV,0.00010000000,-5.222465,0.000000,-158,99998,1,1,P
3,LC692-675:Phase Voltage A/Terminal i,,,kV,0.00010000000,-5.485279,0.000000,7702,99998,1,1,P
4,LC692-675:Phase Voltage B/Terminal i,,,kV,0.00010000000,-4.544207,0.000000,-3803,99998,1,1,P
5,LC692-675:Phase Voltage C/Terminal i,,,kV,0.00010000000,-5.254777,0.000000,457,99998,1,1,P
6,LOHL632-633:Phase Voltage A/Terminal i,,,kV,0.00010000000,-6.018690,0.000000,19930,99998,1,1,P
7,LOHL632-633:Phase Voltage B/Terminal i,,,kV,0.00010000000,-5.359513,0.000000,10809,99998,1,1,P
8,LOHL632-633:Phase Voltage C/Terminal i,,,kV,0.00010000000,-5.757589,0.000000,13116,99998,1,1,P
9,LOHL645-646:Phase Voltage B/Terminal i,,,kV,0.00010000000,-5.364980,0.000000,10917,99998,1,1,P
10,LOHL645-646:Phase Voltage C/Terminal i,,,kV,0.00010000000,-5.760408,0.000000,13177,99998,1,1,P
50
1
15000.000000,3001
11/11/2020,22:16:04.000000
11/11/2020,22:16:04.000000
ASCII
1.000000
0000000001,0000000000,085215,052503,085535,014795,052774,091118,023217,057375,023308,057392
0000000002,0000000067,085651,051601,085968,015252,051875,091543,023669,056483,023760,056503
0000000003,0000000133,086062,050699,086382,015728,050974,091952,024154,055579,024245,055599
0000000004,0000000200,086464,049801,086779,016223,050074,092337,024643,054691,024733,054710
0000000005,0000000267,086834,048900,087153,016736,049176,092704,025166,053789,025253,053809
0000000006,0000000333,087186,048002,087508,017268,048280,093049,025700,052895,025787,052916
0000000007,0000000400,087524,047111,087841,017817,047387,093374,026244,052011,026330,052034
0000000008,0000000467,087832,046219,088153,018383,046497,093678,026816,051122,026902,051144
0000000009,0000000533,088123,045332,088444,018967,045611,093960,027395,050245,027479,050269
0000000010,0000000600,088395,044452,088714,019567,044730,094222,028001,049364,028084,049388
0000000011,0000000667,088640,043574,088962,020184,043854,094461,028614,048498,028695,048522
0000000012,0000000733,088868,042703,089189,020817,042983,094679,029248,047630,029329,047656
0000000013,0000000800,089073,041837,089394,021465,042118,094875,029898,046769,029978,046796
0000000014,0000000867,089255,040978,089577,022129,041260,095049,030563,045916,030642,045943
0000000015,0000000933,089415,040126,089737,022808,040410,095201,031241,045070,031318,045098
0000000016,0000001000,089553,039282,089876,023501,039566,095331,031933,044233,032009,044262
0000000017,0000001067,089670,038446,089993,024208,038731,095427,032613,043393,032675,043422
0000000018,0000001133,089765,037618,090088,024920,037905,095479,033219,042545,033252,042579
0000000019,0000001200,089837,036798,090161,025646,037084,095532,033971,041694,033998,041719
0000000020,0000001267,089889,035991,090211,026376,036278,095553,034659,040927,034685,040957
0000000021,0000001333,089915,035190,090240,027117,035477,095589,035430,040099,035456,040129
0000000022,0000001400,089921,034402,090245,027865,034692,095584,036174,039357,036196,039388
0000000023,0000001467,089905,033624,090229,028623,033915,095600,036999,038625,037026,038663
0000000024,0000001533,089863,032857,090189,029390,033149,095571,037809,037877,037833,037913
0000000025,0000001600,089802,032102,090127,030161,032396,095480,038549,037143,038567,037181
0000000026,0000001667,089716,031358,090042,030942,031651,095377,039330,036354,039346,036391
0000000027,0000001733,089608,030628,089933,031729,030922,095227,040073,035632,040082,035670
0000000028,0000001800,089477,029909,089801,032528,030204,095087,040897,034896,040904,034932
0000000029,0000001867,089321,029204,089647,033331,029501,094927,041682,034224,041682,034262
0000000030,0000001933,089143,028514,089469,034146,028812,094782,042562,033600,042564,033643
0000000031,0000002000,088942,027836,089268,034967,028134,094540,043345,032877,043339,032915
0000000032,0000002067,088717,027173,089043,035796,027473,094308,044187,032229,044178,032269
0000000033,0000002133,088470,026525,088796,036633,026827,094082,045054,031638,045043,031682
0000000034,0000002200,088200,025891,088526,037477,026194,093791,045882,030987,045866,031028
0000000035,0000002267,087908,025274,088234,038327,025578,093478,046726,030364,046706,030406
0000000036,0000002333,087593,024673,087919,039184,024979,093169,047577,029802,047553,029846
0000000037,0000002400,087256,024088,087583,040049,024395,092847,048483,029249,048458,029295
0000000038,0000002467,086898,023520,087225,040918,023829,092490,049351,028699,049321,028746
0000000039,0000002533,086519,022969,086846,041792,023280,092095,050207,028156,050172,028203
0000000040,0000002600,086119,022436,086447,042671,022748,091701,051093,027642,051055,027690
0000000041,0000002667,085700,021922,086027,043552,022235,091281,051976,027152,051936,027201
0000000042,0000002733,085261,021425,085588,044437,021740,090817,052839,026645,052798,026691
0000000043,0000002800,084803,020949,085131,045325,021265,090359,053721,026197,053681,026245
0000000044,0000002867,084327,020492,084655,046217,020810,089906,054651,025788,054614,025839
0000000045,0000002933,083833,020054,084160,047109,020375,089389,055511,025347,055471,025396
0000000046,0000003000,083321,019637,083649,048004,019960,088881,056426,024951,056390,025000
0000000047,0000003067,082793,019242,083121,048900,019566,088362,057327,024593,057293,024644
0000000048,0000003133,082248,018868,082577,049798,019194,087824,058238,024244,058208,024297
0000000049,0000003200,081689,018516,082017,050695,018844,087257,059125,023915,059096,023968
0000000050,0000003267,081114,018186,081442,051592,018515,086676,060016,023596,059988,023648
0000000051,0000003333,080524,017879,080853,052488,018210,086081,060905,023313,060877,023366
0000000052,0000003400,079921,017595,080249,053382,017928,085474,061790,023053,061763,023107
0000000053,0000003467,079303,017334,079632,054273,017670,084850,062670,022807,062643,022862
0000000054,0000003533,078673,017097,079002,055160,017435,084214,063552,022589,063527,022644
0000000055,0000003600,078030,016885,078359,056042,017224,083549,064400,022379,064374,022433
0000000056,0000003667,077375,016697,077704,056919,017038,082892,065277,022218,065253,022274
0000000057,0000003733,076707,016533,077036,057788,016876,082204,066121,022053,066096,022107
0000000058,0000003800,076029,016395,076357,058650,016739,081504,066959,021919,066934,021973
0000000059,0000003867,075338,016282,075667,059504,016628,080808,067805,021828,067781,021884
0000000060,0000003933,074637,016193,074965,060348,016541,080085,068623,021735,068598,021791
0000000061,0000004000,073924,016131,074253,061181,016480,079372,069459,021702,069436,021759
0000000062,0000004067,073201,016093,073529,062004,016443,078623,070256,021656,070232,021712
0000000063,0000004133,072467,016081,072795,062814,016432,077874,071053,021649,071031,021705
0000000064,0000004200,071723,016094,072051,063612,016447,077119,071839,021675,071817,021732
0000000065,0000004267,070968,016132,071296,064396,016486,076353,072620,021721,072599,021779
0000000066,0000004333,070204,016195,070531,065167,016550,075569,073370,021783,073349,021841
0000000067,0000004400,069429,016283,069756,065923,016638,074771,074105,021862,074084,021919
0000000068,0000004467,068644,016394,068971,066665,016751,073977,074843,021981,074823,022039
0000000069,0000004533,067850,016530,068177,067392,016887,073170,075571,022117,075558,022174
0000000070,0000004600,067047,016690,067373,068105,017048,072364,076297,022290,076291,022348
0000000071,0000004667,066234,016872,066559,068804,017231,071537,076994,022467,076998,022524
0000000072,0000004733,065412,017078,065737,069491,017437,070715,077695,022683,077708,022740
0000000073,0000004800,064581,017306,064906,070164,017665,069874,078369,022908,078391,022965
0000000074,0000004867,063742,017556,064066,070826,017916,069037,079041,023170,079072,023228
0000000075,0000004933,062896,017827,063219,071475,018187,068181,079683,023439,079723,023497
0000000076,0000005000,062042,018120,062365,072113,018480,067328,080324,023740,080371,023797
0000000077,0000005067,061182,018432,061505,072739,018793,066454,080928,024044,080981,024100
0000000078,0000005133,060316,018765,060638,073352,019127,065582,081527,024376,081584,024432
0000000079,0000005200,059446,019118,059767,073952,019480,064707,082110,024731,082171,024787
0000000080,0000005267,058571,019490,058892,074538,019853,063831,082680,025111,082746,025168
0000000081,0000005333,057693,019881,058014,075108,020244,062944,083221,025499,083291,025555
0000000082,0000005400,056814,020290,057134,075661,020654,062058,083750,025909,083824,025965
0000000083,0000005467,055932,020717,056253,076198,021082,061177,084268,026345,084346,026402
0000000084,0000005533,055051,021163,055371,076714,021528,060287,084755,026790,084835,026846
0000000085,0000005600,054171,021626,054490,077211,021992,059398,085222,027253,085305,027309
0000000086,0000005667,053292,022107,053611,077686,022474,058517,085676,027743,085761,027800
0000000087,0000005733,052415,022605,052733,078137,022972,057630,086096,028242,086183,028298
0000000088,0000005800,051541,023119,051859,078564,023488,056743,086488,028756,086574,028812
0000000089,0000005867,050671,023651,050989,078966,024020,055866,086861,029296,086945,029352
0000000090,0000005933,049805,024199,050122,079339,024569,054987,087201,029846,087283,029902
0000000091,0000006000,048943,024763,049261,079684,025134,054110,087514,030409,087592,030464
0000000092,0000006067,048087,025344,048404,079999,025716,053246,087809,030997,087884,031053
0000000093,0000006133,047235,025940,047552,080282,026313,052379,088065,031593,088137,031648
0000000094,0000006200,046389,026553,046706,080534,026926,051522,088296,032211,088362,032266
0000000095,0000006267,045549,027180,045864,080754,027554,050667,088494,032838,088555,032893
0000000096,0000006333,044713,027823,045028,080940,028197,049818,088668,033480,088722,033535
0000000097,0000006400,043883,028480,044198,081094,028855,048978,088813,034141,088864,034196
0000000098,0000006467,043057,029151,043372,081215,029527,048143,088932,034816,088978,034870
0000000099,0000006533,042237,029837,042550,081304,030212,047316,089026,035505,089068,035559
0000000100,0000006600,041420,030535,041734,081362,030911,046497,089094,036207,089133,036261
0000000101,0000006667,040609,031247,040922,081389,031623,045684,089135,036925,089170,036978
0000000102,0000006733,039801,031971,040113,081388,032346,044877,089149,037652,089182,037705
0000000103,0000006800,038998,032706,039309,081359,033082,044077,089141,038393,089171,038446
0000000104,0000006867,038199,033453,038510,081304,033828,043286,089109,039148,089136,039200
0000000105,0000006933,037404,034210,037714,081224,034585,042500,089053,039910,089078,039962
0000000106,0000007000,036613,034977,036923,081122,035351,041723,088976,040684,088999,040736
0000000107,0000007067,035828,035753,036138,080999,036127,040954,088880,041469,088901,041520
0000000108,0000007133,035049,036537,035357,080855,036910,040191,088760,042259,088779,042310
0000000109,0000007200,034275,037329,034583,080693,037702,039438,088622,043060,088639,043110
0000000110,0000007267,033509,038128,033817,080514,038501,038698,088469,043873,088485,043922
0000000111,0000007333,032751,038934,033058,080319,039306,037966,088296,044689,088311,044738
0000000112,0000007400,032003,039745,032309,080109,040117,037243,088103,045510,088116,045559
0000000113,0000007467,031265,040562,031571,079885,040934,036534,087895,046340,087908,046388
0000000114,0000007533,030540,041384,030845,079647,041756,035841,087675,047178,087686,047225
0000000115,0000007600,029828,042210,030133,079395,042582,035160,087435,048019,087445,048066
0000000116,0000007667,029131,043041,029436,079130,043412,034493,087176,048862,087186,048909
0000000117,0000007733,028452,043874,028756,078852,044246,033843,086904,049711,086914,049757
0000000118,0000007800,027790,044712,028094,078560,045084,033213,086616,050568,086624,050613
0000000119,0000007867,027149,045553,027453,078254,045925,032600,086309,051425,086316,051470
0000000120,0000007933,026529,046396,026832,077934,046769,032006,085984,052283,085989,052327
0000000121,0000008000,025932,047243,026235,077599,047616,031433,085642,053147,085647,053190
0000000122,0000008067,025360,048093,025662,077248,048467,030885,085287,054015,085292,054058
0000000123,0000008133,024812,048945,025115,076880,049320,030359,084915,054886,084919,054928
0000000124,0000008200,024290,049801,024593,076496,050177,029855,084521,055757,084525,055798
0000000125,0000008267,023796,050660,024099,076094,051036,029375,084110,056629,084115,056669
0000000126,0000008333,023329,051521,023632,075674,051899,028921,083684,057507,083689,057546
0000000127,0000008400,022890,052386,023192,075235,052764,028493,083239,058386,083245,058425
0000000128,0000008467,022479,053254,022781,074777,053633,028088,082773,059263,082780,059301
0000000129,0000008533,022096,054125,022398,074300,054505,027708,082288,060142,082297,060180
0000000130,0000008600,021740,055000,022043,073804,055380,027355,081788,061025,081798,061061
0000000131,0000008667,021412,055877,021715,073289,056257,027027,081270,061908,081282,061944
0000000132,0000008733,021111,056757,021413,072756,057138,026722,080731,062790,080746,062825
0000000133,0000008800,020836,057640,021138,072204,058021,026441,080175,063670,080191,063704
0000000134,0000008867,020586,058525,020888,071634,058906,026186,079604,064554,079623,064587
0000000135,0000008933,020361,059413,020663,071047,059794,025955,079017,065437,079039,065470
0000000136,0000009000,020159,060302,020461,070443,060682,025745,078412,066317,078437,066349
0000000137,0000009067,019980,061192,020281,069824,061572,025557,077790,067193,077818,067224
0000000138,0000009133,019823,062083,020124,069189,062461,025392,077155,068070,077186,068100
0000000139,0000009200,019686,062973,019987,068541,063351,025249,076508,068944,076543,068973
0000000140,0000009267,019570,063862,019870,067879,064239,025125,075845,069812,075883,069841
0000000141,0000009333,019473,064749,019773,067205,065124,025020,075167,070674,075209,070702
0000000142,0000009400,019395,065634,019694,066519,066007,024940,074483,071536,074528,071563
0000000143,0000009467,019336,066514,019634,065823,066885,024876,073783,072388,073832,072414
0000000144,0000009533,019294,067388,019592,065116,067757,024832,073072,073234,073125,073259
0000000145,0000009600,019271,068257,019568,064400,068623,024808,072352,074071,072409,074095
0000000146,0000009667,019265,069118,019562,063675,069482,024803,071621,074899,071682,074922
0000000147,0000009733,019278,069969,019573,062942,070331,024820,070884,075719,070948,075742
0000000148,0000009800,019309,070811,019604,062201,071170,024853,070133,076526,070202,076548
0000000149,0000009867,019358,071641,019652,061452,071997,024909,069378,077324,069450,077345
0000000150,0000009933,019427,072459,019720,060696,072812,024983,068611,078106,068688,078126
0000000151,0000010000,019515,073262,019808,059932,073612,025080,067838,078877,067919,078897
0000000152,0000010067,019623,074050,019916,059161,074398,025196,067055,079631,067141,079649
0000000153,0000010133,019753,074822,020044,058383,075166,025334,066267,080372,066356,080390
0000000154,0000010200,019903,075576,020194,057597,075918,025493,065468,081095,065562,081112
0000000155,0000010267,020076,076311,020366,056803,076651,025675,064662,081801,064759,081817
0000000156,0000010333,020271,077027,020561,056002,077364,025877,063848,082488,063948,082504
0000000157,0000010400,020490,077723,020779,055192,078058,026104,063028,083158,063132,083173
0000000158,0000010467,020731,078397,021020,054375,078730,026353,062200,083808,062308,083822
0000000159,0000010533,020997,079050,021285,053549,079380,026625,061366,084440,061478,084453
0000000160,0000010600,021285,079680,021574,052715,080009,026920,060525,085050,060641,085063
0000000161,0000010667,021598,080287,021886,051873,080614,027238,059677,085640,059798,085652
0000000162,0000010733,021934,080871,022222,051023,081196,027579,058824,086209,058949,086221
0000000163,0000010800,022294,081431,022582,050166,081755,027942,057965,086756,058094,086767
0000000164,0000010867,022676,081967,022964,049302,082290,028328,057101,087283,057235,087292
0000000165,0000010933,023080,082479,023368,048431,082801,028734,056231,087786,056370,087795
0000000166,0000011000,023505,082968,023794,047554,083289,029162,055357,088269,055499,088277
0000000167,0000011067,023952,083433,024240,046671,083753,029603,054461,088723,054601,088731
0000000168,0000011133,024417,083874,024706,045782,084194,030067,053568,089160,053707,089167
0000000169,0000011200,024902,084292,025191,044887,084611,030549,052671,089571,052810,089578
0000000170,0000011267,025404,084686,025693,043988,085004,031049,051768,089962,051903,089969
0000000171,0000011333,025923,085057,026213,043083,085375,031564,050861,090328,050994,090334
0000000172,0000011400,026458,085406,026747,042174,085723,032100,049958,090676,050089,090682
0000000173,0000011467,027006,085732,027296,041262,086049,032649,049050,091000,049180,091005
0000000174,0000011533,027569,086036,027859,040346,086352,033216,048148,091305,048276,091310
0000000175,0000011600,028143,086318,028434,039428,086634,033795,047243,091585,047370,091589
0000000176,0000011667,028729,086578,029020,038510,086893,034391,046344,091848,046470,091852
0000000177,0000011733,029326,086817,029617,037592,087131,034997,045444,092086,045570,092089
0000000178,0000011800,029933,087034,030224,036675,087348,035619,044551,092306,044677,092309
0000000179,0000011867,030549,087231,030840,035761,087544,036249,043660,092501,043785,092504
0000000180,0000011933,031174,087406,031466,034851,087719,036894,042778,092679,042903,092681
0000000181,0000012000,031808,087561,032099,033947,087872,037547,041898,092832,042023,092834
0000000182,0000012067,032450,087695,032742,033050,088005,038213,041030,092967,041155,092968
0000000183,0000012133,033100,087808,033393,032161,088117,038888,040167,093078,040292,093079
0000000184,0000012200,033760,087900,034052,031281,088207,039573,039314,093167,039439,093168
0000000185,0000012267,034428,087971,034720,030412,088277,040270,038473,093236,038597,093236
0000000186,0000012333,035105,088021,035398,029555,088325,040977,037643,093284,037768,093285
0000000187,0000012400,035792,088049,036085,028710,088353,041695,036825,093311,036949,093311
0000000188,0000012467,036490,088057,036782,027879,088358,042422,036017,093314,036141,093313
0000000189,0000012533,037198,088043,037490,027063,088343,043162,035224,093297,035349,093296
0000000190,0000012600,037917,088007,038210,026261,088306,043912,034446,093257,034570,093256
0000000191,0000012667,038649,087950,038942,025476,088247,044672,033681,093195,033804,093194
0000000192,0000012733,039394,087871,039687,024708,088167,045445,032931,093112,033054,093110
0000000193,0000012800,040151,087770,040444,023957,088065,046228,032196,093005,032319,093004
0000000194,0000012867,040922,087647,041216,023222,087941,047016,031458,092871,031573,092870
0000000195,0000012933,041708,087503,042001,022504,087795,047817,030736,092718,030843,092716
0000000196,0000013000,042507,087337,042801,021802,087627,048627,030024,092540,030120,092538
0000000197,0000013067,043321,087149,043615,021115,087438,049450,029330,092341,029417,092340
0000000198,0000013133,044150,086939,044444,020443,087228,050284,028653,092119,028731,092118
0000000199,0000013200,044992,086708,045286,019786,086996,051132,027999,091880,028072,091879
0000000200,0000013267,045847,086456,046142,019144,086743,051991,027361,091619,027427,091618
0000000201,0000013333,046715,086183,047010,018516,086469,052859,026737,091336,026798,091335
0000000202,0000013400,047594,085889,047890,017904,086174,053738,026132,091035,026188,091034
0000000203,0000013467,048484,085574,048781,017307,085859,054623,025543,090711,025594,090711
