DIgSILENT PowerFactory,20000410,2000
10,10A,00D
1,LC684-652A:Phase Voltage A/Terminal i,,,kV,0.00010000000,-5.763740,0.000000,9785,99998,1,1,P
2,LC684-652A:Phase Voltage C/Terminal i,,,kV,0.00010000000,-4.965980,0.000000,4803,99998,1,1,P
3,LC692-675:Phase Voltage A/Terminal i,,,kV,0.00010000000,-5.765603,0.000000,9990,99998,1,1,P
4,LC692-675:Phase Voltage B/Terminal i,,,kV,0.00010000000,-5.376141,0.000000,6416,99998,1,1,P
5,LC692-675:Phase Voltage C/Terminal i,,,kV,0.00010000000,-5.011600,0.000000,5793,99998,1,1,P
6,LOHL632-633:Phase Voltage A/Terminal i,,,kV,0.00010000000,-6.059574,0.000000,17802,99998,1,1,P
7,LOHL632-633:Phase Voltage B/Terminal i,,,kV,0.00010000000,-5.997906,0.000000,17832,99998,1,1,P
8,LOHL632-633:Phase Voltage C/Terminal i,,,kV,0.00010000000,-5.613538,0.000000,15595,99998,1,1,P
9,LOHL645-646:Phase Voltage B/Terminal i,,,kV,0.00010000000,-6.003036,0.000000,17953,99998,1,1,P
10,LOHL645-646:Phase Voltage C/Terminal i,,,kV,0.00010000000,-5.616910,0.000000,15658,99998,1,1,P
50
1
15000.000000,3001
11/11/2020,23:50:48.000000
11/11/2020,23:50:48.000000
ASCII
1.000000
0000000001,0000000000,088314,049941,088336,023112,050347,091527,029601,055934,029689,055957
0000000002,0000000067,088743,049036,088771,023571,049443,091951,030054,055043,030141,055063
0000000003,0000000133,089160,048134,089187,024048,048541,092361,030537,054139,030624,054164
0000000004,0000000200,089553,047234,089582,024542,047642,092745,031031,053246,031117,053271
0000000005,0000000267,089929,046335,089957,025056,046743,093112,031545,052352,031630,052378
0000000006,0000000333,090282,045439,090310,025587,045848,093458,032081,051457,032164,051484
0000000007,0000000400,090615,044545,090644,026136,044955,093782,032632,050567,032715,050595
0000000008,0000000467,090928,043654,090957,026703,044065,094087,033196,049686,033277,049714
0000000009,0000000533,091217,042767,091248,027286,043179,094370,033784,048800,033865,048830
0000000010,0000000600,091487,041886,091517,027887,042298,094630,034382,047926,034461,047956
0000000011,0000000667,091736,041009,091766,028503,041422,094870,034998,047056,035076,047087
0000000012,0000000733,091962,040138,091992,029136,040551,095088,035632,046191,035709,046222
0000000013,0000000800,092166,039272,092197,029785,039687,095284,036279,045331,036356,045363
0000000014,0000000867,092348,038413,092380,030449,038829,095458,036944,044478,037019,044510
0000000015,0000000933,092508,037561,092541,031127,037978,095610,037621,043633,037695,043667
0000000016,0000001000,092647,036717,092680,031820,037134,095740,038317,042793,038390,042827
0000000017,0000001067,092764,035881,092796,032525,036299,095819,038960,041937,039015,041972
0000000018,0000001133,092859,035054,092891,033237,035473,095888,039595,041109,039620,041143
0000000019,0000001200,092931,034234,092964,033966,034653,095952,040373,040258,040399,040291
0000000020,0000001267,092983,033426,093014,034695,033847,095969,041044,039503,041070,039541
0000000021,0000001333,093010,032625,093044,035437,033046,096006,041825,038658,041847,038689
0000000022,0000001400,093015,031837,093049,036188,032260,096050,042660,037953,042689,037996
0000000023,0000001467,092998,031059,093032,036944,031482,095982,043373,037137,043394,037175
0000000024,0000001533,092958,030292,092993,037708,030716,095937,044140,036383,044157,036423
0000000025,0000001600,092895,029537,092931,038481,029963,095909,044954,035694,044970,035737
0000000026,0000001667,092811,028793,092845,039260,029220,095762,045667,034906,045677,034949
0000000027,0000001733,092702,028062,092736,040049,028490,095640,046468,034175,046473,034216
0000000028,0000001800,092570,027344,092605,040848,027773,095510,047297,033484,047299,033527
0000000029,0000001867,092415,026640,092450,041652,027071,095375,048115,032833,048115,032880
0000000030,0000001933,092237,025948,092272,042466,026380,095186,048950,032139,048948,032186
0000000031,0000002000,092035,025271,092071,043286,025704,094984,049764,031492,049758,031542
0000000032,0000002067,091812,024608,091847,044116,025041,094721,050587,030786,050574,030830
0000000033,0000002133,091564,023960,091599,044952,024395,094471,051419,030176,051402,030224
0000000034,0000002200,091294,023326,091330,045796,023762,094192,052260,029526,052240,029572
0000000035,0000002267,091001,022709,091037,046648,023147,093931,053161,028967,053140,029017
0000000036,0000002333,090686,022108,090723,047504,022548,093609,054000,028402,053975,028455
0000000037,0000002400,090350,021523,090386,048369,021964,093258,054873,027810,054844,027861
0000000038,0000002467,089992,020955,090028,049236,021397,092885,055704,027254,055669,027305
0000000039,0000002533,089613,020404,089649,050111,020848,092486,056568,026698,056528,026749
0000000040,0000002600,089213,019871,089250,050990,020316,092107,057475,026200,057434,026253
0000000041,0000002667,088794,019357,088831,051871,019804,091689,058358,025721,058314,025776
0000000042,0000002733,088355,018861,088392,052756,019308,091227,059225,025208,059181,025261
0000000043,0000002800,087897,018384,087934,053645,018834,090793,060149,024780,060108,024835
0000000044,0000002867,087421,017927,087458,054535,018379,090312,061027,024349,060985,024405
0000000045,0000002933,086926,017489,086964,055429,017943,089817,061926,023928,061885,023984
0000000046,0000003000,086415,017073,086452,056324,017528,089309,062834,023532,062796,023589
0000000047,0000003067,085887,016677,085924,057219,017135,088769,063709,023157,063671,023214
0000000048,0000003133,085343,016303,085380,058116,016762,088219,064602,022798,064567,022855
0000000049,0000003200,084783,015950,084820,059014,016411,087654,065497,022451,065463,022507
0000000050,0000003267,084208,015621,084245,059911,016084,087082,066394,022160,066362,022219
0000000051,0000003333,083618,015314,083656,060807,015778,086493,067295,021875,067265,021934
0000000052,0000003400,083015,015029,083052,061701,015496,085866,068159,021584,068128,021641
0000000053,0000003467,082397,014769,082435,062592,015237,085254,069052,021359,069023,021419
0000000054,0000003533,081767,014532,081805,063479,015002,084605,069914,021126,069884,021185
0000000055,0000003600,081124,014320,081162,064362,014792,083953,070787,020927,070757,020986
0000000056,0000003667,080469,014132,080507,065238,014606,083290,071649,020759,071620,020819
0000000057,0000003733,079801,013968,079840,066108,014444,082611,072501,020613,072472,020673
0000000058,0000003800,079122,013830,079160,066970,014308,081919,073349,020488,073320,020549
0000000059,0000003867,078432,013717,078470,067824,014196,081226,074202,020391,074176,020452
0000000060,0000003933,077731,013628,077768,068667,014109,080498,075012,020302,074984,020364
0000000061,0000004000,077018,013566,077056,069501,014047,079767,075831,020239,075804,020300
0000000062,0000004067,076295,013528,076333,070323,014012,079033,076638,020219,076611,020281
0000000063,0000004133,075561,013516,075599,071133,014001,078282,077433,020210,077407,020272
0000000064,0000004200,074817,013529,074854,071931,014015,077532,078232,020238,078208,020301
0000000065,0000004267,074062,013567,074099,072715,014054,076749,078988,020264,078963,020326
0000000066,0000004333,073298,013630,073334,073486,014118,075978,079758,020342,079734,020405
0000000067,0000004400,072523,013718,072559,074242,014206,075178,080485,020423,080461,020486
0000000068,0000004467,071739,013830,071775,074984,014319,074382,081221,020540,081198,020604
0000000069,0000004533,070944,013965,070980,075711,014456,073583,081958,020685,081942,020749
0000000070,0000004600,070141,014125,070176,076424,014616,072772,082678,020849,082669,020913
0000000071,0000004667,069328,014308,069362,077124,014799,071952,083385,021032,083386,021095
0000000072,0000004733,068506,014513,068540,077810,015005,071121,084075,021237,084085,021300
0000000073,0000004800,067675,014741,067709,078483,015234,070289,084758,021479,084778,021543
0000000074,0000004867,066836,014991,066870,079145,015484,069437,085411,021719,085438,021782
0000000075,0000004933,065990,015262,066023,079795,015756,068593,086071,022003,086107,022066
0000000076,0000005000,065136,015555,065168,080432,016048,067732,086703,022293,086747,022356
0000000077,0000005067,064276,015868,064308,081058,016362,066871,087321,022612,087371,022675
0000000078,0000005133,063410,016201,063442,081671,016695,065997,087916,022945,087971,023008
0000000079,0000005200,062540,016553,062571,082271,017048,065116,088493,023293,088551,023355
0000000080,0000005267,061665,016925,061696,082857,017421,064235,089056,023664,089119,023726
0000000081,0000005333,060787,017316,060817,083427,017812,063354,089608,024060,089675,024123
0000000082,0000005400,059907,017725,059937,083981,018222,062472,090141,024476,090212,024538
0000000083,0000005467,059027,018153,059056,084517,018650,061583,090649,024903,090723,024965
0000000084,0000005533,058145,018598,058174,085034,019096,060691,091133,025345,091210,025406
0000000085,0000005600,057265,019061,057293,085530,019560,059808,091608,025815,091687,025877
0000000086,0000005667,056386,019542,056414,086005,020042,058924,092058,026300,092140,026362
0000000087,0000005733,055509,020040,055537,086457,020540,058037,092479,026799,092562,026860
0000000088,0000005800,054635,020554,054662,086884,021056,057153,092873,027317,092956,027378
0000000089,0000005867,053765,021086,053792,087285,021589,056271,093240,027852,093320,027913
0000000090,0000005933,052899,021634,052925,087659,022138,055393,093582,028402,093660,028463
0000000091,0000006000,052037,022199,052064,088003,022703,054520,093899,028968,093974,029029
0000000092,0000006067,051181,022779,051207,088318,023284,053653,094190,029556,094262,029617
0000000093,0000006133,050329,023376,050355,088602,023881,052787,094448,030151,094516,030212
0000000094,0000006200,049483,023988,049509,088854,024494,051932,094681,030772,094744,030833
0000000095,0000006267,048643,024615,048668,089073,025122,051076,094881,031398,094938,031459
0000000096,0000006333,047807,025258,047832,089260,025765,050227,095050,032041,095102,032101
0000000097,0000006400,046977,025915,047001,089414,026423,049387,095199,032701,095246,032762
0000000098,0000006467,046151,026586,046175,089535,027095,048556,095322,033380,095365,033440
0000000099,0000006533,045331,027272,045354,089624,027780,047728,095414,034067,095453,034126
0000000100,0000006600,044514,027970,044537,089681,028479,046905,095476,034767,095511,034826
0000000101,0000006667,043703,028682,043725,089709,029191,046094,095520,035486,095552,035545
0000000102,0000006733,042895,029406,042917,089707,029914,045285,095532,036212,095561,036271
0000000103,0000006800,042092,030141,042113,089678,030650,044486,095524,036952,095550,037010
0000000104,0000006867,041293,030888,041313,089623,031396,043698,095497,037710,095521,037768
0000000105,0000006933,040498,031645,040518,089544,032153,042912,095442,038472,095463,038530
0000000106,0000007000,039708,032412,039727,089442,032919,042134,095363,039247,095382,039304
0000000107,0000007067,038922,033188,038941,089318,033695,041364,095264,040030,095282,040087
0000000108,0000007133,038143,033972,038161,089175,034479,040603,095147,040822,095163,040879
0000000109,0000007200,037369,034764,037387,089013,035270,039847,095005,041620,095018,041675
0000000110,0000007267,036603,035563,036620,088834,036069,039107,094853,042431,094866,042487
0000000111,0000007333,035845,036369,035861,088639,036874,038373,094677,043247,094688,043302
0000000112,0000007400,035097,037180,035112,088429,037686,037652,094488,044070,094497,044124
0000000113,0000007467,034359,037997,034374,088204,038502,036944,094281,044901,094290,044954
0000000114,0000007533,033634,038819,033648,087966,039324,036247,094055,045735,094063,045788
0000000115,0000007600,032922,039645,032936,087714,040150,035569,093819,046578,093826,046631
0000000116,0000007667,032225,040476,032239,087449,040980,034901,093559,047421,093565,047473
0000000117,0000007733,031546,041310,031559,087171,041814,034254,093291,048273,093297,048324
0000000118,0000007800,030884,042147,030897,086879,042652,033622,093000,049128,093005,049178
0000000119,0000007867,030243,042988,030256,086573,043493,033007,092691,049982,092695,050032
0000000120,0000007933,029623,043831,029636,086253,044337,032416,092369,050846,092372,050895
0000000121,0000008000,029026,044678,029038,085918,045185,031843,092027,051707,092029,051755
0000000122,0000008067,028453,045528,028465,085567,046035,031294,091672,052576,091673,052624
0000000123,0000008133,027906,046381,027918,085200,046888,030766,091296,053444,091297,053491
0000000124,0000008200,027384,047236,027396,084815,047745,030263,090905,054315,090906,054362
0000000125,0000008267,026890,048095,026902,084413,048604,029785,090496,055192,090498,055238
0000000126,0000008333,026423,048957,026435,083993,049467,029328,090066,056063,090067,056108
0000000127,0000008400,025984,049821,025996,083554,050332,028901,089622,056945,089625,056990
0000000128,0000008467,025573,050689,025584,083096,051201,028496,089157,057822,089160,057865
0000000129,0000008533,025190,051561,025201,082619,052073,028117,088673,058703,088678,058746
0000000130,0000008600,024834,052435,024846,082124,052948,027764,088173,059585,088180,059627
0000000131,0000008667,024506,053312,024518,081609,053826,027434,087652,060466,087661,060507
0000000132,0000008733,024205,054192,024217,081075,054706,027132,087116,061350,087127,061391
0000000133,0000008800,023930,055075,023941,080523,055589,026850,086559,062230,086573,062270
0000000134,0000008867,023680,055961,023691,079953,056475,026596,085989,063115,086004,063154
0000000135,0000008933,023455,056848,023466,079366,057362,026363,085401,063995,085419,064034
0000000136,0000009000,023253,057737,023264,078763,058250,026153,084793,064874,084815,064912
0000000137,0000009067,023074,058627,023085,078143,059140,025967,084176,065754,084201,065791
0000000138,0000009133,022917,059518,022927,077509,060030,025800,083539,066629,083566,066664
0000000139,0000009200,022780,060408,022790,076860,060919,025657,082891,067503,082922,067538
0000000140,0000009267,022664,061297,022673,076198,061807,025533,082228,068371,082262,068405
0000000141,0000009333,022567,062185,022576,075524,062692,025430,081552,069235,081590,069268
0000000142,0000009400,022489,063069,022497,074838,063575,025348,080866,070095,080908,070128
0000000143,0000009467,022430,063949,022437,074142,064453,025283,080164,070946,080210,070977
0000000144,0000009533,022388,064824,022395,073435,065325,025242,079458,071794,079507,071824
0000000145,0000009600,022365,065692,022371,072719,066191,025217,078735,072630,078789,072660
0000000146,0000009667,022359,066553,022365,071995,067050,025213,078006,073459,078063,073488
0000000147,0000009733,022372,067405,022377,071262,067899,025228,077267,074279,077328,074307
0000000148,0000009800,022403,068246,022407,070521,068738,025262,076517,075086,076583,075113
0000000149,0000009867,022452,069076,022456,069772,069565,025318,075762,075884,075831,075910
0000000150,0000009933,022521,069894,022524,069015,070380,025392,074994,076665,075068,076691
0000000151,0000010000,022609,070697,022611,068252,071180,025488,074222,077436,074299,077460
0000000152,0000010067,022717,071485,022719,067481,071966,025606,073441,078193,073523,078217
0000000153,0000010133,022847,072257,022847,066702,072735,025743,072650,078931,072736,078954
0000000154,0000010200,022997,073011,022998,065916,073486,025902,071852,079654,071942,079676
0000000155,0000010267,023170,073746,023170,065123,074219,026084,071046,080361,071140,080383
0000000156,0000010333,023365,074462,023364,064321,074933,026286,070232,081048,070329,081069
0000000157,0000010400,023584,075158,023582,063512,075626,026513,069412,081718,069513,081739
0000000158,0000010467,023825,075832,023824,062694,076298,026762,068584,082368,068689,082388
0000000159,0000010533,024091,076485,024088,061868,076949,027034,067750,082999,067858,083018
0000000160,0000010600,024379,077115,024377,061034,077577,027329,066908,083609,067021,083627
0000000161,0000010667,024692,077722,024690,060192,078182,027647,066061,084199,066178,084216
0000000162,0000010733,025028,078306,025026,059343,078764,027988,065207,084768,065329,084784
0000000163,0000010800,025388,078866,025385,058486,079323,028350,064348,085315,064474,085331
0000000164,0000010867,025770,079402,025767,057621,079858,028736,063484,085842,063615,085857
0000000165,0000010933,026174,079915,026171,056750,080370,029143,062615,086346,062750,086360
0000000166,0000011000,026599,080403,026597,055873,080857,029571,061740,086828,061879,086842
0000000167,0000011067,027046,080868,027043,054990,081321,030013,060846,087284,060983,087297
0000000168,0000011133,027511,081309,027509,054101,081762,030476,059952,087719,060087,087732
0000000169,0000011200,027996,081727,027994,053207,082179,030958,059055,088130,059190,088143
0000000170,0000011267,028498,082121,028497,052307,082573,031457,058151,088520,058283,088532
0000000171,0000011333,029017,082492,029016,051403,082943,031973,057245,088888,057374,088899
0000000172,0000011400,029552,082841,029550,050494,083291,032507,056339,089234,056467,089245
0000000173,0000011467,030100,083167,030099,049581,083617,033058,055434,089559,055560,089570
0000000174,0000011533,030663,083471,030662,048665,083920,033624,054530,089863,054655,089873
0000000175,0000011600,031237,083753,031237,047748,084202,034205,053628,090146,053752,090155
0000000176,0000011667,031823,084013,031823,046829,084461,034800,052727,090407,052851,090416
0000000177,0000011733,032420,084252,032420,045911,084700,035407,051828,090646,051951,090655
0000000178,0000011800,033027,084469,033027,044994,084916,036026,050933,090864,051056,090872
0000000179,0000011867,033643,084666,033644,044080,085112,036659,050045,091062,050167,091070
0000000180,0000011933,034268,084842,034269,043171,085287,037302,049160,091238,049283,091245
0000000181,0000012000,034902,084996,034903,042267,085440,037955,048282,091391,048404,091398
0000000182,0000012067,035544,085130,035545,041369,085573,038621,047413,091526,047535,091533
0000000183,0000012133,036195,085243,036196,040480,085685,039297,046552,091637,046673,091644
0000000184,0000012200,036854,085335,036855,039600,085775,039982,045698,091727,045820,091733
0000000185,0000012267,037522,085406,037523,038731,085845,040679,044857,091797,044979,091803
0000000186,0000012333,038199,085456,038201,037874,085893,041386,044027,091844,044148,091850
0000000187,0000012400,038886,085484,038888,037029,085921,042103,043207,091869,043328,091874
0000000188,0000012467,039584,085492,039585,036198,085927,042831,042401,091873,042522,091879
0000000189,0000012533,040292,085478,040294,035382,085911,043570,041608,091856,041729,091861
0000000190,0000012600,041011,085442,041013,034581,085874,044319,040828,091815,040949,091820
0000000191,0000012667,041743,085385,041745,033796,085815,045081,040064,091754,040184,091758
0000000192,0000012733,042488,085306,042490,033027,085735,045853,039315,091670,039435,091675
0000000193,0000012800,043245,085205,043248,032276,085633,046636,038579,091564,038698,091568
0000000194,0000012867,044017,085082,044019,031541,085509,047426,037843,091431,037955,091435
0000000195,0000012933,044802,084938,044805,030823,085363,048225,037119,091277,037222,091281
0000000196,0000013000,045601,084772,045604,030121,085196,049036,036408,091098,036501,091103
0000000197,0000013067,046415,084584,046419,029435,085007,049858,035714,090900,035797,090904
0000000198,0000013133,047244,084374,047247,028763,084796,050693,035037,090679,035112,090683
0000000199,0000013200,048085,084143,048089,028106,084564,051541,034383,090439,034452,090444
0000000200,0000013267,048941,083891,048945,027463,084311,052399,033744,090178,033807,090183
0000000201,0000013333,049809,083618,049813,026836,084037,053268,033122,089896,033179,089901
0000000202,0000013400,050688,083324,050693,026223,083742,054146,032516,089594,032568,089598
0000000203,0000013467,051578,083009,051584,025626,083427,055032,031927,089271,031974,089276
