DIgSILENT PowerFactory,20000410,2000
10,10A,00D
1,LC684-652A:Phase Voltage A/Terminal i,,,kV,0.00010000000,-4.505651,0.000000,-8155,99998,1,1,P
2,LC684-652A:Phase Voltage C/Terminal i,,,kV,0.00010000000,-5.163572,0.000000,-6357,99998,1,1,P
3,LC692-675:Phase Voltage A/Terminal i,,,kV,0.00010000000,-4.512371,0.000000,-8060,99998,1,1,P
4,LC692-675:Phase Voltage B/Terminal i,,,kV,0.00010000000,-4.473731,0.000000,-34280,99998,1,1,P
5,LC692-675:Phase Voltage C/Terminal i,,,kV,0.00010000000,-5.190095,0.000000,-5517,99998,1,1,P
6,LOHL632-633:Phase Voltage A/Terminal i,,,kV,0.00010000000,-5.427738,0.000000,8841,99998,1,1,P
7,LOHL632-633:Phase Voltage B/Terminal i,,,kV,0.00010000000,-5.438345,0.000000,-5375,99998,1,1,P
8,LOHL632-633:Phase Voltage C/Terminal i,,,kV,0.00010000000,-5.750520,0.000000,11122,99998,1,1,P
9,LOHL645-646:Phase Voltage B/Terminal i,,,kV,0.00010000000,-5.450996,0.000000,-5088,99998,1,1,P
10,LOHL645-646:Phase Voltage C/Terminal i,,,kV,0.00010000000,-5.753132,0.000000,11184,99998,1,1,P
50
1
15000.000000,3001
11/11/2020,22:33:05.000000
11/11/2020,22:33:05.000000
ASCII
1.000000
0000000001,0000000000,075728,051915,075805,014090,052129,085208,024005,057304,024168,057319
0000000002,0000000067,076164,051014,076239,014547,051228,085634,024458,056412,024620,056427
0000000003,0000000133,076577,050109,076655,015023,050326,086041,024941,055510,025104,055527
0000000004,0000000200,076973,049209,077050,015518,049427,086427,025436,054616,025597,054634
0000000005,0000000267,077350,048312,077425,016031,048529,086794,025947,053724,026106,053741
0000000006,0000000333,077702,047416,077778,016563,047633,087139,026480,052832,026639,052851
0000000007,0000000400,078033,046520,078112,017112,046740,087465,027032,051942,027189,051961
0000000008,0000000467,078346,045630,078424,017679,045850,087769,027605,051051,027762,051072
0000000009,0000000533,078637,044744,078715,018262,044964,088051,028184,050174,028340,050195
0000000010,0000000600,078905,043861,078985,018863,044083,088312,028790,049292,028945,049314
0000000011,0000000667,079156,042986,079233,019479,043207,088551,029402,048427,029555,048449
0000000012,0000000733,079380,042114,079460,020112,042336,088770,030039,047557,030192,047580
0000000013,0000000800,079584,041248,079664,020761,041471,088966,030689,046697,030840,046721
0000000014,0000000867,079767,040389,079847,021425,040614,089140,031350,045846,031501,045871
0000000015,0000000933,079929,039538,080008,022103,039763,089292,032028,045001,032177,045027
0000000016,0000001000,080067,038693,080147,022796,038920,089422,032719,044165,032867,044192
0000000017,0000001067,080183,037857,080264,023502,038084,089513,033391,043319,033522,043346
0000000018,0000001133,080278,037030,080361,024215,037259,089585,034008,042510,034109,042539
0000000019,0000001200,080350,036210,080432,024941,036438,089636,034777,041632,034881,041657
0000000020,0000001267,080400,035400,080482,025673,035630,089666,035486,040824,035585,040849
0000000021,0000001333,080429,034603,080510,026412,034835,089703,036230,040112,036326,040146
0000000022,0000001400,080434,033813,080516,027164,034045,089733,037069,039326,037174,039362
0000000023,0000001467,080416,033036,080500,027918,033270,089719,037792,038606,037891,038645
0000000024,0000001533,080378,032268,080460,028685,032502,089648,038590,037793,038686,037828
0000000025,0000001600,080315,031513,080398,029455,031749,089566,039322,037070,039413,037109
0000000026,0000001667,080229,030769,080313,030238,031005,089474,040128,036288,040217,036324
0000000027,0000001733,080121,030038,080204,031025,030275,089306,040857,035546,040936,035579
0000000028,0000001800,079989,029320,080072,031823,029557,089178,041680,034823,041756,034856
0000000029,0000001867,079834,028615,079918,032628,028854,089040,042518,034173,042594,034211
0000000030,0000001933,079656,027925,079740,033442,028165,088872,043347,033530,043419,033571
0000000031,0000002000,079454,027247,079539,034264,027488,088668,044195,032845,044265,032885
0000000032,0000002067,079230,026583,079314,035091,026826,088402,044976,032154,045038,032191
0000000033,0000002133,078983,025936,079067,035929,026180,088180,045854,031564,045916,031606
0000000034,0000002200,078713,025303,078797,036772,025549,087890,046679,030948,046736,030991
0000000035,0000002267,078420,024685,078505,037624,024932,087612,047560,030348,047615,030391
0000000036,0000002333,078106,024084,078190,038480,024332,087257,048366,029726,048413,029767
0000000037,0000002400,077769,023499,077854,039344,023749,086948,049270,029200,049317,029246
0000000038,0000002467,077411,022931,077496,040214,023182,086578,050139,028625,050181,028670
0000000039,0000002533,077032,022380,077117,041087,022632,086173,050979,028057,051015,028099
0000000040,0000002600,076633,021847,076717,041965,022101,085768,051847,027561,051878,027605
0000000041,0000002667,076213,021332,076298,042848,021588,085363,052754,027069,052785,027114
0000000042,0000002733,075774,020837,075859,043733,021095,084932,053651,026622,053684,026671
0000000043,0000002800,075316,020360,075402,044620,020618,084459,054524,026133,054557,026180
0000000044,0000002867,074840,019903,074925,045512,020163,083984,055425,025700,055459,025747
0000000045,0000002933,074346,019465,074431,046404,019728,083485,056306,025283,056339,025330
0000000046,0000003000,073834,019049,073920,047299,019313,082978,057214,024896,057249,024945
0000000047,0000003067,073306,018653,073392,048195,018919,082443,058104,024509,058142,024557
0000000048,0000003133,072762,018279,072848,049092,018547,081898,059004,024162,059043,024211
0000000049,0000003200,072202,017926,072288,049990,018196,081335,059900,023821,059941,023870
0000000050,0000003267,071627,017596,071713,050887,017868,080755,060790,023509,060832,023558
0000000051,0000003333,071037,017290,071124,051783,017564,080170,061688,023241,061732,023292
0000000052,0000003400,070434,017005,070520,052677,017281,079560,062574,022969,062618,023020
0000000053,0000003467,069817,016745,069903,053568,017022,078929,063451,022717,063496,022767
0000000054,0000003533,069186,016508,069273,054455,016787,078286,064319,022494,064364,022545
0000000055,0000003600,068543,016296,068630,055337,016577,077639,065187,022308,065232,022360
0000000056,0000003667,067888,016107,067975,056214,016390,076967,066051,022120,066097,022172
0000000057,0000003733,067221,015944,067307,057083,016229,076286,066896,021975,066942,022028
0000000058,0000003800,066542,015806,066628,057946,016092,075598,067752,021845,067799,021897
0000000059,0000003867,065851,015693,065938,058800,015981,074907,068607,021761,068656,021815
0000000060,0000003933,065150,015605,065236,059643,015895,074187,069426,021683,069474,021738
0000000061,0000004000,064437,015542,064524,060476,015833,073452,070235,021617,070283,021671
0000000062,0000004067,063714,015504,063800,061299,015797,072710,071041,021581,071089,021635
0000000063,0000004133,062980,015492,063066,062109,015786,071962,071839,021574,071888,021629
0000000064,0000004200,062236,015505,062322,062907,015800,071212,072634,021606,072684,021662
0000000065,0000004267,061482,015543,061567,063691,015839,070433,073394,021636,073444,021691
0000000066,0000004333,060717,015606,060802,064462,015903,069662,074163,021712,074214,021768
0000000067,0000004400,059942,015694,060027,065218,015992,068864,074895,021798,074946,021854
0000000068,0000004467,059158,015806,059242,065960,016104,068071,075635,021916,075687,021973
0000000069,0000004533,058363,015941,058448,066687,016241,067257,076351,022045,076410,022100
0000000070,0000004600,057560,016101,057643,067400,016401,066447,077074,022208,077140,022264
0000000071,0000004667,056747,016284,056830,068100,016584,065633,077788,022406,077864,022462
0000000072,0000004733,055925,016489,056008,068786,016790,064808,078488,022614,078573,022670
0000000073,0000004800,055094,016717,055176,069459,017019,063966,079158,022842,079252,022897
0000000074,0000004867,054255,016967,054337,070121,017269,063124,079824,023097,079927,023153
0000000075,0000004933,053409,017238,053490,070771,017541,062276,080479,023372,080591,023427
0000000076,0000005000,052555,017531,052636,071408,017833,061418,081112,023669,081232,023724
0000000077,0000005067,051695,017843,051776,072034,018147,060545,081716,023974,081841,024029
0000000078,0000005133,050829,018176,050909,072647,018480,059679,082324,024313,082453,024368
0000000079,0000005200,049959,018529,050038,073247,018833,058803,082903,024669,083038,024724
0000000080,0000005267,049084,018901,049163,073833,019206,057918,083462,025036,083600,025090
0000000081,0000005333,048206,019292,048285,074403,019597,057038,084014,025433,084157,025488
0000000082,0000005400,047327,019701,047405,074957,020007,056152,084544,025843,084690,025898
0000000083,0000005467,046446,020129,046524,075493,020435,055266,085056,026272,085205,026327
0000000084,0000005533,045564,020574,045642,076010,020881,054379,085546,026722,085698,026776
0000000085,0000005600,044684,021037,044761,076506,021345,053492,086014,027190,086169,027244
0000000086,0000005667,043805,021518,043881,076981,021827,052605,086460,027671,086617,027725
0000000087,0000005733,042928,022016,043004,077433,022325,051721,086885,028171,087044,028225
0000000088,0000005800,042054,022530,042130,077860,022841,050835,087277,028688,087435,028741
0000000089,0000005867,041184,023062,041260,078261,023374,049957,087651,029225,087808,029279
0000000090,0000005933,040318,023610,040393,078634,023922,049075,087986,029772,088139,029825
0000000091,0000006000,039456,024174,039531,078979,024488,048205,088307,030343,088458,030397
0000000092,0000006067,038600,024755,038675,079294,025069,047333,088592,030921,088739,030975
0000000093,0000006133,037749,025352,037823,079578,025666,046472,088857,031526,089000,031579
0000000094,0000006200,036903,025964,036976,079830,026279,045611,089084,032138,089222,032191
0000000095,0000006267,036062,026591,036135,080049,026907,044756,089282,032766,089414,032819
0000000096,0000006333,035226,027234,035299,080236,027550,043911,089459,033413,089586,033466
0000000097,0000006400,034396,027891,034468,080389,028208,043067,089601,034069,089723,034122
0000000098,0000006467,033570,028562,033643,080510,028880,042239,089727,034750,089846,034803
0000000099,0000006533,032750,029248,032821,080599,029565,041408,089816,035435,089930,035487
0000000100,0000006600,031934,029946,032005,080657,030264,040588,089883,036138,089993,036190
0000000101,0000006667,031122,030658,031192,080684,030976,039775,089923,036854,090031,036905
0000000102,0000006733,030314,031382,030384,080683,031700,038969,089940,037583,090044,037634
0000000103,0000006800,029511,032117,029580,080654,032435,038170,089933,038325,090034,038376
0000000104,0000006867,028712,032864,028781,080599,033181,037377,089899,039076,089998,039127
0000000105,0000006933,027917,033621,027985,080520,033938,036594,089845,039844,089942,039894
0000000106,0000007000,027127,034388,027194,080418,034704,035813,089765,040613,089860,040662
0000000107,0000007067,026341,035164,026408,080294,035480,035042,089664,041395,089756,041444
0000000108,0000007133,025562,035948,025628,080151,036264,034282,089549,042189,089639,042238
0000000109,0000007200,024788,036740,024854,079989,037055,033528,089410,042989,089499,043037
0000000110,0000007267,024022,037539,024088,079810,037854,032789,089259,043802,089346,043850
0000000111,0000007333,023264,038345,023329,079615,038659,032055,089084,044617,089170,044665
0000000112,0000007400,022516,039156,022580,079405,039471,031333,088890,045439,088975,045485
0000000113,0000007467,021778,039973,021842,079180,040287,030626,088686,046272,088770,046318
0000000114,0000007533,021053,040795,021116,078942,041109,029930,088461,047107,088544,047152
0000000115,0000007600,020341,041621,020404,078690,041935,029247,088218,047944,088301,047989
0000000116,0000007667,019645,042452,019707,078425,042765,028584,087967,048793,088048,048837
0000000117,0000007733,018965,043286,019027,078147,043599,027936,087696,049644,087777,049687
0000000118,0000007800,018304,044123,018365,077855,044437,027302,087403,050495,087483,050537
0000000119,0000007867,017662,044964,017723,077549,045278,026691,087097,051354,087176,051397
0000000120,0000007933,017042,045807,017103,077229,046122,026098,086774,052215,086851,052257
0000000121,0000008000,016445,046654,016506,076894,046970,025523,086430,053076,086507,053117
0000000122,0000008067,015873,047504,015933,076543,047820,024975,086075,053945,086151,053985
0000000123,0000008133,015325,048357,015386,076176,048673,024449,085702,054815,085778,054855
0000000124,0000008200,014804,049212,014864,075791,049530,023944,085308,055684,085384,055723
0000000125,0000008267,014309,050071,014369,075389,050389,023466,084900,056559,084976,056598
0000000126,0000008333,013842,050933,013902,074969,051252,023013,084474,057437,084551,057475
0000000127,0000008400,013403,051797,013463,074530,052117,022581,084024,058312,084102,058349
0000000128,0000008467,012992,052665,013052,074072,052986,022178,083560,059192,083639,059228
0000000129,0000008533,012609,053536,012669,073595,053858,021800,083079,060074,083159,060110
0000000130,0000008600,012253,054411,012314,073100,054733,021444,082575,060953,082657,060987
0000000131,0000008667,011925,055288,011986,072585,055611,021117,082057,061837,082141,061871
0000000132,0000008733,011624,056168,011684,072051,056491,020813,081520,062719,081606,062752
0000000133,0000008800,011349,057051,011409,071499,057374,020534,080966,063602,081055,063635
0000000134,0000008867,011099,057937,011159,070929,058260,020278,080395,064485,080486,064517
0000000135,0000008933,010874,058824,010934,070342,059147,020045,079805,065366,079898,065396
0000000136,0000009000,010672,059713,010732,069739,060035,019836,079200,066246,079297,066276
0000000137,0000009067,010493,060603,010552,069119,060925,019648,078579,067123,078678,067152
0000000138,0000009133,010336,061494,010394,068485,061815,019482,077943,067998,078046,068026
0000000139,0000009200,010199,062384,010258,067836,062704,019338,077294,068871,077401,068898
0000000140,0000009267,010083,063273,010141,067174,063592,019214,076631,069739,076740,069765
0000000141,0000009333,009986,064161,010044,066500,064477,019111,075956,070604,076069,070630
0000000142,0000009400,009908,065045,009965,065814,065360,019029,075269,071463,075386,071488
0000000143,0000009467,009849,065925,009905,065118,066238,018966,074570,072317,074691,072341
0000000144,0000009533,009807,066800,009863,064411,067110,018923,073861,073163,073986,073186
0000000145,0000009600,009784,067668,009839,063695,067976,018900,073142,074001,073271,074024
0000000146,0000009667,009778,068529,009833,062971,068835,018895,072411,074830,072544,074852
0000000147,0000009733,009791,069380,009844,062237,069684,018911,071672,075650,071809,075670
0000000148,0000009800,009822,070222,009874,061496,070523,018945,070924,076457,071065,076477
0000000149,0000009867,009871,071052,009923,060748,071350,019000,070166,077253,070310,077272
0000000150,0000009933,009940,071870,009991,059991,072165,019075,069400,078036,069549,078055
0000000151,0000010000,010028,072673,010079,059228,072965,019170,068626,078806,068779,078823
0000000152,0000010067,010137,073461,010186,058457,073751,019286,067843,079561,068000,079577
0000000153,0000010133,010266,074233,010315,057678,074520,019424,067054,080300,067215,080316
0000000154,0000010200,010417,074987,010465,056892,075271,019584,066257,081024,066423,081039
0000000155,0000010267,010589,075722,010637,056098,076004,019765,065450,081730,065618,081744
0000000156,0000010333,010785,076438,010832,055297,076718,019968,064637,082418,064809,082431
0000000157,0000010400,011003,077134,011050,054487,077411,020194,063816,083087,063992,083100
0000000158,0000010467,011244,077808,011291,053670,078083,020444,062988,083738,063168,083750
0000000159,0000010533,011510,078461,011556,052844,078734,020716,062154,084369,062338,084380
0000000160,0000010600,011799,079091,011845,052010,079362,021011,061313,084980,061501,084990
0000000161,0000010667,012111,079698,012157,051168,079967,021329,060466,085570,060658,085579
0000000162,0000010733,012447,080282,012493,050319,080549,021670,059613,086139,059810,086148
0000000163,0000010800,012807,080842,012852,049461,081108,022034,058755,086687,058956,086695
0000000164,0000010867,013189,081378,013235,048597,081643,022419,057890,087213,058096,087220
0000000165,0000010933,013593,081891,013639,047726,082155,022826,057021,087717,057231,087723
0000000166,0000011000,014019,082379,014065,046849,082642,023252,056145,088198,056359,088204
0000000167,0000011067,014465,082844,014511,045966,083106,023694,055250,088653,055462,088659
0000000168,0000011133,014931,083285,014977,045077,083547,024157,054356,089087,054566,089093
0000000169,0000011200,015415,083703,015462,044183,083964,024640,053460,089500,053670,089505
0000000170,0000011267,015918,084097,015964,043283,084357,025138,052555,089890,052762,089894
0000000171,0000011333,016436,084468,016483,042378,084728,025655,051650,090257,051854,090261
0000000172,0000011400,016971,084817,017018,041470,085076,026189,050744,090604,050947,090607
0000000173,0000011467,017520,085143,017567,040557,085402,026739,049839,090929,050040,090932
0000000174,0000011533,018082,085447,018130,039641,085705,027305,048935,091233,049135,091235
0000000175,0000011600,018656,085729,018705,038724,085987,027886,048032,091515,048231,091517
0000000176,0000011667,019242,085989,019291,037805,086246,028481,047132,091777,047330,091778
0000000177,0000011733,019839,086228,019888,036887,086485,029089,046234,092017,046432,092018
0000000178,0000011800,020446,086445,020495,035970,086702,029709,045340,092235,045538,092236
0000000179,0000011867,021062,086642,021111,035056,086897,030341,044450,092432,044648,092433
0000000180,0000011933,021687,086818,021737,034147,087072,030984,043565,092607,043763,092608
0000000181,0000012000,022321,086972,022370,033243,087225,031638,042687,092761,042884,092761
0000000182,0000012067,022963,087106,023013,032345,087358,032302,041817,092894,042014,092894
0000000183,0000012133,023614,087219,023664,031456,087470,032978,040955,093006,041152,093005
0000000184,0000012200,024273,087311,024323,030576,087560,033664,040103,093097,040300,093095
0000000185,0000012267,024941,087382,024991,029707,087630,034361,039261,093166,039458,093164
0000000186,0000012333,025618,087432,025669,028850,087678,035067,038430,093213,038627,093211
0000000187,0000012400,026305,087460,026356,028005,087706,035785,037612,093239,037808,093237
0000000188,0000012467,027003,087468,027053,027174,087712,036513,036805,093243,037002,093240
0000000189,0000012533,027711,087454,027761,026358,087696,037252,036013,093225,036209,093222
0000000190,0000012600,028431,087418,028481,025557,087659,038002,035234,093186,035429,093183
0000000191,0000012667,029162,087361,029213,024772,087600,038763,034469,093124,034665,093121
0000000192,0000012733,029907,087282,029958,024003,087520,039535,033720,093041,033915,093037
0000000193,0000012800,030664,087181,030715,023252,087418,040319,032985,092935,033179,092931
0000000194,0000012867,031436,087058,031487,022517,087294,041108,032248,092802,032435,092798
0000000195,0000012933,032221,086914,032272,021799,087148,041907,031524,092646,031702,092643
0000000196,0000013000,033021,086748,033072,021097,086981,042717,030812,092468,030980,092464
0000000197,0000013067,033835,086560,033886,020410,086792,043539,030117,092269,030276,092265
0000000198,0000013133,034663,086350,034715,019739,086581,044376,029443,092050,029593,092047
0000000199,0000013200,035505,086119,035557,019082,086349,045222,028786,091808,028930,091805
0000000200,0000013267,036360,085867,036413,018439,086096,046081,028149,091548,028287,091545
0000000201,0000013333,037228,085594,037281,017812,085822,046950,027526,091266,027659,091263
0000000202,0000013400,038107,085300,038161,017199,085527,047827,026920,090963,027047,090960
0000000203,0000013467,038998,084985,039052,016602,085212,048713,026331,090640,026453,090637
