DIgSILENT PowerFactory,20000410,2000
10,10A,00D
1,LC684-652A:Phase Voltage A/Terminal i,,,kV,0.00010000000,-5.448308,0.000000,9068,99998,1,1,P
2,LC684-652A:Phase Voltage C/Terminal i,,,kV,0.00010000000,-5.325369,0.000000,8143,99998,1,1,P
3,LC692-675:Phase Voltage A/Terminal i,,,kV,0.00010000000,-5.447959,0.000000,9066,99998,1,1,P
4,LC692-675:Phase Voltage B/Terminal i,,,kV,0.00010000000,-5.545679,0.000000,5184,99998,1,1,P
5,LC692-675:Phase Voltage C/Terminal i,,,kV,0.00010000000,-5.337106,0.000000,8337,99998,1,1,P
6,LOHL632-633:Phase Voltage A/Terminal i,,,kV,0.00010000000,-5.933581,0.000000,18830,99998,1,1,P
7,LOHL632-633:Phase Voltage B/Terminal i,,,kV,0.00010000000,-5.949604,0.000000,15806,99998,1,1,P
8,LOHL632-633:Phase Voltage C/Terminal i,,,kV,0.00010000000,-5.770420,0.000000,16589,99998,1,1,P
9,LOHL645-646:Phase Voltage B/Terminal i,,,kV,0.00010000000,-5.951851,0.000000,15888,99998,1,1,P
10,LOHL645-646:Phase Voltage C/Terminal i,,,kV,0.00010000000,-5.772979,0.000000,16642,99998,1,1,P
50
1
15000.000000,3001
11/11/2020,22:12:00.000000
11/11/2020,22:12:00.000000
ASCII
1.000000
0000000001,0000000000,085154,053533,085161,024809,053599,090267,029118,057503,029177,057518
0000000002,0000000067,085591,052632,085595,025266,052698,090693,029571,056611,029628,056626
0000000003,0000000133,086004,051727,086011,025743,051796,091100,030053,055709,030112,055726
0000000004,0000000200,086400,050827,086406,026238,050897,091485,030549,054815,030606,054832
0000000005,0000000267,086776,049930,086781,026751,049999,091853,031060,053923,031115,053939
0000000006,0000000333,087129,049033,087134,027282,049103,092197,031593,053031,031648,053049
0000000007,0000000400,087459,048138,087468,027831,048210,092523,032144,052141,032198,052160
0000000008,0000000467,087773,047248,087780,028398,047320,092827,032717,051250,032770,051270
0000000009,0000000533,088063,046362,088071,028982,046434,093109,033297,050373,033348,050394
0000000010,0000000600,088332,045479,088341,029582,045553,093371,033903,049491,033954,049512
0000000011,0000000667,088583,044604,088589,030199,044677,093610,034514,048626,034564,048648
0000000012,0000000733,088807,043732,088816,030832,043806,093828,035151,047756,035200,047779
0000000013,0000000800,089011,042866,089020,031480,042941,094024,035801,046896,035849,046919
0000000014,0000000867,089194,042007,089203,032144,042084,094198,036463,046045,036509,046069
0000000015,0000000933,089355,041156,089364,032823,041233,094350,037140,045200,037185,045226
0000000016,0000001000,089494,040311,089503,033516,040390,094480,037831,044364,037875,044390
0000000017,0000001067,089610,039475,089620,034221,039554,094572,038504,043518,038531,043544
0000000018,0000001133,089704,038648,089716,034934,038729,094643,039121,042709,039117,042738
0000000019,0000001200,089777,037828,089788,035661,037908,094695,039889,041831,039889,041855
0000000020,0000001267,089827,037018,089838,036392,037100,094724,040598,041023,040594,041048
0000000021,0000001333,089856,036221,089866,037132,036305,094761,041343,040311,041335,040345
0000000022,0000001400,089860,035431,089872,037884,035515,094792,042182,039525,042183,039560
0000000023,0000001467,089843,034654,089856,038637,034740,094778,042905,038805,042900,038844
0000000024,0000001533,089804,033886,089816,039404,033972,094706,043702,037992,043695,038027
0000000025,0000001600,089741,033131,089754,040175,033219,094624,044434,037269,044421,037308
0000000026,0000001667,089656,032387,089668,040957,032475,094533,045241,036487,045226,036522
0000000027,0000001733,089548,031656,089560,041744,031745,094364,045970,035745,045944,035777
0000000028,0000001800,089416,030938,089428,042542,031027,094237,046792,035022,046765,035054
0000000029,0000001867,089261,030233,089273,043348,030325,094098,047631,034372,047603,034409
0000000030,0000001933,089083,029543,089096,044161,029636,093931,048460,033729,048428,033769
0000000031,0000002000,088881,028865,088895,044983,028958,093726,049307,033044,049273,033083
0000000032,0000002067,088657,028201,088670,045811,028296,093460,050088,032353,050047,032390
0000000033,0000002133,088409,027554,088423,046648,027650,093238,050967,031763,050925,031804
0000000034,0000002200,088140,026921,088153,047491,027019,092949,051791,031147,051744,031190
0000000035,0000002267,087847,026303,087861,048343,026402,092670,052673,030547,052623,030589
0000000036,0000002333,087532,025702,087546,049199,025802,092316,053478,029925,053421,029966
0000000037,0000002400,087195,025117,087210,050064,025219,092006,054383,029399,054325,029445
0000000038,0000002467,086837,024549,086852,050933,024652,091637,055251,028824,055190,028868
0000000039,0000002533,086459,023998,086473,051806,024102,091231,056092,028256,056023,028298
0000000040,0000002600,086059,023465,086073,052684,023571,090826,056960,027760,056887,027804
0000000041,0000002667,085639,022950,085654,053567,023058,090421,057867,027268,057793,027313
0000000042,0000002733,085201,022455,085215,054452,022565,089990,058764,026821,058692,026869
0000000043,0000002800,084743,021978,084757,055340,022089,089517,059637,026332,059565,026378
0000000044,0000002867,084267,021520,084281,056231,021633,089043,060538,025899,060467,025945
0000000045,0000002933,083772,021083,083787,057124,021198,088543,061419,025482,061347,025529
0000000046,0000003000,083261,020667,083276,058019,020783,088036,062326,025095,062258,025143
0000000047,0000003067,082733,020271,082748,058915,020389,087502,063217,024708,063150,024756
0000000048,0000003133,082188,019897,082204,059812,020017,086956,064116,024361,064051,024410
0000000049,0000003200,081628,019544,081644,060709,019667,086393,065013,024020,064949,024068
0000000050,0000003267,081053,019214,081069,061606,019338,085813,065903,023708,065841,023756
0000000051,0000003333,080464,018908,080480,062502,019034,085229,066801,023440,066740,023491
0000000052,0000003400,079860,018623,079876,063396,018751,084618,067686,023168,067627,023218
0000000053,0000003467,079243,018363,079259,064287,018492,083988,068563,022916,068504,022966
0000000054,0000003533,078613,018126,078629,065174,018257,083344,069432,022693,069373,022743
0000000055,0000003600,077970,017914,077986,066056,018047,082698,070299,022507,070241,022559
0000000056,0000003667,077314,017725,077330,066933,017860,082025,071164,022319,071106,022370
0000000057,0000003733,076647,017562,076663,067803,017699,081344,072009,022174,071951,022226
0000000058,0000003800,075968,017424,075984,068665,017562,080657,072865,022044,072808,022095
0000000059,0000003867,075278,017311,075294,069519,017451,079966,073720,021960,073664,022013
0000000060,0000003933,074576,017223,074592,070363,017365,079246,074538,021882,074483,021936
0000000061,0000004000,073864,017160,073880,071196,017303,078511,075348,021816,075292,021869
0000000062,0000004067,073141,017122,073156,072018,017267,077769,076153,021780,076098,021833
0000000063,0000004133,072407,017110,072422,072829,017256,077020,076951,021773,076896,021827
0000000064,0000004200,071663,017123,071678,073627,017270,076270,077747,021805,077693,021860
0000000065,0000004267,070908,017161,070923,074411,017309,075492,078506,021835,078452,021889
0000000066,0000004333,070143,017224,070158,075182,017373,074720,079275,021911,079223,021966
0000000067,0000004400,069369,017312,069383,075938,017462,073922,080008,021997,079955,022052
0000000068,0000004467,068584,017423,068598,076680,017574,073130,080747,022115,080696,022171
0000000069,0000004533,067790,017559,067803,077407,017711,072316,081464,022244,081418,022299
0000000070,0000004600,066986,017719,066999,078120,017871,071505,082187,022407,082148,022462
0000000071,0000004667,066173,017902,066186,078819,018054,070692,082901,022605,082873,022660
0000000072,0000004733,065351,018107,065364,079505,018260,069866,083600,022813,083582,022868
0000000073,0000004800,064521,018335,064532,080179,018489,069024,084270,023041,084260,023095
0000000074,0000004867,063682,018585,063693,080840,018739,068182,084937,023296,084936,023351
0000000075,0000004933,062835,018856,062846,081490,019011,067334,085592,023571,085600,023626
0000000076,0000005000,061982,019149,061992,082128,019304,066476,086225,023868,086240,023923
0000000077,0000005067,061122,019461,061131,082753,019617,065603,086829,024173,086850,024227
0000000078,0000005133,060256,019794,060265,083367,019950,064737,087436,024512,087462,024566
0000000079,0000005200,059385,020147,059394,083967,020303,063862,088016,024868,088046,024922
0000000080,0000005267,058511,020519,058519,084552,020676,062976,088574,025235,088608,025289
0000000081,0000005333,057633,020910,057641,085122,021067,062097,089127,025632,089165,025687
0000000082,0000005400,056753,021319,056761,085676,021477,061211,089657,026042,089699,026096
0000000083,0000005467,055872,021746,055879,086212,021905,060325,090168,026471,090214,026525
0000000084,0000005533,054991,022192,054998,086729,022352,059438,090659,026921,090707,026974
0000000085,0000005600,054110,022655,054117,087226,022816,058551,091127,027389,091178,027443
0000000086,0000005667,053231,023136,053237,087700,023297,057663,091573,027870,091626,027923
0000000087,0000005733,052354,023634,052360,088152,023796,056779,091998,028370,092053,028424
0000000088,0000005800,051481,024148,051486,088579,024311,055893,092390,028887,092444,028940
0000000089,0000005867,050610,024680,050616,088980,024844,055016,092764,029424,092816,029478
0000000090,0000005933,049744,025228,049749,089354,025393,054134,093099,029971,093148,030024
0000000091,0000006000,048883,025792,048887,089699,025958,053263,093420,030542,093466,030595
0000000092,0000006067,048027,026373,048030,090013,026539,052391,093704,031120,093747,031173
0000000093,0000006133,047175,026970,047179,090297,027136,051531,093969,031725,094009,031777
0000000094,0000006200,046329,027582,046332,090549,027749,050670,094197,032337,094231,032390
0000000095,0000006267,045488,028209,045491,090768,028377,049815,094394,032965,094422,033018
0000000096,0000006333,044653,028852,044655,090955,029020,048970,094572,033612,094595,033665
0000000097,0000006400,043822,029509,043824,091109,029678,048125,094713,034268,094731,034320
0000000098,0000006467,042997,030180,042998,091230,030350,047297,094840,034949,094854,035001
0000000099,0000006533,042176,030866,042177,091319,031035,046466,094928,035634,094938,035685
0000000100,0000006600,041360,031564,041361,091376,031734,045647,094995,036337,095002,036388
0000000101,0000006667,040548,032276,040548,091404,032446,044833,095036,037053,095039,037103
0000000102,0000006733,039741,033000,039740,091403,033170,044027,095052,037782,095053,037833
0000000103,0000006800,038937,033735,038936,091374,033905,043229,095045,038524,095043,038575
0000000104,0000006867,038138,034482,038137,091319,034651,042435,095011,039275,095006,039325
0000000105,0000006933,037343,035239,037341,091239,035408,041652,094957,040043,094950,040092
0000000106,0000007000,036553,036006,036550,091137,036174,040872,094878,040812,094869,040861
0000000107,0000007067,035768,036782,035764,091013,036950,040100,094777,041594,094765,041642
0000000108,0000007133,034988,037566,034984,090870,037734,039340,094661,042388,094648,042436
0000000109,0000007200,034215,038358,034210,090708,038525,038587,094523,043188,094508,043236
0000000110,0000007267,033449,039157,033443,090529,039324,037847,094371,044001,094355,044048
0000000111,0000007333,032691,039963,032685,090334,040129,037114,094196,044816,094179,044863
0000000112,0000007400,031943,040774,031936,090124,040941,036391,094003,045638,093983,045683
0000000113,0000007467,031205,041591,031198,089900,041757,035685,093798,046471,093778,046516
0000000114,0000007533,030479,042413,030472,089661,042579,034989,093574,047306,093553,047350
0000000115,0000007600,029768,043239,029760,089409,043405,034306,093331,048143,093309,048187
0000000116,0000007667,029071,044070,029063,089145,044235,033643,093079,048992,093057,049036
0000000117,0000007733,028391,044904,028383,088866,045069,032995,092809,049843,092786,049886
0000000118,0000007800,027730,045741,027721,088575,045907,032360,092515,050694,092491,050736
0000000119,0000007867,027089,046582,027079,088269,046748,031749,092210,051553,092185,051595
0000000120,0000007933,026469,047425,026459,087949,047592,031156,091886,052414,091860,052456
0000000121,0000008000,025872,048272,025862,087613,048440,030582,091543,053275,091515,053316
0000000122,0000008067,025299,049122,025289,087262,049290,030034,091188,054144,091160,054184
0000000123,0000008133,024752,049974,024741,086895,050143,029508,090815,055014,090787,055053
0000000124,0000008200,024230,050830,024220,086511,051000,029002,090421,055883,090393,055921
0000000125,0000008267,023736,051689,023725,086109,051859,028525,090013,056758,089985,056796
0000000126,0000008333,023269,052550,023258,085688,052722,028072,089587,057636,089560,057673
0000000127,0000008400,022830,053415,022819,085249,053587,027640,089137,058511,089111,058547
0000000128,0000008467,022418,054283,022408,084792,054456,027236,088673,059391,088648,059427
0000000129,0000008533,022035,055154,022025,084315,055328,026859,088192,060273,088168,060308
0000000130,0000008600,021680,056029,021670,083819,056203,026503,087688,061152,087666,061186
0000000131,0000008667,021352,056906,021342,083304,057081,026175,087170,062036,087149,062069
0000000132,0000008733,021051,057786,021040,082771,057961,025871,086632,062918,086615,062951
0000000133,0000008800,020776,058669,020765,082219,058844,025592,086079,063801,086063,063833
0000000134,0000008867,020526,059555,020515,081649,059730,025337,085507,064684,085494,064715
0000000135,0000008933,020301,060442,020289,081062,060617,025104,084917,065565,084907,065595
0000000136,0000009000,020099,061331,020087,080458,061506,024894,084312,066445,084305,066475
0000000137,0000009067,019920,062221,019908,079839,062395,024706,083691,067322,083687,067351
0000000138,0000009133,019762,063112,019750,079204,063285,024540,083056,068197,083055,068225
0000000139,0000009200,019626,064002,019614,078555,064174,024396,082407,069070,082409,069096
0000000140,0000009267,019510,064891,019497,077894,065062,024272,081743,069938,081749,069964
0000000141,0000009333,019413,065778,019399,077219,065947,024170,081068,070803,081078,070828
0000000142,0000009400,019335,066663,019321,076534,066830,024087,080382,071662,080395,071686
0000000143,0000009467,019275,067543,019261,075837,067708,024025,079683,072516,079700,072539
0000000144,0000009533,019234,068417,019219,075131,068581,023982,078974,073362,078994,073385
0000000145,0000009600,019210,069286,019195,074415,069447,023958,078255,074200,078279,074222
0000000146,0000009667,019205,070147,019188,073690,070305,023954,077524,075029,077552,075050
0000000147,0000009733,019217,070998,019200,072957,071154,023969,076785,075849,076817,075869
0000000148,0000009800,019248,071840,019230,072216,071993,024004,076036,076656,076073,076675
0000000149,0000009867,019298,072670,019279,071467,072820,024058,075278,077452,075319,077471
0000000150,0000009933,019366,073488,019347,070711,073635,024133,074512,078235,074557,078253
0000000151,0000010000,019455,074291,019435,069947,074436,024228,073739,079005,073788,079021
0000000152,0000010067,019563,075079,019542,069176,075221,024344,072956,079760,073009,079775
0000000153,0000010133,019692,075851,019671,068398,075990,024482,072166,080499,072223,080514
0000000154,0000010200,019843,076605,019821,067612,076741,024642,071370,081223,071431,081238
0000000155,0000010267,020016,077340,019993,066818,077474,024823,070562,081929,070627,081942
0000000156,0000010333,020211,078056,020188,066016,078188,025027,069749,082617,069818,082630
0000000157,0000010400,020429,078752,020406,065207,078881,025253,068928,083286,069000,083298
0000000158,0000010467,020671,079426,020647,064389,079553,025502,068101,083937,068177,083949
0000000159,0000010533,020936,080079,020912,063564,080204,025774,067267,084568,067347,084578
0000000160,0000010600,021225,080709,021201,062730,080832,026069,066426,085179,066510,085189
0000000161,0000010667,021538,081316,021513,061888,081437,026387,065578,085769,065667,085778
0000000162,0000010733,021874,081900,021849,061038,082019,026729,064726,086338,064819,086346
0000000163,0000010800,022233,082460,022208,060181,082578,027092,063867,086886,063965,086894
0000000164,0000010867,022615,082996,022590,059317,083113,027477,063003,087412,063105,087419
0000000165,0000010933,023020,083509,022995,058446,083625,027884,062133,087916,062240,087922
0000000166,0000011000,023445,083997,023420,057569,084112,028311,061257,088397,061367,088402
0000000167,0000011067,023891,084462,023867,056685,084576,028753,060363,088852,060471,088857
0000000168,0000011133,024357,084903,024333,055796,085017,029215,059468,089286,059575,089291
0000000169,0000011200,024842,085321,024818,054902,085434,029698,058572,089699,058678,089704
0000000170,0000011267,025344,085715,025320,054002,085828,030197,057667,090089,057771,090092
0000000171,0000011333,025863,086086,025839,053098,086198,030713,056762,090456,056863,090460
0000000172,0000011400,026397,086435,026374,052189,086546,031247,055857,090803,055955,090806
0000000173,0000011467,026946,086761,026923,051276,086872,031798,054952,091128,055049,091130
0000000174,0000011533,027508,087065,027486,050361,087175,032364,054047,091432,054144,091434
0000000175,0000011600,028083,087347,028060,049443,087457,032945,053145,091714,053240,091716
0000000176,0000011667,028669,087607,028647,048525,087717,033539,052244,091976,052339,091977
0000000177,0000011733,029266,087846,029244,047606,087955,034147,051347,092216,051441,092217
0000000178,0000011800,029872,088063,029851,046690,088172,034767,050453,092434,050546,092435
0000000179,0000011867,030489,088260,030467,045776,088367,035399,049563,092631,049656,092631
0000000180,0000011933,031114,088436,031092,044866,088542,036042,048678,092806,048771,092806
0000000181,0000012000,031747,088590,031726,043962,088695,036696,047800,092960,047893,092960
0000000182,0000012067,032390,088724,032369,043065,088828,037361,046929,093093,047023,093092
0000000183,0000012133,033040,088837,033019,042176,088940,038036,046068,093205,046161,093204
0000000184,0000012200,033699,088929,033679,041296,089030,038722,045216,093296,045308,093294
0000000185,0000012267,034368,089000,034347,040427,089100,039419,044374,093365,044466,093362
0000000186,0000012333,035045,089050,035024,039569,089148,040126,043543,093412,043636,093410
0000000187,0000012400,035732,089078,035712,038725,089176,040843,042724,093438,042817,093435
0000000188,0000012467,036429,089086,036409,037894,089182,041571,041918,093442,042010,093439
0000000189,0000012533,037137,089072,037117,037077,089166,042310,041125,093424,041217,093421
0000000190,0000012600,037857,089036,037837,036276,089129,043060,040346,093385,040438,093381
0000000191,0000012667,038589,088979,038569,035491,089070,043821,039582,093323,039673,093320
0000000192,0000012733,039333,088900,039313,034723,088990,044594,038833,093240,038924,093236
0000000193,0000012800,040091,088799,040071,033971,088888,045377,038097,093134,038188,093130
0000000194,0000012867,040862,088676,040843,033237,088764,046166,037361,093001,037444,092997
0000000195,0000012933,041648,088532,041628,032519,088618,046965,036636,092845,036710,092841
0000000196,0000013000,042447,088366,042428,031817,088451,047775,035925,092667,035989,092663
0000000197,0000013067,043261,088178,043242,031130,088262,048598,035230,092468,035285,092464
0000000198,0000013133,044089,087968,044071,030458,088051,049434,034556,092249,034602,092246
0000000199,0000013200,044931,087737,044913,029801,087819,050280,033899,092007,033939,092003
0000000200,0000013267,045787,087485,045769,029159,087566,051140,033261,091747,033296,091744
0000000201,0000013333,046654,087212,046637,028531,087292,052008,032639,091465,032667,091462
0000000202,0000013400,047534,086918,047517,027919,086997,052886,032032,091162,032056,091159
0000000203,0000013467,048424,086603,048407,027322,086682,053772,031443,090839,031462,090836
