DIgSILENT PowerFactory,20000410,2000
10,10A,00D
1,LC684-652A:Phase Voltage A/Terminal i,,,kV,0.00010000000,-4.587117,0.000000,4928,99998,1,1,P
2,LC684-652A:Phase Voltage C/Terminal i,,,kV,0.00010000000,-6.357501,0.000000,26650,99998,1,1,P
3,LC692-675:Phase Voltage A/Terminal i,,,kV,0.00010000000,-4.583744,0.000000,4857,99998,1,1,P
4,LC692-675:Phase Voltage B/Terminal i,,,kV,0.00010000000,-5.729385,0.000000,6460,99998,1,1,P
5,LC692-675:Phase Voltage C/Terminal i,,,kV,0.00010000000,-6.360905,0.000000,26820,99998,1,1,P
6,LOHL632-633:Phase Voltage A/Terminal i,,,kV,0.00010000000,-5.311356,0.000000,15200,99998,1,1,P
7,LOHL632-633:Phase Voltage B/Terminal i,,,kV,0.00010000000,-6.049747,0.000000,18712,99998,1,1,P
8,LOHL632-633:Phase Voltage C/Terminal i,,,kV,0.00010000000,-6.367513,0.000000,27574,99998,1,1,P
9,LOHL645-646:Phase Voltage B/Terminal i,,,kV,0.00010000000,-6.049559,0.000000,18835,99998,1,1,P
10,LOHL645-646:Phase Voltage C/Terminal i,,,kV,0.00010000000,-6.370134,0.000000,27627,99998,1,1,P
50
1
15000.000000,3001
11/11/2020,22:23:19.000000
11/11/2020,22:23:19.000000
ASCII
1.000000
0000000001,0000000000,076542,063854,076519,026646,063837,084044,030119,063474,030154,063489
0000000002,0000000067,076979,062953,076953,027103,062936,084471,030572,062582,030605,062597
0000000003,0000000133,077392,062048,077369,027580,062034,084878,031055,061679,031089,061697
0000000004,0000000200,077788,061148,077764,028075,061135,085263,031550,060786,031583,060804
0000000005,0000000267,078164,060251,078138,028588,060237,085630,032061,059894,032092,059911
0000000006,0000000333,078517,059355,078492,029119,059341,085975,032594,059001,032625,059021
0000000007,0000000400,078847,058459,078825,029668,058448,086301,033146,058112,033175,058132
0000000008,0000000467,079161,057569,079138,030235,057558,086605,033719,057221,033747,057242
0000000009,0000000533,079451,056683,079429,030819,056672,086887,034298,056344,034325,056365
0000000010,0000000600,079720,055801,079699,031419,055791,087148,034904,055462,034931,055484
0000000011,0000000667,079971,054925,079947,032036,054915,087388,035516,054596,035541,054619
0000000012,0000000733,080195,054053,080173,032669,054044,087606,036153,053727,036177,053750
0000000013,0000000800,080399,053187,080378,033317,053179,087802,036803,052867,036826,052891
0000000014,0000000867,080582,052328,080561,033981,052322,087976,037464,052016,037486,052041
0000000015,0000000933,080744,051477,080722,034660,051471,088128,038142,051171,038162,051197
0000000016,0000001000,080882,050633,080861,035353,050628,088258,038833,050335,038852,050362
0000000017,0000001067,080998,049796,080978,036058,049792,088349,039505,049489,039508,049516
0000000018,0000001133,081092,048969,081074,036771,048967,088421,040122,048680,040094,048709
0000000019,0000001200,081165,048149,081146,037498,048146,088472,040891,047802,040867,047827
0000000020,0000001267,081215,047340,081196,038229,047338,088502,041600,046994,041571,047019
0000000021,0000001333,081244,046542,081224,038969,046543,088539,042344,046282,042312,046316
0000000022,0000001400,081249,045753,081230,039721,045753,088570,043183,045496,043160,045532
0000000023,0000001467,081231,044975,081214,040474,044978,088555,043906,044776,043877,044815
0000000024,0000001533,081192,044208,081173,041241,044210,088484,044704,043963,044672,043998
0000000025,0000001600,081130,043453,081111,042012,043457,088402,045436,043240,045399,043279
0000000026,0000001667,081044,042708,081026,042794,042713,088310,046242,042458,046203,042494
0000000027,0000001733,080936,041978,080917,043582,041983,088142,046971,041716,046921,041749
0000000028,0000001800,080804,041259,080786,044379,041265,088014,047794,040993,047742,041026
0000000029,0000001867,080649,040555,080631,045185,040563,087876,048632,040343,048580,040381
0000000030,0000001933,080471,039864,080454,045998,039874,087708,049461,039700,049405,039741
0000000031,0000002000,080269,039186,080252,046820,039196,087504,050309,039015,050250,039055
0000000032,0000002067,080045,038523,080028,047648,038534,087238,051090,038324,051024,038361
0000000033,0000002133,079798,037875,079781,048485,037888,087016,051968,037733,051902,037776
0000000034,0000002200,079528,037243,079511,049328,037257,086727,052793,037118,052721,037161
0000000035,0000002267,079235,036625,079219,050180,036640,086448,053674,036517,053600,036561
0000000036,0000002333,078920,036023,078904,051036,036040,086094,054480,035896,054398,035937
0000000037,0000002400,078583,035438,078568,051901,035457,085784,055384,035370,055302,035416
0000000038,0000002467,078225,034870,078210,052770,034890,085415,056253,034795,056167,034840
0000000039,0000002533,077847,034319,077831,053644,034340,085009,057093,034227,057000,034269
0000000040,0000002600,077447,033787,077431,054521,033809,084604,057961,033731,057864,033775
0000000041,0000002667,077027,033272,077012,055404,033296,084199,058868,033238,058770,033284
0000000042,0000002733,076589,032776,076573,056289,032803,083768,059765,032792,059669,032841
0000000043,0000002800,076131,032299,076115,057177,032327,083295,060638,032303,060542,032350
0000000044,0000002867,075655,031842,075639,058068,031871,082821,061539,031870,061444,031917
0000000045,0000002933,075160,031405,075145,058961,031436,082321,062420,031453,062324,031500
0000000046,0000003000,074649,030988,074634,059856,031021,081814,063328,031066,063235,031115
0000000047,0000003067,074121,030592,074106,060752,030627,081279,064219,030679,064127,030727
0000000048,0000003133,073576,030218,073562,061649,030255,080734,065118,030332,065028,030381
0000000049,0000003200,073016,029866,073002,062546,029905,080171,066014,029991,065926,030040
0000000050,0000003267,072442,029536,072427,063443,029576,079591,066904,029679,066818,029728
0000000051,0000003333,071852,029229,071838,064339,029272,079006,067802,029411,067718,029462
0000000052,0000003400,071248,028945,071234,065233,028989,078396,068688,029139,068604,029190
0000000053,0000003467,070631,028684,070617,066124,028730,077765,069565,028886,069481,028937
0000000054,0000003533,070001,028447,069987,067011,028495,077122,070433,028664,070350,028715
0000000055,0000003600,069358,028235,069344,067894,028285,076475,071301,028478,071218,028530
0000000056,0000003667,068703,028047,068688,068770,028098,075803,072165,028290,072083,028342
0000000057,0000003733,068035,027884,068021,069640,027937,075122,073010,028145,072928,028198
0000000058,0000003800,067356,027745,067342,070502,027800,074434,073866,028015,073785,028067
0000000059,0000003867,066666,027632,066652,071356,027689,073743,074721,027931,074641,027985
0000000060,0000003933,065964,027544,065950,072200,027603,073024,075540,027853,075460,027908
0000000061,0000004000,065252,027481,065237,073033,027541,072288,076349,027787,076269,027841
0000000062,0000004067,064529,027444,064514,073855,027505,071547,077155,027751,077075,027805
0000000063,0000004133,063795,027431,063780,074666,027494,070798,077953,027744,077873,027799
0000000064,0000004200,063051,027445,063036,075464,027508,070048,078748,027776,078670,027832
0000000065,0000004267,062296,027482,062281,076248,027547,069270,079508,027806,079429,027861
0000000066,0000004333,061531,027545,061516,077019,027611,068498,080277,027882,080200,027938
0000000067,0000004400,060757,027633,060741,077775,027700,067700,081009,027968,080932,028024
0000000068,0000004467,059972,027745,059956,078517,027812,066907,081749,028086,081673,028143
0000000069,0000004533,059178,027881,059161,079244,027949,066094,082466,028215,082395,028270
0000000070,0000004600,058374,028040,058357,079957,028109,065283,083188,028378,083126,028434
0000000071,0000004667,057561,028223,057544,080656,028292,064470,083902,028576,083850,028632
0000000072,0000004733,056739,028428,056721,081342,028498,063644,084602,028784,084559,028840
0000000073,0000004800,055909,028656,055890,082016,028727,062802,085272,029012,085237,029067
0000000074,0000004867,055070,028906,055051,082677,028977,061960,085938,029267,085913,029323
0000000075,0000004933,054223,029178,054204,083327,029249,061112,086593,029542,086577,029597
0000000076,0000005000,053370,029470,053350,083965,029542,060254,087226,029839,087217,029894
0000000077,0000005067,052510,029783,052489,084590,029855,059381,087830,030144,087827,030199
0000000078,0000005133,051644,030116,051623,085204,030188,058515,088438,030483,088439,030538
0000000079,0000005200,050773,030468,050752,085804,030541,057639,089017,030839,089023,030894
0000000080,0000005267,049899,030840,049877,086389,030914,056754,089576,031205,089585,031260
0000000081,0000005333,049021,031231,048999,086960,031305,055875,090128,031603,090142,031658
0000000082,0000005400,048141,031640,048119,087513,031715,054989,090658,032013,090676,032068
0000000083,0000005467,047260,032068,047237,088049,032143,054103,091170,032442,091191,032497
0000000084,0000005533,046379,032513,046356,088566,032590,053216,091660,032891,091684,032946
0000000085,0000005600,045499,032977,045475,089063,033054,052329,092128,033360,092155,033415
0000000086,0000005667,044619,033457,044595,089538,033535,051441,092574,033841,092603,033895
0000000087,0000005733,043743,033955,043718,089989,034033,050557,092999,034341,093030,034395
0000000088,0000005800,042869,034470,042844,090416,034549,049671,093391,034858,093421,034912
0000000089,0000005867,041999,035001,041973,090817,035082,048793,093765,035395,093793,035449
0000000090,0000005933,041133,035549,041107,091191,035631,047911,094100,035942,094125,035995
0000000091,0000006000,040271,036114,040245,091536,036196,047041,094421,036513,094443,036567
0000000092,0000006067,039415,036694,039388,091850,036777,046169,094706,037091,094724,037145
0000000093,0000006133,038563,037291,038537,092134,037374,045308,094971,037695,094986,037749
0000000094,0000006200,037717,037903,037690,092386,037987,044448,095198,038308,095208,038361
0000000095,0000006267,036876,038530,036849,092605,038615,043592,095396,038936,095399,038989
0000000096,0000006333,036041,039173,036013,092792,039258,042747,095573,039583,095572,039636
0000000097,0000006400,035210,039830,035182,092946,039916,041903,095715,040239,095708,040292
0000000098,0000006467,034385,040502,034356,093067,040588,041075,095841,040920,095831,040973
0000000099,0000006533,033564,041187,033535,093156,041273,040244,095930,041605,095915,041657
0000000100,0000006600,032748,041886,032718,093213,041972,039424,095997,042308,095979,042360
0000000101,0000006667,031936,042597,031906,093241,042684,038611,096037,043023,096016,043075
0000000102,0000006733,031129,043321,031098,093240,043408,037805,096054,043753,096030,043804
0000000103,0000006800,030326,044057,030294,093211,044143,037007,096047,044495,096020,044546
0000000104,0000006867,029526,044803,029494,093156,044889,036213,096013,045246,095984,045297
0000000105,0000006933,028731,045560,028699,093076,045646,035430,095959,046014,095927,046064
0000000106,0000007000,027941,046327,027908,092974,046412,034650,095879,046783,095846,046832
0000000107,0000007067,027156,047103,027122,092850,047188,033878,095778,047565,095742,047614
0000000108,0000007133,026376,047887,026342,092707,047972,033118,095663,048359,095625,048408
0000000109,0000007200,025603,048679,025568,092545,048763,032365,095524,049159,095485,049207
0000000110,0000007267,024837,049479,024801,092366,049562,031625,095373,049972,095332,050020
0000000111,0000007333,024079,050284,024043,092171,050367,030892,095198,050787,095156,050835
0000000112,0000007400,023331,051096,023294,091961,051179,030169,095004,051609,094961,051655
0000000113,0000007467,022593,051913,022556,091737,051995,029463,094800,052442,094755,052488
0000000114,0000007533,021868,052734,021830,091498,052817,028767,094575,053276,094530,053322
0000000115,0000007600,021156,053561,021117,091247,053643,028083,094332,054114,094286,054159
0000000116,0000007667,020459,054391,020421,090982,054473,027421,094081,054963,094034,055007
0000000117,0000007733,019780,055225,019740,090703,055307,026772,093810,055813,093763,055857
0000000118,0000007800,019118,056062,019079,090412,056145,026138,093517,056664,093468,056707
0000000119,0000007867,018477,056903,018437,090106,056986,025527,093212,057524,093162,057567
0000000120,0000007933,017857,057747,017817,089786,057830,024934,092888,058385,092837,058427
0000000121,0000008000,017260,058593,017220,089450,058678,024360,092544,059246,092492,059287
0000000122,0000008067,016687,059443,016647,089100,059528,023811,092189,060115,092137,060155
0000000123,0000008133,016140,060296,016099,088732,060381,023285,091816,060985,091764,061025
0000000124,0000008200,015618,061151,015578,088348,061238,022780,091422,061854,091370,061893
0000000125,0000008267,015124,062010,015083,087946,062097,022302,091014,062729,090962,062768
0000000126,0000008333,014657,062872,014616,087525,062960,021849,090588,063607,090537,063645
0000000127,0000008400,014218,063737,014177,087086,063825,021418,090138,064482,090088,064519
0000000128,0000008467,013807,064605,013766,086629,064694,021014,089674,065362,089625,065398
0000000129,0000008533,013423,065476,013383,086152,065566,020636,089193,066244,089145,066280
0000000130,0000008600,013068,066350,013027,085656,066441,020280,088689,067123,088643,067157
0000000131,0000008667,012740,067227,012699,085141,067319,019953,088171,068007,088127,068041
0000000132,0000008733,012439,068108,012398,084608,068199,019649,087634,068889,087592,068922
0000000133,0000008800,012164,068990,012123,084056,069082,019370,087080,069772,087040,069805
0000000134,0000008867,011914,069876,011873,083486,069968,019114,086509,070655,086471,070687
0000000135,0000008933,011689,070763,011647,082899,070855,018881,085919,071536,085884,071567
0000000136,0000009000,011487,071652,011445,082295,071744,018672,085314,072416,085282,072446
0000000137,0000009067,011308,072543,011266,081676,072633,018484,084693,073293,084664,073322
0000000138,0000009133,011150,073433,011108,081041,073523,018318,084058,074168,084032,074196
0000000139,0000009200,011014,074323,010971,080393,074412,018174,083408,075041,083386,075068
0000000140,0000009267,010898,075213,010855,079731,075300,018050,082745,075909,082726,075935
0000000141,0000009333,010801,076100,010757,079056,076185,017948,082070,076774,082055,076800
0000000142,0000009400,010723,076984,010679,078371,077068,017865,081383,077633,081372,077658
0000000143,0000009467,010663,077864,010619,077674,077946,017802,080684,078487,080677,078511
0000000144,0000009533,010622,078739,010577,076968,078819,017759,079975,079333,079971,079356
0000000145,0000009600,010599,079607,010552,076252,079685,017736,079256,080171,079256,080194
0000000146,0000009667,010593,080468,010546,075527,080543,017731,078525,081000,078530,081022
0000000147,0000009733,010606,081320,010558,074794,081392,017747,077786,081819,077794,081840
0000000148,0000009800,010636,082161,010588,074053,082231,017782,077038,082627,077050,082647
0000000149,0000009867,010686,082992,010637,073304,083058,017836,076280,083423,076296,083442
0000000150,0000009933,010754,083809,010705,072548,083873,017911,075514,084206,075534,084225
0000000151,0000010000,010843,084612,010792,071784,084674,018006,074740,084976,074765,084993
0000000152,0000010067,010951,085400,010900,071013,085459,018122,073957,085731,073986,085747
0000000153,0000010133,011080,086172,011029,070235,086228,018260,073168,086470,073200,086486
0000000154,0000010200,011231,086926,011179,069449,086979,018420,072371,087194,072408,087209
0000000155,0000010267,011404,087662,011351,068655,087712,018601,071564,087900,071604,087914
0000000156,0000010333,011599,088378,011546,067854,088426,018805,070751,088588,070795,088601
0000000157,0000010400,011817,089073,011764,067044,089119,019030,069930,089257,069977,089270
0000000158,0000010467,012059,089748,012005,066226,089791,019280,069102,089908,069154,089920
0000000159,0000010533,012324,090400,012270,065401,090442,019552,068268,090539,068324,090550
0000000160,0000010600,012613,091030,012559,064567,091070,019847,067427,091150,067487,091160
0000000161,0000010667,012926,091637,012871,063725,091675,020165,066580,091740,066644,091749
0000000162,0000010733,013262,092221,013207,062875,092257,020506,065727,092309,065796,092318
0000000163,0000010800,013621,092781,013566,062018,092816,020870,064869,092857,064942,092865
0000000164,0000010867,014003,093317,013948,061154,093351,021255,064004,093383,064082,093390
0000000165,0000010933,014408,093830,014353,060283,093863,021662,063135,093886,063217,093893
0000000166,0000011000,014833,094318,014778,059406,094350,022088,062259,094368,062344,094374
0000000167,0000011067,015279,094783,015225,058522,094814,022530,061364,094823,061448,094829
0000000168,0000011133,015745,095224,015691,057633,095255,022993,060470,095257,060552,095263
0000000169,0000011200,016230,095642,016176,056739,095672,023476,059574,095670,059655,095675
0000000170,0000011267,016732,096036,016678,055839,096066,023974,058669,096060,058748,096064
0000000171,0000011333,017251,096407,017197,054935,096436,024491,057764,096427,057840,096431
0000000172,0000011400,017785,096756,017732,054026,096784,025025,056858,096774,056933,096777
0000000173,0000011467,018334,097082,018281,053113,097110,025576,055953,097099,056026,097102
0000000174,0000011533,018896,097386,018843,052198,097413,026142,055049,097402,055121,097405
0000000175,0000011600,019471,097668,019418,051280,097695,026722,054146,097685,054217,097687
0000000176,0000011667,020057,097928,020005,050362,097955,027317,053246,097946,053316,097948
0000000177,0000011733,020654,098167,020602,049444,098193,027925,052348,098187,052418,098188
0000000178,0000011800,021261,098385,021209,048527,098410,028545,051454,098405,051523,098406
0000000179,0000011867,021877,098581,021825,047613,098605,029177,050564,098602,050633,098603
0000000180,0000011933,022502,098757,022450,046703,098780,029820,049679,098777,049748,098778
0000000181,0000012000,023135,098911,023084,045799,098933,030474,048801,098931,048870,098931
0000000182,0000012067,023778,099045,023726,044902,099066,031139,047931,099064,048000,099064
0000000183,0000012133,024428,099158,024377,044013,099178,031814,047069,099176,047138,099175
0000000184,0000012200,025088,099250,025037,043133,099268,032500,046217,099267,046285,099265
0000000185,0000012267,025756,099321,025705,042264,099338,033197,045375,099336,045444,099334
0000000186,0000012333,026433,099371,026382,041406,099386,033904,044544,099383,044613,099381
0000000187,0000012400,027120,099400,027069,040562,099414,034621,043726,099409,043794,099407
0000000188,0000012467,027817,099407,027767,039731,099420,035349,042919,099413,042987,099410
0000000189,0000012533,028526,099393,028475,038914,099404,036088,042127,099395,042194,099393
0000000190,0000012600,029245,099357,029195,038113,099367,036838,041348,099356,041415,099353
0000000191,0000012667,029977,099300,029927,037328,099308,037599,040583,099294,040650,099291
0000000192,0000012733,030721,099221,030671,036560,099228,038372,039834,099211,039901,099207
0000000193,0000012800,031479,099120,031429,035808,099126,039155,039099,099105,039165,099101
0000000194,0000012867,032250,098998,032201,035074,099002,039944,038362,098972,038421,098968
0000000195,0000012933,033036,098853,032986,034356,098856,040743,037638,098816,037688,098813
0000000196,0000013000,033835,098687,033786,033654,098689,041553,036926,098638,036966,098634
0000000197,0000013067,034649,098499,034600,032967,098500,042376,036232,098438,036262,098435
0000000198,0000013133,035477,098290,035429,032295,098289,043212,035557,098220,035579,098217
0000000199,0000013200,036319,098059,036271,031638,098057,044058,034900,097978,034916,097975
0000000200,0000013267,037175,097806,037126,030996,097804,044918,034263,097718,034273,097715
0000000201,0000013333,038043,097533,037995,030368,097530,045786,033640,097436,033644,097433
0000000202,0000013400,038922,097239,038875,029756,097235,046664,033034,097133,033033,097130
0000000203,0000013467,039812,096924,039765,029159,096920,047550,032445,096810,032439,096807
