DIgSILENT PowerFactory,20000410,2000
10,10A,00D
1,LC684-652A:Phase Voltage A/Terminal i,,,kV,0.00010000000,-5.515669,0.000000,8610,99998,1,1,P
2,LC684-652A:Phase Voltage C/Terminal i,,,kV,0.00010000000,-5.347637,0.000000,1311,99998,1,1,P
3,LC692-675:Phase Voltage A/Terminal i,,,kV,0.00010000000,-5.599054,0.000000,10384,99998,1,1,P
4,LC692-675:Phase Voltage B/Terminal i,,,kV,0.00010000000,-4.693034,0.000000,-414,99998,1,1,P
5,LC692-675:Phase Voltage C/Terminal i,,,kV,0.00010000000,-5.379611,0.000000,2374,99998,1,1,P
6,LOHL632-633:Phase Voltage A/Terminal i,,,kV,0.00010000000,-6.053788,0.000000,20682,99998,1,1,P
7,LOHL632-633:Phase Voltage B/Terminal i,,,kV,0.00010000000,-5.432846,0.000000,12556,99998,1,1,P
8,LOHL632-633:Phase Voltage C/Terminal i,,,kV,0.00010000000,-5.844118,0.000000,14150,99998,1,1,P
9,LOHL645-646:Phase Voltage B/Terminal i,,,kV,0.00010000000,-5.437406,0.000000,12655,99998,1,1,P
10,LOHL645-646:Phase Voltage C/Terminal i,,,kV,0.00010000000,-5.846844,0.000000,14211,99998,1,1,P
50
1
15000.000000,3001
11/11/2020,23:56:20.000000
11/11/2020,23:56:20.000000
ASCII
1.000000
0000000001,0000000000,085828,053757,086670,016281,054027,091469,023950,058240,024033,058256
0000000002,0000000067,086262,052853,087106,016740,053123,091894,024402,057349,024483,057367
0000000003,0000000133,086676,051952,087521,017216,052222,092302,024889,056444,024969,056461
0000000004,0000000200,087075,051052,087916,017711,051322,092687,025376,055556,025456,055575
0000000005,0000000267,087448,050153,088291,018225,050424,093055,025899,054654,025978,054672
0000000006,0000000333,087801,049254,088646,018756,049528,093399,026427,053768,026504,053787
0000000007,0000000400,088135,048362,088979,019305,048635,093726,026981,052873,027058,052893
0000000008,0000000467,088447,047472,089291,019871,047745,094029,027547,051990,027623,052012
0000000009,0000000533,088737,046584,089582,020455,046859,094311,028129,051110,028205,051133
0000000010,0000000600,089008,045703,089852,021056,045978,094573,028735,050229,028809,050252
0000000011,0000000667,089254,044826,090100,021672,045102,094813,029352,049358,029424,049382
0000000012,0000000733,089480,043954,090327,022305,044231,095030,029984,048493,030056,048518
0000000013,0000000800,089685,043089,090531,022954,043367,095226,030631,047635,030701,047661
0000000014,0000000867,089869,042230,090714,023617,042509,095400,031293,046784,031363,046810
0000000015,0000000933,090028,041378,090875,024296,041658,095552,031971,045939,032039,045966
0000000016,0000001000,090166,040534,091014,024989,040815,095682,032663,045102,032730,045129
0000000017,0000001067,090283,039697,091131,025697,039979,095780,033352,044260,033407,044289
0000000018,0000001133,090378,038870,091227,026409,039153,095836,033954,043428,033979,043460
0000000019,0000001200,090450,038050,091299,027134,038333,095892,034714,042568,034734,042593
0000000020,0000001267,090502,037243,091349,027864,037527,095905,035393,041796,035409,041826
0000000021,0000001333,090529,036443,091378,028605,036728,095954,036169,041015,036185,041045
0000000022,0000001400,090535,035654,091383,029355,035940,095954,036954,040237,036972,040272
0000000023,0000001467,090518,034877,091367,030112,035164,095963,037736,039512,037751,039547
0000000024,0000001533,090478,034109,091327,030877,034398,095925,038531,038750,038545,038786
0000000025,0000001600,090415,033354,091265,031650,033644,095843,039303,038010,039315,038049
0000000026,0000001667,090330,032611,091179,032430,032901,095745,040082,037270,040091,037310
0000000027,0000001733,090222,031879,091071,033218,032171,095572,040806,036486,040803,036520
0000000028,0000001800,090089,031160,090939,034017,031453,095471,041664,035798,041665,035837
0000000029,0000001867,089935,030456,090784,034821,030749,095274,042429,035079,042421,035115
0000000030,0000001933,089756,029765,090607,035634,030060,095123,043274,034448,043263,034488
0000000031,0000002000,089555,029088,090405,036457,029384,094925,044133,033795,044122,033837
0000000032,0000002067,089331,028425,090181,037284,028721,094651,044905,033097,044885,033135
0000000033,0000002133,089084,027777,089934,038121,028076,094441,045795,032522,045776,032567
0000000034,0000002200,088813,027143,089664,038966,027443,094166,046653,031875,046631,031919
0000000035,0000002267,088521,026526,089371,039816,026826,093834,047463,031238,047434,031280
0000000036,0000002333,088206,025925,089057,040673,026227,093536,048337,030681,048305,030725
0000000037,0000002400,087870,025339,088720,041537,025643,093172,049183,030079,049145,030121
0000000038,0000002467,087511,024772,088363,042407,025077,092839,050086,029564,050048,029610
0000000039,0000002533,087133,024221,087984,043280,024527,092425,050917,028993,050871,029037
0000000040,0000002600,086733,023688,087584,044159,023997,092057,051831,028529,051785,028578
0000000041,0000002667,086313,023173,087165,045041,023483,091630,052708,028017,052658,028064
0000000042,0000002733,085874,022677,086726,045926,022988,091177,053583,027520,053534,027566
0000000043,0000002800,085416,022200,086268,046813,022514,090710,054457,027066,054408,027113
0000000044,0000002867,084940,021743,085792,047705,022059,090262,055383,026666,055337,026717
0000000045,0000002933,084446,021306,085298,048597,021623,089742,056246,026216,056197,026264
0000000046,0000003000,083934,020890,084787,049492,021209,089252,057172,025848,057128,025899
0000000047,0000003067,083406,020494,084259,050389,020815,088723,058078,025471,058037,025522
0000000048,0000003133,082862,020119,083715,051286,020442,088170,058966,025107,058925,025158
0000000049,0000003200,082302,019767,083155,052183,020092,087591,059838,024759,059797,024809
0000000050,0000003267,081727,019437,082580,053080,019764,087021,060742,024452,060704,024503
0000000051,0000003333,081137,019130,081991,053976,019459,086437,061640,024186,061603,024239
0000000052,0000003400,080534,018846,081387,054869,019176,085814,062509,023902,062472,023954
0000000053,0000003467,079917,018586,080770,055760,018917,085184,063384,023652,063347,023703
0000000054,0000003533,079286,018349,080140,056648,018683,084565,064280,023456,064246,023510
0000000055,0000003600,078644,018136,079497,057530,018472,083897,065131,023243,065096,023296
0000000056,0000003667,077988,017948,078841,058407,018286,083228,065994,023058,065959,023110
0000000057,0000003733,077321,017785,078174,059277,018125,082557,066856,022926,066822,022981
0000000058,0000003800,076642,017646,077495,060139,017987,081857,067693,022782,067659,022835
0000000059,0000003867,075951,017533,076805,060993,017876,081165,068547,022695,068515,022750
0000000060,0000003933,075250,017445,076103,061837,017789,080448,069376,022614,069344,022670
0000000061,0000004000,074537,017382,075390,062670,017728,079710,070179,022547,070146,022602
0000000062,0000004067,073814,017345,074667,063492,017692,078985,071004,022532,070973,022589
0000000063,0000004133,073080,017333,073933,064302,017681,078231,071791,022527,071760,022584
0000000064,0000004200,072336,017346,073189,065100,017695,077474,072580,022542,072550,022599
0000000065,0000004267,071582,017384,072434,065884,017734,076694,073341,022574,073310,022630
0000000066,0000004333,070817,017447,071669,066655,017798,075919,074102,022648,074072,022705
0000000067,0000004400,070042,017534,070894,067411,017887,075127,074844,022734,074815,022791
0000000068,0000004467,069258,017646,070109,068153,017999,074322,075566,022842,075537,022898
0000000069,0000004533,068463,017782,069314,068880,018136,073528,076310,022993,076289,023050
0000000070,0000004600,067660,017941,068510,069593,018296,072704,077016,023140,077000,023197
0000000071,0000004667,066847,018124,067697,070293,018479,071895,077738,023341,077733,023398
0000000072,0000004733,066025,018330,066874,070979,018685,071060,078422,023540,078426,023596
0000000073,0000004800,065194,018558,066043,071652,018914,070231,079108,023784,079122,023841
0000000074,0000004867,064355,018808,065204,072314,019164,069384,079770,024031,079792,024088
0000000075,0000004933,063509,019079,064357,072964,019436,068535,080421,024308,080452,024364
0000000076,0000005000,062655,019371,063503,073601,019728,067670,081047,024593,081085,024649
0000000077,0000005067,061795,019684,062642,074227,020042,066810,081669,024915,081713,024972
0000000078,0000005133,060929,020017,061776,074840,020375,065937,082263,025247,082312,025303
0000000079,0000005200,060059,020370,060905,075440,020728,065059,082843,025599,082896,025655
0000000080,0000005267,059184,020741,060030,076026,021101,064179,083409,025974,083466,026029
0000000081,0000005333,058307,021132,059152,076596,021492,063300,083961,026371,084023,026427
0000000082,0000005400,057427,021542,058272,077150,021902,062408,084483,026772,084548,026827
0000000083,0000005467,056546,021969,057390,077686,022330,061524,084996,027207,085064,027263
0000000084,0000005533,055665,022415,056509,078203,022777,060640,085492,027659,085563,027714
0000000085,0000005600,054784,022878,055628,078699,023241,059754,085963,028125,086037,028180
0000000086,0000005667,053905,023358,054748,079174,023722,058865,086405,028607,086481,028662
0000000087,0000005733,053028,023856,053871,079626,024221,057978,086825,029105,086903,029160
0000000088,0000005800,052154,024371,052997,080053,024736,057095,087223,029622,087301,029676
0000000089,0000005867,051284,024902,052126,080454,025269,056218,087596,030162,087672,030217
0000000090,0000005933,050418,025451,051260,080827,025818,055339,087936,030712,088009,030767
0000000091,0000006000,049557,026015,050398,081172,026383,054467,088252,031281,088322,031336
0000000092,0000006067,048700,026596,049541,081487,026964,053596,088539,031861,088605,031916
0000000093,0000006133,047849,027192,048690,081771,027561,052732,088803,032460,088866,032515
0000000094,0000006200,047003,027804,047843,082023,028174,051869,089024,033071,089081,033125
0000000095,0000006267,046162,028432,047002,082242,028802,051020,089232,033705,089283,033760
0000000096,0000006333,045326,029074,046166,082429,029445,050169,089400,034347,089446,034401
0000000097,0000006400,044496,029732,045335,082582,030103,049332,089552,035011,089593,035066
0000000098,0000006467,043670,030403,044509,082703,030775,048497,089670,035684,089707,035737
0000000099,0000006533,042850,031088,043688,082792,031461,047671,089764,036373,089797,036427
0000000100,0000006600,042034,031787,042872,082850,032159,046847,089827,037071,089856,037124
0000000101,0000006667,041222,032499,042059,082878,032871,046036,089870,037792,089896,037844
0000000102,0000006733,040414,033222,041251,082876,033595,045227,089882,038518,089905,038570
0000000103,0000006800,039611,033958,040447,082847,034330,044431,089878,039263,089899,039315
0000000104,0000006867,038812,034705,039647,082792,035076,043637,089844,040012,089862,040064
0000000105,0000006933,038017,035462,038852,082713,035833,042851,089786,040775,089801,040826
0000000106,0000007000,037227,036228,038061,082611,036600,042075,089712,041551,089725,041602
0000000107,0000007067,036442,037004,037275,082487,037375,041304,089611,042332,089623,042383
0000000108,0000007133,035662,037789,036495,082344,038159,040542,089493,043125,089503,043174
0000000109,0000007200,034889,038581,035721,082182,038951,039792,089359,043929,089367,043978
0000000110,0000007267,034122,039380,034954,082003,039749,039049,089203,044737,089210,044786
0000000111,0000007333,033365,040186,034196,081808,040554,038314,089026,045551,089031,045599
0000000112,0000007400,032616,040997,033447,081598,041366,037594,088836,046375,088841,046423
0000000113,0000007467,031879,041814,032709,081373,042182,036887,088631,047207,088635,047255
0000000114,0000007533,031153,042636,031983,081135,043004,036191,088406,048042,088409,048088
0000000115,0000007600,030441,043462,031271,080883,043830,035509,088165,048881,088166,048927
0000000116,0000007667,029745,044292,030574,080618,044660,034844,087911,049729,087912,049774
0000000117,0000007733,029065,045126,029894,080340,045495,034197,087640,050580,087641,050625
0000000118,0000007800,028404,045964,029232,080048,046332,033563,087348,051432,087347,051476
0000000119,0000007867,027762,046804,028590,079742,047173,032949,087039,052288,087037,052331
0000000120,0000007933,027143,047648,027970,079422,048017,032358,086718,053151,086715,053194
0000000121,0000008000,026546,048495,027373,079087,048865,031786,086379,054015,086374,054057
0000000122,0000008067,025973,049345,026800,078736,049715,031235,086020,054880,086015,054921
0000000123,0000008133,025425,050197,026252,078369,050568,030708,085646,055749,085641,055790
0000000124,0000008200,024904,051053,025731,077984,051425,030206,085256,056622,085251,056663
0000000125,0000008267,024409,051911,025236,077582,052284,029727,084845,057496,084841,057535
0000000126,0000008333,023942,052773,024769,077162,053147,029271,084416,058370,084412,058408
0000000127,0000008400,023503,053638,024330,076723,054013,028843,083971,059250,083968,059288
0000000128,0000008467,023092,054506,023919,076265,054881,028439,083507,060129,083505,060167
0000000129,0000008533,022709,055377,023536,075788,055753,028060,083024,061009,083023,061045
0000000130,0000008600,022354,056251,023181,075293,056628,027705,082521,061889,082522,061925
0000000131,0000008667,022026,057129,022852,074778,057506,027376,082000,062771,082003,062806
0000000132,0000008733,021724,058009,022551,074244,058386,027073,081464,063654,081469,063688
0000000133,0000008800,021449,058892,022276,073692,059269,026794,080911,064538,080918,064571
0000000134,0000008867,021199,059777,022026,073122,060155,026538,080339,065421,080349,065454
0000000135,0000008933,020974,060665,021800,072535,061042,026306,079749,066302,079762,066334
0000000136,0000009000,020772,061554,021598,071932,061931,026096,079144,067181,079160,067212
0000000137,0000009067,020593,062444,021419,071312,062820,025908,078524,068059,078542,068089
0000000138,0000009133,020436,063335,021261,070678,063710,025743,077888,068935,077910,068964
0000000139,0000009200,020300,064225,021124,070029,064599,025599,077239,069808,077265,069836
0000000140,0000009267,020183,065114,021008,069367,065487,025476,076578,070677,076606,070705
0000000141,0000009333,020086,066001,020910,068693,066372,025373,075903,071542,075936,071569
0000000142,0000009400,020008,066885,020832,068007,067255,025290,075215,072401,075252,072427
0000000143,0000009467,019949,067765,020772,067311,068133,025227,074516,073253,074556,073278
0000000144,0000009533,019907,068640,020730,066604,069006,025184,073807,074100,073850,074124
0000000145,0000009600,019884,069509,020706,065888,069872,025160,073087,074937,073135,074961
0000000146,0000009667,019879,070369,020699,065164,070730,025155,072356,075766,072408,075788
0000000147,0000009733,019891,071221,020711,064430,071579,025169,071615,076583,071671,076605
0000000148,0000009800,019922,072063,020741,063689,072418,025206,070868,077393,070928,077414
0000000149,0000009867,019971,072893,020790,062941,073245,025259,070109,078188,070173,078208
0000000150,0000009933,020040,073710,020858,062184,074060,025335,069345,078972,069413,078991
0000000151,0000010000,020128,074514,020946,061421,074861,025431,068572,079743,068644,079761
0000000152,0000010067,020237,075302,021053,060650,075646,025548,067790,080498,067866,080516
0000000153,0000010133,020366,076073,021182,059871,076415,025685,067000,081238,067081,081254
0000000154,0000010200,020517,076827,021332,059085,077166,025844,066202,081960,066286,081976
0000000155,0000010267,020689,077563,021504,058291,077899,026026,065396,082667,065483,082682
0000000156,0000010333,020885,078279,021699,057490,078613,026228,064581,083353,064672,083367
0000000157,0000010400,021103,078974,021917,056680,079306,026454,063760,084023,063855,084036
0000000158,0000010467,021345,079649,022158,055863,079978,026704,062933,084674,063032,084687
0000000159,0000010533,021610,080301,022423,055037,080629,026977,062099,085306,062203,085318
0000000160,0000010600,021899,080931,022712,054203,081257,027272,061258,085916,061366,085928
0000000161,0000010667,022212,081538,023024,053361,081862,027589,060410,086505,060522,086516
0000000162,0000010733,022548,082122,023360,052512,082444,027930,059557,087074,059673,087084
0000000163,0000010800,022907,082682,023719,051654,083003,028293,058698,087621,058819,087631
0000000164,0000010867,023289,083219,024101,050790,083538,028679,057834,088148,057959,088157
0000000165,0000010933,023693,083731,024506,049919,084050,029086,056965,088652,057095,088660
0000000166,0000011000,024119,084220,024931,049042,084538,029512,056089,089134,056222,089141
0000000167,0000011067,024565,084685,025378,048159,085001,029954,055195,089589,055326,089596
0000000168,0000011133,025031,085126,025844,047270,085442,030417,054300,090024,054430,090030
0000000169,0000011200,025515,085543,026329,046376,085859,030900,053405,090437,053535,090443
0000000170,0000011267,026018,085938,026831,045476,086253,031399,052500,090827,052627,090832
0000000171,0000011333,026537,086309,027350,044571,086623,031916,051595,091194,051719,091199
0000000172,0000011400,027071,086657,027885,043663,086972,032450,050689,091540,050811,091545
0000000173,0000011467,027620,086983,028434,042750,087297,033000,049784,091865,049905,091869
0000000174,0000011533,028182,087287,028997,041834,087600,033566,048880,092169,048999,092173
0000000175,0000011600,028756,087569,029571,040917,087882,034147,047978,092452,048096,092455
0000000176,0000011667,029343,087830,030158,039998,088142,034741,047076,092713,047194,092715
0000000177,0000011733,029939,088068,030755,039080,088380,035349,046178,092952,046295,092954
0000000178,0000011800,030546,088286,031362,038163,088597,035968,045283,093170,045400,093172
0000000179,0000011867,031162,088483,031978,037249,088792,036600,044393,093367,044510,093369
0000000180,0000011933,031787,088658,032603,036340,088967,037244,043510,093543,043626,093545
0000000181,0000012000,032421,088813,033237,035436,089121,037899,042633,093698,042749,093699
0000000182,0000012067,033063,088947,033880,034538,089253,038564,041763,093831,041879,093832
0000000183,0000012133,033714,089059,034530,033649,089365,039239,040901,093943,041017,093943
0000000184,0000012200,034373,089151,035190,032769,089455,039925,040048,094033,040164,094032
0000000185,0000012267,035041,089222,035858,031900,089525,040621,039206,094102,039322,094101
0000000186,0000012333,035719,089272,036535,031043,089574,041328,038376,094150,038492,094149
0000000187,0000012400,036406,089301,037223,030198,089601,042046,037557,094176,037673,094175
0000000188,0000012467,037103,089308,037920,029367,089607,042774,036750,094180,036866,094178
0000000189,0000012533,037811,089294,038628,028551,089591,043512,035957,094161,036072,094159
0000000190,0000012600,038531,089259,039348,027750,089554,044262,035178,094121,035293,094119
0000000191,0000012667,039263,089202,040080,026965,089495,045023,034414,094060,034528,094058
0000000192,0000012733,040007,089122,040824,026196,089415,045796,033664,093976,033778,093974
0000000193,0000012800,040765,089022,041582,025445,089313,046579,032929,093870,033043,093868
0000000194,0000012867,041536,088899,042354,024710,089189,047368,032192,093737,032298,093735
0000000195,0000012933,042321,088755,043139,023992,089043,048167,031468,093582,031565,093579
0000000196,0000013000,043121,088588,043939,023290,088876,048978,030758,093404,030845,093402
0000000197,0000013067,043935,088401,044753,022604,088687,049801,030064,093205,030142,093203
0000000198,0000013133,044763,088191,045582,021932,088476,050636,029388,092986,029457,092984
0000000199,0000013200,045605,087960,046424,021275,088244,051483,028732,092745,028795,092743
0000000200,0000013267,046460,087708,047280,020632,087991,052342,028094,092485,028152,092483
0000000201,0000013333,047328,087434,048148,020005,087717,053211,027472,092203,027523,092201
0000000202,0000013400,048208,087140,049028,019392,087422,054088,026865,091900,026912,091899
0000000203,0000013467,049098,086826,049918,018795,087107,054974,026276,091577,026318,091575
