DIgSILENT PowerFactory,20000410,2000
10,10A,00D
1,LC684-652A:Phase Voltage A/Terminal i,,,kV,0.00010000000,-5.749608,0.000000,9566,99998,1,1,P
2,LC684-652A:Phase Voltage C/Terminal i,,,kV,0.00010000000,-4.965319,0.000000,3889,99998,1,1,P
3,LC692-675:Phase Voltage A/Terminal i,,,kV,0.00010000000,-5.750616,0.000000,9540,99998,1,1,P
4,LC692-675:Phase Voltage B/Terminal i,,,kV,0.00010000000,-5.451391,0.000000,6930,99998,1,1,P
5,LC692-675:Phase Voltage C/Terminal i,,,kV,0.00010000000,-5.005062,0.000000,4340,99998,1,1,P
6,LOHL632-633:Phase Voltage A/Terminal i,,,kV,0.00010000000,-6.044951,0.000000,17523,99998,1,1,P
7,LOHL632-633:Phase Voltage B/Terminal i,,,kV,0.00010000000,-5.975275,0.000000,17458,99998,1,1,P
8,LOHL632-633:Phase Voltage C/Terminal i,,,kV,0.00010000000,-5.607804,0.000000,14843,99998,1,1,P
9,LOHL645-646:Phase Voltage B/Terminal i,,,kV,0.00010000000,-5.983907,0.000000,17617,99998,1,1,P
10,LOHL645-646:Phase Voltage C/Terminal i,,,kV,0.00010000000,-5.611238,0.000000,14905,99998,1,1,P
50
1
15000.000000,3001
11/11/2020,23:28:09.000000
11/11/2020,23:28:09.000000
ASCII
1.000000
0000000001,0000000000,088167,049934,088186,023865,050282,091380,029375,055877,029498,055900
0000000002,0000000067,088603,049029,088622,024323,049377,091805,029827,054986,029951,055009
0000000003,0000000133,089016,048127,089037,024799,048477,092214,030311,054082,030431,054107
0000000004,0000000200,089415,047228,089432,025295,047577,092599,030801,053193,030922,053218
0000000005,0000000267,089787,046330,089806,025809,046678,092967,031324,052290,031443,052316
0000000006,0000000333,090140,045432,090161,026340,045783,093312,031855,051399,031973,051426
0000000007,0000000400,090472,044538,090494,026889,044889,093636,032403,050512,032520,050540
0000000008,0000000467,090787,043649,090807,027455,044000,093941,032969,049628,033085,049657
0000000009,0000000533,091075,042761,091097,028039,043114,094223,033558,048743,033673,048772
0000000010,0000000600,091347,041880,091367,028639,042233,094485,034155,047870,034270,047900
0000000011,0000000667,091594,041002,091616,029256,041356,094723,034772,046998,034886,047029
0000000012,0000000733,091820,040131,091842,029889,040486,094942,035408,046130,035521,046161
0000000013,0000000800,092025,039266,092047,030537,039621,095138,036057,045271,036168,045303
0000000014,0000000867,092207,038407,092230,031201,038763,095312,036719,044418,036829,044452
0000000015,0000000933,092367,037555,092391,031880,037912,095464,037397,043574,037506,043608
0000000016,0000001000,092507,036711,092530,032573,037069,095594,038089,042737,038197,042771
0000000017,0000001067,092623,035874,092647,033277,036233,095676,038742,041882,038831,041918
0000000018,0000001133,092717,035047,092742,033991,035408,095761,039381,041089,039444,041129
0000000019,0000001200,092791,034228,092814,034718,034588,095782,040118,040194,040183,040233
0000000020,0000001267,092840,033418,092865,035449,033779,095842,040859,039396,040915,039427
0000000021,0000001333,092868,032620,092893,036188,032983,095868,041591,038669,041649,038706
0000000022,0000001400,092873,031831,092899,036940,032195,095908,042423,037902,042484,037944
0000000023,0000001467,092857,031052,092882,037696,031416,095826,043135,037064,043191,037102
0000000024,0000001533,092817,030285,092842,038461,030650,095794,043932,036330,043985,036370
0000000025,0000001600,092754,029530,092780,039234,029897,095753,044726,035619,044779,035664
0000000026,0000001667,092669,028787,092695,040012,029156,095617,045439,034867,045481,034910
0000000027,0000001733,092560,028055,092586,040803,028424,095501,046257,034103,046298,034145
0000000028,0000001800,092429,027338,092454,041598,027708,095345,047028,033428,047064,033471
0000000029,0000001867,092274,026633,092300,042405,027004,095210,047880,032732,047915,032776
0000000030,0000001933,092096,025942,092122,043219,026314,095040,048721,032084,048753,032131
0000000031,0000002000,091894,025265,091921,044039,025639,094834,049532,031431,049560,031480
0000000032,0000002067,091670,024601,091697,044869,024976,094596,050373,030753,050397,030800
0000000033,0000002133,091423,023954,091450,045705,024330,094350,051215,030152,051236,030204
0000000034,0000002200,091153,023320,091180,046548,023698,094057,052042,029501,052058,029550
0000000035,0000002267,090860,022703,090887,047399,023082,093767,052899,028914,052911,028965
0000000036,0000002333,090545,022101,090573,048256,022482,093431,053740,028306,053747,028356
0000000037,0000002400,090208,021517,090236,049120,021899,093107,054619,027758,054623,027811
0000000038,0000002467,089851,020948,089878,049990,021332,092752,055515,027207,055518,027261
0000000039,0000002533,089471,020398,089500,050864,020783,092372,056372,026681,056370,026736
0000000040,0000002600,089072,019865,089100,051741,020251,091943,057220,026142,057211,026196
0000000041,0000002667,088653,019350,088681,052623,019738,091526,058106,025644,058095,025698
0000000042,0000002733,088214,018854,088242,053510,019243,091098,059022,025172,059015,025226
0000000043,0000002800,087756,018377,087784,054397,018769,090644,059913,024729,059907,024786
0000000044,0000002867,087279,017920,087308,055288,018313,090155,060799,024269,060792,024324
0000000045,0000002933,086785,017483,086814,056182,017877,089665,061698,023859,061691,023915
0000000046,0000003000,086274,017066,086303,057076,017463,089143,062574,023455,062569,023510
0000000047,0000003067,085745,016671,085775,057972,017069,088630,063493,023104,063492,023162
0000000048,0000003133,085201,016297,085230,058869,016697,088080,064385,022751,064385,022809
0000000049,0000003200,084641,015944,084670,059766,016347,087511,065273,022408,065274,022466
0000000050,0000003267,084066,015614,084096,060663,016018,086928,066158,022084,066160,022142
0000000051,0000003333,083477,015307,083506,061559,015713,086333,067049,021801,067052,021859
0000000052,0000003400,082873,015023,082903,062453,015431,085727,067932,021541,067936,021600
0000000053,0000003467,082256,014762,082286,063344,015172,085100,068819,021291,068824,021350
0000000054,0000003533,081626,014526,081655,064232,014937,084465,069697,021074,069702,021134
0000000055,0000003600,080983,014313,081012,065114,014727,083808,070554,020875,070560,020935
0000000056,0000003667,080327,014125,080357,065990,014541,083146,071424,020709,071430,020770
0000000057,0000003733,079660,013962,079690,066860,014379,082471,072284,020565,072291,020627
0000000058,0000003800,078981,013823,079011,067722,014242,081777,073127,020432,073134,020494
0000000059,0000003867,078291,013710,078320,068576,014131,081074,073967,020333,073975,020395
0000000060,0000003933,077589,013622,077619,069420,014044,080358,074794,020249,074802,020311
0000000061,0000004000,076877,013559,076906,070253,013983,079631,075616,020196,075625,020259
0000000062,0000004067,076154,013522,076183,071075,013946,078885,076414,020158,076422,020220
0000000063,0000004133,075420,013510,075449,071886,013935,078137,077206,020154,077214,020216
0000000064,0000004200,074676,013523,074704,072683,013950,077375,077989,020170,077998,020233
0000000065,0000004267,073921,013561,073950,073468,013989,076607,078766,020210,078776,020273
0000000066,0000004333,073156,013623,073185,074239,014053,075829,079525,020278,079536,020342
0000000067,0000004400,072382,013711,072410,074995,014141,075033,080260,020367,080271,020430
0000000068,0000004467,071597,013823,071625,075737,014254,074238,080998,020485,081009,020549
0000000069,0000004533,070803,013959,070830,076464,014390,073431,081727,020618,081745,020682
0000000070,0000004600,069999,014118,070026,077177,014551,072625,082448,020792,082474,020856
0000000071,0000004667,069186,014301,069212,077876,014734,071797,083149,020965,083184,021029
0000000072,0000004733,068364,014507,068390,078562,014940,070978,083852,021186,083897,021250
0000000073,0000004800,067534,014735,067559,079236,015168,070134,084520,021409,084574,021472
0000000074,0000004867,066695,014985,066720,079897,015419,069299,085196,021672,085259,021736
0000000075,0000004933,065848,015256,065873,080547,015690,068443,085843,021939,085914,022002
0000000076,0000005000,064995,015548,065019,081185,015983,067591,086482,022242,086561,022305
0000000077,0000005067,064135,015861,064158,081811,016296,066716,087086,022543,087170,022606
0000000078,0000005133,063269,016194,063292,082424,016630,065851,087692,022885,087782,022948
0000000079,0000005200,062398,016546,062421,083024,016983,064971,088268,023235,088361,023298
0000000080,0000005267,061524,016918,061546,083609,017355,064090,088831,023609,088929,023672
0000000081,0000005333,060646,017309,060668,084180,017747,063211,089386,024007,089488,024070
0000000082,0000005400,059766,017718,059787,084733,018156,062319,089909,024408,090014,024470
0000000083,0000005467,058885,018146,058906,085269,018585,061438,090425,024846,090534,024909
0000000084,0000005533,058004,018592,058024,085786,019031,060549,090911,025292,091023,025355
0000000085,0000005600,057123,019055,057143,086283,019495,059661,091380,025757,091494,025820
0000000086,0000005667,056244,019535,056264,086758,019976,058780,091834,026245,091950,026308
0000000087,0000005733,055368,020033,055387,087209,020475,057890,092251,026740,092369,026802
0000000088,0000005800,054494,020548,054513,087636,020991,057011,092651,027265,092770,027327
0000000089,0000005867,053623,021079,053642,088038,021523,056130,093021,027798,093137,027861
0000000090,0000005933,052757,021627,052776,088411,022072,055250,093361,028347,093474,028409
0000000091,0000006000,051896,022192,051914,088756,022637,054373,093672,028911,093782,028972
0000000092,0000006067,051040,022773,051057,089071,023219,053508,093966,029498,094073,029560
0000000093,0000006133,050188,023369,050205,089354,023816,052646,094227,030100,094331,030162
0000000094,0000006200,049342,023981,049359,089606,024429,051784,094454,030712,094552,030773
0000000095,0000006267,048501,024609,048518,089826,025057,050931,094655,031341,094747,031402
0000000096,0000006333,047666,025251,047682,090012,025700,050081,094826,031984,094912,032045
0000000097,0000006400,046835,025908,046851,090166,026358,049242,094974,032645,095056,032706
0000000098,0000006467,046010,026580,046025,090287,027029,048407,095091,033319,095169,033379
0000000099,0000006533,045189,027265,045204,090376,027715,047580,095184,034007,095257,034068
0000000100,0000006600,044373,027964,044387,090434,028414,046763,095255,034715,095326,034775
0000000101,0000006667,043561,028675,043575,090461,029125,045948,095294,035429,095361,035489
0000000102,0000006733,042754,029399,042767,090460,029849,045140,095308,036155,095372,036214
0000000103,0000006800,041950,030135,041963,090431,030585,044343,095302,036899,095364,036958
0000000104,0000006867,041151,030881,041163,090376,031331,043549,095266,037649,095325,037708
0000000105,0000006933,040356,031638,040368,090296,032087,042762,095210,038411,095267,038469
0000000106,0000007000,039566,032405,039577,090194,032854,041986,095134,039187,095188,039245
0000000107,0000007067,038781,033181,038791,090071,033629,041217,095038,039971,095091,040029
0000000108,0000007133,038001,033965,038011,089927,034413,040456,094920,040765,094970,040822
0000000109,0000007200,037228,034758,037237,089765,035205,039703,094782,041566,094831,041623
0000000110,0000007267,036462,035557,036470,089586,036004,038958,094624,042372,094671,042428
0000000111,0000007333,035704,036362,035712,089391,036809,038227,094452,043190,094498,043245
0000000112,0000007400,034956,037174,034963,089181,037620,037507,094263,044014,094308,044069
0000000113,0000007467,034218,037991,034224,088957,038437,036797,094053,044842,094097,044896
0000000114,0000007533,033492,038813,033498,088718,039258,036103,093831,045679,093874,045733
0000000115,0000007600,032781,039639,032786,088467,040085,035422,093591,046520,093633,046573
0000000116,0000007667,032084,040469,032089,088202,040915,034754,093333,047364,093374,047416
0000000117,0000007733,031404,041303,031409,087923,041749,034108,093064,048216,093105,048268
0000000118,0000007800,030743,042140,030747,087632,042587,033476,092774,049070,092814,049121
0000000119,0000007867,030102,042981,030106,087326,043428,032861,092465,049925,092503,049975
0000000120,0000007933,029482,043825,029486,087006,044272,032269,092143,050787,092180,050837
0000000121,0000008000,028885,044672,028889,086671,045119,031698,091802,051651,091839,051701
0000000122,0000008067,028312,045521,028316,086320,045970,031147,091444,052517,091480,052565
0000000123,0000008133,027765,046374,027768,085952,046823,030621,091071,053388,091107,053436
0000000124,0000008200,027243,047230,027246,085568,047679,030117,090679,054258,090715,054306
0000000125,0000008267,026749,048088,026752,085166,048539,029638,090269,055133,090305,055179
0000000126,0000008333,026282,048950,026285,084745,049401,029184,089841,056008,089878,056054
0000000127,0000008400,025843,049815,025846,084306,050267,028754,089394,056885,089432,056930
0000000128,0000008467,025432,050683,025435,083849,051136,028350,088930,057765,088969,057809
0000000129,0000008533,025048,051554,025051,083372,052007,027970,088446,058644,088486,058688
0000000130,0000008600,024693,052428,024696,082876,052882,027617,087945,059527,087987,059569
0000000131,0000008667,024365,053305,024368,082361,053760,027288,087425,060408,087469,060450
0000000132,0000008733,024064,054186,024067,081828,054641,026985,086889,061291,086935,061333
0000000133,0000008800,023789,055069,023792,081276,055524,026705,086334,062174,086382,062215
0000000134,0000008867,023539,055954,023542,080706,056409,026450,085763,063057,085813,063097
0000000135,0000008933,023314,056842,023316,080119,057296,026217,085174,063939,085227,063978
0000000136,0000009000,023112,057731,023114,079515,058185,026008,084569,064819,084626,064857
0000000137,0000009067,022933,058621,022935,078896,059075,025821,083950,065697,084009,065735
0000000138,0000009133,022775,059511,022777,078261,059964,025655,083314,066572,083377,066609
0000000139,0000009200,022639,060402,022640,077613,060854,025511,082665,067445,082731,067481
0000000140,0000009267,022523,061291,022523,076951,061741,025387,082001,068313,082071,068348
0000000141,0000009333,022426,062178,022426,076277,062627,025284,081326,069178,081399,069212
0000000142,0000009400,022348,063062,022347,075591,063509,025201,080638,070036,080714,070069
0000000143,0000009467,022288,063942,022287,074894,064387,025139,079941,070891,080021,070923
0000000144,0000009533,022247,064817,022245,074188,065260,025096,079231,071737,079315,071768
0000000145,0000009600,022223,065685,022221,073472,066126,025072,078511,072574,078599,072604
0000000146,0000009667,022218,066546,022215,072747,066984,025067,077781,073403,077873,073433
0000000147,0000009733,022231,067398,022227,072014,067834,025082,077041,074222,077137,074251
0000000148,0000009800,022261,068240,022257,071273,068673,025117,076292,075030,076393,075058
0000000149,0000009867,022311,069070,022306,070524,069500,025171,075534,075825,075638,075852
0000000150,0000009933,022379,069887,022374,069768,070315,025247,074770,076609,074878,076636
0000000151,0000010000,022468,070690,022461,069004,071115,025341,073994,077378,074107,077403
0000000152,0000010067,022576,071478,022569,068233,071900,025459,073214,078135,073331,078159
0000000153,0000010133,022705,072250,022698,067455,072669,025596,072423,078873,072544,078897
0000000154,0000010200,022856,073004,022848,066669,073421,025756,071626,079596,071751,079619
0000000155,0000010267,023029,073740,023020,065875,074154,025937,070820,080303,070948,080325
0000000156,0000010333,023224,074456,023215,065074,074867,026140,070006,080990,070138,081012
0000000157,0000010400,023442,075151,023432,064264,075561,026366,069184,081659,069320,081680
0000000158,0000010467,023684,075826,023674,063447,076233,026616,068358,082311,068498,082331
0000000159,0000010533,023949,076478,023939,062621,076883,026887,067523,082941,067666,082960
0000000160,0000010600,024238,077108,024227,061787,077511,027183,066682,083552,066830,083571
0000000161,0000010667,024551,077715,024540,060945,078117,027502,065836,084143,065988,084161
0000000162,0000010733,024887,078299,024876,060095,078699,027842,064981,084711,065138,084728
0000000163,0000010800,025246,078859,025235,059238,079258,028205,064123,085258,064284,085275
0000000164,0000010867,025628,079396,025617,058374,079793,028591,063259,085786,063425,085802
0000000165,0000010933,026033,079908,026021,057503,080304,028997,062389,086288,062559,086303
0000000166,0000011000,026458,080397,026447,056626,080792,029424,061513,086770,061687,086785
0000000167,0000011067,026904,080861,026893,055742,081256,029866,060620,087226,060791,087240
0000000168,0000011133,027370,081303,027359,054854,081696,030329,059725,087661,059895,087674
0000000169,0000011200,027855,081720,027844,053959,082113,030812,058830,088074,059000,088087
0000000170,0000011267,028357,082114,028347,053060,082507,031310,057924,088463,058091,088475
0000000171,0000011333,028876,082486,028866,052155,082878,031828,057019,088831,057184,088843
0000000172,0000011400,029410,082834,029401,051246,083226,032362,056114,089177,056277,089189
0000000173,0000011467,029959,083160,029950,050333,083552,032912,055209,089502,055370,089513
0000000174,0000011533,030521,083464,030512,049418,083855,033478,054304,089806,054464,089817
0000000175,0000011600,031096,083746,031087,048500,084136,034058,053401,090088,053560,090098
0000000176,0000011667,031682,084006,031673,047582,084396,034653,052501,090349,052659,090359
0000000177,0000011733,032279,084245,032270,046663,084634,035260,051602,090589,051760,090598
0000000178,0000011800,032886,084463,032877,045747,084851,035880,050708,090807,050866,090817
0000000179,0000011867,033502,084659,033494,044833,085047,036512,049818,091004,049975,091013
0000000180,0000011933,034127,084835,034119,043923,085221,037155,048934,091180,049091,091188
0000000181,0000012000,034760,084990,034753,043019,085375,037810,048056,091335,048213,091343
0000000182,0000012067,035403,085123,035395,042122,085508,038475,047186,091468,047343,091475
0000000183,0000012133,036053,085236,036046,041233,085619,039151,046325,091580,046482,091587
0000000184,0000012200,036712,085328,036705,040353,085710,039836,045472,091670,045629,091677
0000000185,0000012267,037380,085399,037373,039484,085780,040533,044631,091739,044787,091746
0000000186,0000012333,038058,085449,038051,038626,085828,041240,043800,091786,043956,091793
0000000187,0000012400,038745,085478,038738,037782,085855,041957,042981,091812,043137,091818
0000000188,0000012467,039442,085485,039435,036951,085861,042685,042175,091816,042331,091822
0000000189,0000012533,040150,085471,040144,036134,085846,043424,041381,091798,041537,091804
0000000190,0000012600,040870,085436,040863,035333,085809,044174,040603,091759,040759,091764
0000000191,0000012667,041602,085378,041595,034548,085750,044934,039838,091696,039993,091701
0000000192,0000012733,042346,085299,042340,033780,085669,045707,039088,091613,039243,091618
0000000193,0000012800,043104,085199,043098,033028,085567,046490,038353,091507,038507,091511
0000000194,0000012867,043875,085076,043869,032294,085443,047279,037617,091374,037764,091379
0000000195,0000012933,044661,084931,044655,031576,085298,048079,036893,091219,037031,091224
0000000196,0000013000,045460,084765,045455,030874,085130,048889,036181,091041,036309,091046
0000000197,0000013067,046274,084577,046269,030187,084941,049712,035488,090842,035606,090847
0000000198,0000013133,047102,084368,047097,029515,084731,050547,034811,090622,034921,090627
0000000199,0000013200,047944,084137,047940,028858,084499,051395,034157,090382,034260,090387
0000000200,0000013267,048800,083885,048795,028216,084246,052253,033518,090121,033616,090126
0000000201,0000013333,049667,083611,049664,027588,083971,053122,032895,089839,032988,089844
0000000202,0000013400,050547,083317,050543,026976,083677,054000,032289,089537,032377,089542
0000000203,0000013467,051437,083003,051434,026379,083361,054886,031700,089213,031783,089218
