DIgSILENT PowerFactory,20000410,2000
10,10A,00D
1,LC684-652A:Phase Voltage A/Terminal i,,,kV,0.00010000000,-5.507814,0.000000,8106,99998,1,1,P
2,LC684-652A:Phase Voltage C/Terminal i,,,kV,0.00010000000,-5.369383,0.000000,1631,99998,1,1,P
3,LC692-675:Phase Voltage A/Terminal i,,,kV,0.00010000000,-5.575711,0.000000,9570,99998,1,1,P
4,LC692-675:Phase Voltage B/Terminal i,,,kV,0.00010000000,-4.916040,0.000000,6049,99998,1,1,P
5,LC692-675:Phase Voltage C/Terminal i,,,kV,0.00010000000,-5.400862,0.000000,2750,99998,1,1,P
6,LOHL632-633:Phase Voltage A/Terminal i,,,kV,0.00010000000,-5.949141,0.000000,17873,99998,1,1,P
7,LOHL632-633:Phase Voltage B/Terminal i,,,kV,0.00010000000,-5.623199,0.000000,17184,99998,1,1,P
8,LOHL632-633:Phase Voltage C/Terminal i,,,kV,0.00010000000,-5.860312,0.000000,14384,99998,1,1,P
9,LOHL645-646:Phase Voltage B/Terminal i,,,kV,0.00010000000,-5.635446,0.000000,17350,99998,1,1,P
10,LOHL645-646:Phase Voltage C/Terminal i,,,kV,0.00010000000,-5.863019,0.000000,14444,99998,1,1,P
50
1
15000.000000,3001
17/11/2020,18:50:47.000000
17/11/2020,18:50:47.000000
ASCII
1.000000
0000000001,0000000000,085753,053975,086437,018511,054239,090422,025854,058402,026013,058418
0000000002,0000000067,086185,053071,086873,018970,053336,090848,026307,057509,026464,057528
0000000003,0000000133,086602,052169,087288,019446,052435,091255,026788,056609,026945,056627
0000000004,0000000200,086994,051268,087683,019941,051535,091641,027282,055716,027439,055734
0000000005,0000000267,087369,050369,088057,020455,050636,092009,027800,054819,027956,054837
0000000006,0000000333,087723,049473,088412,020986,049740,092354,028334,053925,028489,053944
0000000007,0000000400,088057,048579,088745,021535,048847,092679,028886,053034,029040,053055
0000000008,0000000467,088368,047689,089057,022102,047958,092983,029453,052149,029606,052171
0000000009,0000000533,088658,046802,089349,022685,047072,093265,030037,051268,030188,051291
0000000010,0000000600,088928,045920,089618,023285,046191,093526,030632,050396,030784,050419
0000000011,0000000667,089177,045043,089867,023903,045314,093766,031256,049519,031406,049542
0000000012,0000000733,089402,044172,090093,024535,044444,093983,031884,048659,032032,048683
0000000013,0000000800,089606,043306,090298,025184,043579,094180,032533,047798,032681,047824
0000000014,0000000867,089789,042447,090481,025848,042721,094354,033197,046945,033344,046971
0000000015,0000000933,089950,041595,090642,026526,041870,094506,033877,046099,034022,046125
0000000016,0000001000,090089,040751,090781,027219,041027,094636,034570,045260,034714,045288
0000000017,0000001067,090205,039915,090898,027925,040192,094728,035242,044414,035369,044442
0000000018,0000001133,090299,039087,090992,028638,039365,094786,035854,043580,035954,043612
0000000019,0000001200,090373,038268,091063,029363,038546,094820,036587,042722,036682,042748
0000000020,0000001267,090422,037459,091116,030096,037738,094910,037376,041952,037479,041984
0000000021,0000001333,090450,036660,091144,030839,036940,094955,038164,041202,038269,041239
0000000022,0000001400,090456,035872,091150,031584,036154,094935,038856,040443,038952,040479
0000000023,0000001467,090439,035093,091133,032343,035374,094876,039627,039604,039719,039636
0000000024,0000001533,090399,034326,091094,033105,034609,094818,040359,038842,040445,038874
0000000025,0000001600,090337,033571,091031,033879,033856,094757,041157,038134,041242,038170
0000000026,0000001667,090251,032827,090946,034660,033113,094687,041964,037405,042046,037441
0000000027,0000001733,090142,032097,090837,035449,032385,094580,042771,036724,042852,036765
0000000028,0000001800,090011,031379,090706,036248,031666,094441,043596,035992,043674,036031
0000000029,0000001867,089856,030673,090551,037051,030962,094235,044345,035249,044415,035286
0000000030,0000001933,089678,029982,090373,037866,030272,094088,045222,034612,045292,034653
0000000031,0000002000,089476,029305,090172,038685,029596,093859,045998,033923,046060,033962
0000000032,0000002067,089252,028642,089948,039516,028934,093647,046868,033287,046929,033328
0000000033,0000002133,089005,027995,089701,040351,028289,093394,047698,032685,047756,032729
0000000034,0000002200,088735,027361,089430,041194,027656,093082,048500,032015,048552,032057
0000000035,0000002267,088442,026743,089138,042046,027038,092787,049367,031390,049415,031430
0000000036,0000002333,088127,026142,088823,042904,026440,092493,050257,030849,050305,030894
0000000037,0000002400,087791,025557,088487,043767,025857,092157,051120,030289,051162,030335
0000000038,0000002467,087432,024989,088129,044636,025290,091801,051990,029738,052028,029785
0000000039,0000002533,087054,024438,087750,045510,024740,091387,052824,029167,052855,029211
0000000040,0000002600,086654,023905,087351,046389,024209,091014,053741,028680,053771,028728
0000000041,0000002667,086235,023391,086932,047270,023696,090572,054594,028177,054620,028225
0000000042,0000002733,085796,022895,086493,048156,023201,090139,055499,027699,055528,027747
0000000043,0000002800,085338,022418,086035,049044,022726,089666,056375,027219,056404,027265
0000000044,0000002867,084861,021961,085559,049935,022271,089212,057290,026817,057320,026867
0000000045,0000002933,084367,021524,085065,050828,021836,088715,058188,026397,058218,026447
0000000046,0000003000,083856,021107,084554,051723,021421,088203,059079,026001,059112,026051
0000000047,0000003067,083327,020711,084026,052619,021028,087676,059974,025635,060009,025686
0000000048,0000003133,082783,020337,083481,053516,020655,087122,060864,025274,060900,025325
0000000049,0000003200,082223,019985,082921,054413,020305,086559,061761,024937,061799,024988
0000000050,0000003267,081648,019655,082347,055310,019977,085989,062663,024636,062702,024689
0000000051,0000003333,081059,019348,081757,056206,019671,085373,063523,024329,063562,024381
0000000052,0000003400,080455,019063,081154,057100,019388,084763,064410,024051,064450,024102
0000000053,0000003467,079838,018803,080537,057991,019130,084151,065309,023826,065351,023879
0000000054,0000003533,079208,018566,079906,058878,018895,083500,066163,023595,066204,023647
0000000055,0000003600,078565,018354,079263,059761,018684,082852,067043,023398,067085,023450
0000000056,0000003667,077909,018166,078608,060637,018499,082198,067917,023239,067960,023293
0000000057,0000003733,077242,018002,077941,061507,018337,081507,068757,023076,068800,023130
0000000058,0000003800,076563,017864,077262,062369,018200,080819,069609,022953,069653,023007
0000000059,0000003867,075873,017751,076571,063223,018089,080114,070446,022853,070490,022908
0000000060,0000003933,075171,017663,075870,064066,018002,079401,071276,022782,071321,022838
0000000061,0000004000,074459,017600,075157,064900,017940,078661,072082,022707,072126,022761
0000000062,0000004067,073736,017562,074434,065722,017905,077934,072899,022692,072944,022747
0000000063,0000004133,073002,017550,073700,066532,017894,077182,073690,022681,073735,022737
0000000064,0000004200,072258,017563,072955,067330,017908,076415,074465,022693,074510,022749
0000000065,0000004267,071503,017601,072201,068114,017947,075653,075249,022742,075295,022799
0000000066,0000004333,070738,017664,071436,068885,018011,074873,076008,022808,076055,022865
0000000067,0000004400,069964,017752,070661,069641,018099,074075,076741,022888,076787,022944
0000000068,0000004467,069179,017864,069876,070383,018212,073278,077476,023003,077524,023059
0000000069,0000004533,068385,017999,069081,071110,018348,072473,078201,023144,078256,023200
0000000070,0000004600,067581,018159,068277,071823,018508,071661,078924,023307,078985,023364
0000000071,0000004667,066768,018342,067463,072523,018692,070846,079634,023501,079706,023557
0000000072,0000004733,065946,018547,066641,073209,018898,070019,080331,023711,080413,023768
0000000073,0000004800,065116,018775,065810,073882,019126,069177,081002,023936,081092,023992
0000000074,0000004867,064277,019025,064971,074544,019377,068341,081676,024196,081775,024253
0000000075,0000004933,063430,019296,064124,075194,019648,067485,082321,024463,082428,024519
0000000076,0000005000,062577,019589,063269,075831,019941,066624,082950,024756,083065,024812
0000000077,0000005067,061717,019902,062409,076457,020254,065764,083573,025079,083694,025135
0000000078,0000005133,060851,020234,061543,077070,020588,064892,084170,025409,084296,025465
0000000079,0000005200,059980,020587,060672,077670,020941,064010,084743,025758,084872,025814
0000000080,0000005267,059106,020959,059797,078256,021313,063133,085314,026134,085448,026189
0000000081,0000005333,058228,021350,058918,078826,021705,062248,085857,026524,085995,026579
0000000082,0000005400,057348,021759,058038,079380,022115,061368,086394,026943,086536,026999
0000000083,0000005467,056467,022187,057157,079916,022543,060477,086900,027365,087045,027420
0000000084,0000005533,055586,022632,056275,080433,022989,059589,087389,027815,087537,027870
0000000085,0000005600,054706,023095,055394,080929,023453,058703,087859,028283,088009,028338
0000000086,0000005667,053826,023576,054515,081404,023934,057818,088307,028766,088460,028821
0000000087,0000005733,052950,024074,053638,081856,024433,056933,088732,029267,088887,029322
0000000088,0000005800,052076,024588,052764,082283,024949,056053,089132,029790,089287,029845
0000000089,0000005867,051206,025120,051893,082684,025481,055169,089495,030321,089647,030376
0000000090,0000005933,050340,025668,051027,083058,026030,054290,089838,030871,089987,030925
0000000091,0000006000,049478,026233,050165,083402,026595,053418,090154,031440,090300,031495
0000000092,0000006067,048622,026813,049308,083717,027177,052550,090445,032024,090588,032079
0000000093,0000006133,047770,027410,048456,084001,027774,051685,090706,032622,090846,032676
0000000094,0000006200,046924,028022,047610,084253,028387,050828,090934,033240,091068,033294
0000000095,0000006267,046083,028649,046769,084472,029015,049972,091133,033865,091261,033919
0000000096,0000006333,045248,029292,045933,084659,029658,049125,091307,034511,091430,034565
0000000097,0000006400,044417,029949,045102,084812,030316,048283,091451,035170,091569,035224
0000000098,0000006467,043592,030620,044276,084933,030987,047450,091572,035846,091686,035900
0000000099,0000006533,042771,031306,043455,085023,031673,046624,091667,036535,091778,036588
0000000100,0000006600,041955,032004,042638,085080,032372,045803,091733,037236,091839,037289
0000000101,0000006667,041143,032716,041826,085108,033083,044988,091771,037950,091874,038003
0000000102,0000006733,040336,033440,041018,085106,033807,044185,091791,038684,091892,038736
0000000103,0000006800,039533,034175,040214,085077,034542,043382,091777,039420,091875,039471
0000000104,0000006867,038733,034922,039414,085022,035289,042590,091745,040174,091840,040226
0000000105,0000006933,037938,035679,038619,084943,036046,041806,091692,040938,091785,040989
0000000106,0000007000,037148,036446,037828,084841,036812,041028,091614,041711,091704,041762
0000000107,0000007067,036363,037222,037042,084717,037587,040257,091514,042494,091602,042544
0000000108,0000007133,035583,038006,036262,084574,038371,039496,091398,043288,091485,043337
0000000109,0000007200,034810,038798,035488,084412,039163,038744,091260,044090,091345,044139
0000000110,0000007267,034044,039597,034721,084233,039962,038000,091103,044898,091187,044946
0000000111,0000007333,033286,040403,033962,084038,040767,037268,090929,045714,091011,045761
0000000112,0000007400,032538,041215,033213,083828,041578,036548,090740,046538,090821,046586
0000000113,0000007467,031800,042031,032475,083603,042395,035841,090534,047370,090615,047417
0000000114,0000007533,031075,042853,031749,083365,043217,035145,090310,048205,090390,048251
0000000115,0000007600,030363,043679,031037,083113,044043,034463,090069,049045,090147,049090
0000000116,0000007667,029666,044510,030340,082848,044873,033797,089813,049889,089890,049934
0000000117,0000007733,028986,045344,029660,082570,045707,033149,089543,050741,089620,050786
0000000118,0000007800,028325,046181,028998,082278,046545,032516,089251,051593,089327,051637
0000000119,0000007867,027684,047022,028357,081972,047386,031903,088944,052450,089019,052493
0000000120,0000007933,027064,047865,027737,081652,048230,031312,088622,053313,088695,053356
0000000121,0000008000,026467,048712,027140,081317,049077,030740,088283,054177,088356,054219
0000000122,0000008067,025894,049562,026567,080966,049928,030189,087924,055042,087996,055083
0000000123,0000008133,025347,050415,026019,080599,050781,029662,087549,055911,087621,055952
0000000124,0000008200,024825,051270,025497,080214,051637,029160,087159,056784,087231,056824
0000000125,0000008267,024331,052129,025003,079812,052497,028681,086749,057659,086822,057698
0000000126,0000008333,023864,052991,024536,079392,053359,028225,086320,058533,086393,058572
0000000127,0000008400,023425,053855,024097,078953,054225,027795,085873,059409,085947,059447
0000000128,0000008467,023014,054723,023686,078495,055094,027392,085409,060290,085484,060327
0000000129,0000008533,022630,055595,023303,078019,055966,027014,084927,061171,085004,061208
0000000130,0000008600,022275,056469,022947,077523,056840,026659,084425,062052,084503,062087
0000000131,0000008667,021947,057346,022619,077008,057718,026330,083904,062933,083984,062968
0000000132,0000008733,021646,058226,022318,076474,058599,026027,083368,063817,083450,063851
0000000133,0000008800,021371,059109,022042,075922,059482,025748,082815,064701,082899,064734
0000000134,0000008867,021121,059995,021793,075352,060367,025491,082241,065582,082328,065615
0000000135,0000008933,020896,060882,021567,074765,061254,025258,081652,066462,081742,066494
0000000136,0000009000,020694,061771,021365,074162,062143,025049,081048,067343,081140,067374
0000000137,0000009067,020515,062661,021186,073542,063033,024863,080428,068223,080524,068253
0000000138,0000009133,020357,063552,021028,072908,063922,024697,079793,069097,079892,069126
0000000139,0000009200,020221,064442,020891,072259,064812,024552,079142,069969,079244,069997
0000000140,0000009267,020105,065331,020774,071597,065699,024429,078480,070838,078586,070865
0000000141,0000009333,020008,066219,020677,070923,066585,024327,077806,071704,077916,071730
0000000142,0000009400,019930,067103,020598,070237,067467,024243,077117,072561,077230,072587
0000000143,0000009467,019870,067983,020538,069541,068345,024180,076418,073414,076535,073439
0000000144,0000009533,019829,068858,020496,068834,069218,024137,075710,074261,075830,074285
0000000145,0000009600,019805,069726,020472,068118,070084,024114,074990,075100,075115,075123
0000000146,0000009667,019800,070587,020466,067394,070942,024108,074258,075927,074386,075949
0000000147,0000009733,019813,071439,020478,066661,071792,024124,073521,076747,073653,076769
0000000148,0000009800,019843,072280,020508,065920,072631,024159,072771,077555,072908,077575
0000000149,0000009867,019893,073110,020557,065171,073458,024214,072015,078351,072155,078371
0000000150,0000009933,019961,073928,020625,064414,074273,024289,071249,079135,071394,079154
0000000151,0000010000,020050,074731,020712,063651,075073,024385,070475,079904,070624,079923
0000000152,0000010067,020158,075519,020820,062880,075858,024501,069693,080659,069846,080676
0000000153,0000010133,020287,076291,020948,062101,076627,024638,068903,081398,069060,081415
0000000154,0000010200,020438,077045,021099,061315,077379,024797,068105,082121,068266,082137
0000000155,0000010267,020611,077780,021271,060522,078112,024979,067299,082828,067463,082843
0000000156,0000010333,020806,078496,021466,059720,078825,025183,066486,083516,066654,083531
0000000157,0000010400,021024,079192,021683,058911,079519,025408,065664,084185,065836,084199
0000000158,0000010467,021266,079866,021925,058093,080191,025657,064837,084836,065013,084848
0000000159,0000010533,021531,080519,022190,057267,080841,025930,064003,085467,064183,085479
0000000160,0000010600,021820,081149,022478,056433,081469,026225,063162,086077,063346,086088
0000000161,0000010667,022133,081756,022791,055591,082075,026543,062314,086667,062502,086678
0000000162,0000010733,022469,082340,023127,054742,082657,026884,061461,087237,061654,087247
0000000163,0000010800,022828,082900,023486,053885,083216,027247,060602,087784,060799,087793
0000000164,0000010867,023210,083436,023868,053020,083751,027632,059737,088309,059939,088318
0000000165,0000010933,023615,083949,024272,052149,084262,028039,058869,088814,059075,088822
0000000166,0000011000,024040,084437,024698,051272,084750,028466,057993,089296,058203,089303
0000000167,0000011067,024486,084902,025144,050389,085214,028908,057098,089751,057306,089757
0000000168,0000011133,024952,085343,025610,049500,085654,029371,056204,090186,056411,090192
0000000169,0000011200,025437,085761,026095,048606,086071,029855,055310,090600,055516,090606
0000000170,0000011267,025939,086155,026598,047706,086465,030352,054403,090988,054606,090993
0000000171,0000011333,026458,086526,027117,046802,086836,030869,053498,091356,053699,091361
0000000172,0000011400,026992,086875,027651,045893,087184,031404,052594,091703,052793,091708
0000000173,0000011467,027541,087201,028201,044980,087510,031954,051688,092027,051885,092031
0000000174,0000011533,028103,087505,028763,044064,087813,032519,050783,092330,050979,092334
0000000175,0000011600,028678,087787,029338,043147,088094,033101,049881,092614,050077,092617
0000000176,0000011667,029264,088047,029924,042228,088354,033694,048979,092874,049174,092877
0000000177,0000011733,029861,088286,030521,041310,088592,034302,048081,093113,048275,093115
0000000178,0000011800,030468,088504,031128,040393,088809,034923,047188,093333,047382,093335
0000000179,0000011867,031084,088700,031745,039479,089005,035554,046297,093529,046491,093531
0000000180,0000011933,031709,088876,032370,038570,089179,036197,045413,093705,045606,093706
0000000181,0000012000,032342,089030,033004,037666,089333,036852,044536,093860,044729,093861
0000000182,0000012067,032985,089164,033646,036768,089466,037517,043666,093993,043859,093993
0000000183,0000012133,033635,089277,034297,035879,089577,038192,042804,094104,042996,094104
0000000184,0000012200,034294,089369,034956,034999,089668,038879,041952,094196,042145,094195
0000000185,0000012267,034963,089440,035624,034130,089738,039575,041110,094264,041303,094264
0000000186,0000012333,035640,089490,036302,033273,089786,040281,040279,094311,040471,094310
0000000187,0000012400,036327,089519,036989,032428,089813,040999,039461,094337,039653,094336
0000000188,0000012467,037024,089526,037686,031597,089819,041727,038654,094341,038847,094340
0000000189,0000012533,037732,089512,038395,030781,089804,042465,037860,094323,038052,094321
0000000190,0000012600,038452,089476,039114,029980,089767,043216,037082,094283,037274,094281
0000000191,0000012667,039184,089419,039846,029195,089708,043977,036317,094222,036509,094220
0000000192,0000012733,039928,089340,040591,028426,089627,044749,035567,094137,035758,094135
0000000193,0000012800,040686,089239,041349,027675,089525,045532,034832,094032,035022,094029
0000000194,0000012867,041457,089117,042120,026940,089401,046322,034096,093900,034279,093897
0000000195,0000012933,042243,088972,042906,026222,089256,047121,033372,093744,033546,093741
0000000196,0000013000,043042,088806,043706,025520,089088,047931,032661,093566,032825,093563
0000000197,0000013067,043856,088618,044520,024834,088899,048754,031967,093367,032122,093365
0000000198,0000013133,044684,088408,045348,024162,088689,049588,031290,093146,031436,093144
0000000199,0000013200,045526,088177,046191,023505,088457,050436,030635,092907,030775,092904
0000000200,0000013267,046382,087925,047046,022862,088204,051296,029998,092646,030132,092644
0000000201,0000013333,047250,087652,047914,022235,087929,052164,029375,092364,029504,092362
0000000202,0000013400,048129,087358,048794,021622,087635,053041,028768,092061,028891,092059
0000000203,0000013467,049019,087043,049685,021026,087319,053928,028180,091738,028298,091736
