DIgSILENT PowerFactory,20000410,2000
10,10A,00D
1,LC684-652A:Phase Voltage A/Terminal i,,,kV,0.00010000000,-5.553264,0.000000,9185,99998,1,1,P
2,LC684-652A:Phase Voltage C/Terminal i,,,kV,0.00010000000,-5.388565,0.000000,1847,99998,1,1,P
3,LC692-675:Phase Voltage A/Terminal i,,,kV,0.00010000000,-5.636258,0.000000,11156,99998,1,1,P
4,LC692-675:Phase Voltage B/Terminal i,,,kV,0.00010000000,-4.729605,0.000000,509,99998,1,1,P
5,LC692-675:Phase Voltage C/Terminal i,,,kV,0.00010000000,-5.419056,0.000000,2962,99998,1,1,P
6,LOHL632-633:Phase Voltage A/Terminal i,,,kV,0.00010000000,-6.064720,0.000000,20926,99998,1,1,P
7,LOHL632-633:Phase Voltage B/Terminal i,,,kV,0.00010000000,-5.467738,0.000000,13207,99998,1,1,P
8,LOHL632-633:Phase Voltage C/Terminal i,,,kV,0.00010000000,-5.873507,0.000000,14485,99998,1,1,P
9,LOHL645-646:Phase Voltage B/Terminal i,,,kV,0.00010000000,-5.473406,0.000000,13315,99998,1,1,P
10,LOHL645-646:Phase Voltage C/Terminal i,,,kV,0.00010000000,-5.876208,0.000000,14544,99998,1,1,P
50
1
15000.000000,3001
11/11/2020,23:57:47.000000
11/11/2020,23:57:47.000000
ASCII
1.000000
0000000001,0000000000,086204,054166,087042,016647,054421,091578,024299,058534,024393,058550
0000000002,0000000067,086638,053262,087477,017106,053518,092003,024751,057643,024844,057658
0000000003,0000000133,087057,052362,087894,017582,052616,092410,025238,056738,025329,056756
0000000004,0000000200,087450,051461,088288,018077,051716,092798,025725,055849,025816,055868
0000000005,0000000267,087822,050560,088663,018590,050818,093165,026247,054948,026337,054968
0000000006,0000000333,088178,049665,089018,019121,049922,093508,026776,054061,026866,054080
0000000007,0000000400,088511,048772,089351,019671,049030,093835,027328,053169,027415,053189
0000000008,0000000467,088821,047879,089663,020238,048139,094138,027898,052282,027985,052302
0000000009,0000000533,089113,046993,089954,020821,047254,094421,028479,051404,028564,051426
0000000010,0000000600,089382,046112,090224,021421,046372,094683,029082,050524,029167,050546
0000000011,0000000667,089631,045235,090472,022038,045496,094921,029697,049656,029780,049679
0000000012,0000000733,089857,044363,090699,022671,044625,095140,030334,048785,030417,048809
0000000013,0000000800,090061,043498,090903,023319,043761,095336,030980,047929,031062,047954
0000000014,0000000867,090243,042639,091086,023983,042903,095509,031643,047077,031723,047103
0000000015,0000000933,090404,041787,091247,024662,042052,095661,032320,046233,032399,046259
0000000016,0000001000,090543,040943,091386,025355,041209,095792,033012,045396,033090,045423
0000000017,0000001067,090660,040107,091503,026059,040373,095878,033674,044543,033733,044571
0000000018,0000001133,090753,039279,091599,026774,039547,095937,034294,043707,034331,043738
0000000019,0000001200,090827,038460,091670,027498,038728,095969,035018,042859,035051,042890
0000000020,0000001267,090877,037651,091722,028232,037920,096066,035823,042071,035862,042105
0000000021,0000001333,090905,036854,091749,028971,037125,096083,036542,041365,036577,041405
0000000022,0000001400,090909,036063,091756,029721,036336,096111,037344,040575,037374,040611
0000000023,0000001467,090893,035285,091738,030478,035558,096062,038083,039791,038110,039828
0000000024,0000001533,090854,034518,091699,031240,034791,095971,038779,038978,038799,039010
0000000025,0000001600,090792,033763,091636,032015,034037,095904,039600,038239,039620,038275
0000000026,0000001667,090705,033019,091552,032797,033295,095857,040437,037540,040456,037578
0000000027,0000001733,090597,032288,091443,033585,032565,095715,041201,036805,041215,036842
0000000028,0000001800,090465,031570,091311,034380,031848,095545,041948,036081,041953,036117
0000000029,0000001867,090310,030865,091157,035187,031144,095405,042804,035388,042808,035425
0000000030,0000001933,090132,030174,090979,036002,030454,095244,043664,034746,043669,034787
0000000031,0000002000,089931,029497,090778,036821,029779,095032,044459,034091,044457,034133
0000000032,0000002067,089707,028834,090553,037650,029116,094761,045256,033392,045248,033431
0000000033,0000002133,089459,028185,090306,038487,028468,094522,046117,032747,046107,032786
0000000034,0000002200,089189,027553,090036,039331,027837,094270,046992,032164,046979,032207
0000000035,0000002267,088897,026935,089743,040181,027221,093944,047814,031536,047797,031577
0000000036,0000002333,088582,026334,089429,041038,026622,093628,048657,030961,048635,031003
0000000037,0000002400,088245,025749,089093,041902,026039,093311,049555,030420,049530,030466
0000000038,0000002467,087887,025181,088735,042772,025471,092934,050413,029839,050383,029883
0000000039,0000002533,087508,024630,088356,043646,024922,092552,051290,029303,051257,029347
0000000040,0000002600,087109,024098,087956,044523,024391,092137,052138,028795,052100,028840
0000000041,0000002667,086689,023583,087537,045405,023878,091723,053030,028300,052990,028346
0000000042,0000002733,086250,023086,087098,046291,023383,091277,053921,027803,053883,027848
0000000043,0000002800,085792,022610,086640,047179,022908,090826,054814,027367,054776,027414
0000000044,0000002867,085316,022152,086164,048070,022453,090350,055713,026924,055676,026972
0000000045,0000002933,084822,021715,085670,048964,022018,089870,056627,026530,056591,026580
0000000046,0000003000,084310,021299,085159,049858,021603,089349,057506,026128,057472,026177
0000000047,0000003067,083782,020903,084631,050754,021209,088824,058410,025761,058378,025812
0000000048,0000003133,083238,020529,084087,051651,020836,088270,059303,025384,059273,025434
0000000049,0000003200,082678,020176,083527,052549,020486,087714,060205,025062,060177,025112
0000000050,0000003267,082103,019846,082952,053446,020158,087135,061096,024752,061069,024803
0000000051,0000003333,081513,019540,082363,054341,019853,086546,061986,024478,061960,024531
0000000052,0000003400,080910,019255,081759,055235,019571,085929,062865,024202,062839,024254
0000000053,0000003467,080293,018995,081142,056126,019312,085308,063747,023965,063722,024018
0000000054,0000003533,079662,018758,080512,057014,019077,084672,064634,023747,064611,023800
0000000055,0000003600,079019,018545,079869,057896,018866,084003,065480,023525,065456,023577
0000000056,0000003667,078364,018358,079214,058773,018680,083351,066359,023370,066336,023424
0000000057,0000003733,077697,018194,078546,059643,018519,082664,067204,023213,067181,023266
0000000058,0000003800,077018,018056,077867,060504,018382,081968,068044,023080,068021,023134
0000000059,0000003867,076327,017942,077177,061358,018270,081274,068898,022987,068877,023042
0000000060,0000003933,075626,017854,076475,062202,018184,080548,069710,022898,069688,022952
0000000061,0000004000,074913,017792,075763,063035,018123,079830,070537,022856,070516,022912
0000000062,0000004067,074190,017754,075039,063857,018086,079080,071331,022813,071309,022868
0000000063,0000004133,073456,017742,074305,064668,018075,078339,072140,022814,072119,022869
0000000064,0000004200,072712,017755,073561,065466,018090,077580,072924,022839,072904,022895
0000000065,0000004267,071958,017793,072806,066250,018129,076803,073686,022868,073666,022924
0000000066,0000004333,071193,017856,072041,067021,018193,076032,074457,022943,074439,023000
0000000067,0000004400,070418,017943,071266,067777,018281,075231,075187,023022,075168,023078
0000000068,0000004467,069634,018055,070481,068519,018394,074438,075926,023145,075909,023202
0000000069,0000004533,068840,018191,069686,069246,018530,073626,076648,023271,076637,023326
0000000070,0000004600,068036,018351,068882,069959,018691,072822,077372,023447,077368,023504
0000000071,0000004667,067223,018534,068069,070658,018874,071994,078072,023623,078077,023679
0000000072,0000004733,066401,018739,067246,071345,019080,071175,078779,023842,078795,023899
0000000073,0000004800,065570,018967,066415,072018,019308,070335,079449,024070,079473,024126
0000000074,0000004867,064731,019217,065576,072679,019559,069494,080117,024326,080150,024382
0000000075,0000004933,063885,019488,064729,073329,019830,068646,080774,024602,080816,024658
0000000076,0000005000,063031,019781,063875,073967,020123,067787,081404,024898,081454,024954
0000000077,0000005067,062171,020093,063014,074593,020436,066914,082011,025203,082066,025258
0000000078,0000005133,061305,020426,062148,075206,020770,066047,082615,025541,082675,025597
0000000079,0000005200,060435,020779,061277,075806,021123,065169,083194,025892,083259,025947
0000000080,0000005267,059560,021151,060402,076391,021495,064286,083753,026263,083821,026318
0000000081,0000005333,058683,021542,059524,076962,021887,063402,084301,026654,084373,026709
0000000082,0000005400,057803,021951,058644,077515,022297,062519,084835,027068,084911,027123
0000000083,0000005467,056922,022379,057762,078051,022725,061635,085347,027502,085426,027557
0000000084,0000005533,056041,022824,056881,078568,023171,060747,085838,027949,085920,028004
0000000085,0000005600,055160,023287,056000,079065,023635,059859,086304,028414,086389,028469
0000000086,0000005667,054281,023768,055120,079540,024117,058977,086758,028903,086846,028958
0000000087,0000005733,053404,024266,054243,079991,024615,058086,087173,029397,087262,029452
0000000088,0000005800,052530,024780,053369,080419,025131,057209,087578,029922,087667,029977
0000000089,0000005867,051660,025312,052498,080820,025663,056322,087939,030449,088025,030503
0000000090,0000005933,050794,025860,051632,081193,026212,055446,088282,031004,088366,031059
0000000091,0000006000,049933,026424,050770,081538,026777,054574,088600,031571,088681,031625
0000000092,0000006067,049076,027005,049913,081853,027359,053703,088886,032151,088964,032205
0000000093,0000006133,048225,027601,049062,082137,027956,052838,089147,032749,089221,032803
0000000094,0000006200,047379,028214,048215,082388,028569,051980,089377,033366,089445,033420
0000000095,0000006267,046538,028841,047374,082608,029197,051130,089582,034000,089644,034054
0000000096,0000006333,045702,029484,046538,082794,029840,050280,089752,034642,089810,034696
0000000097,0000006400,044872,030141,045707,082948,030498,049442,089902,035307,089955,035361
0000000098,0000006467,044046,030812,044881,083069,031169,048605,090019,035976,090067,036030
0000000099,0000006533,043226,031498,044060,083158,031855,047777,090109,036664,090153,036717
0000000100,0000006600,042410,032196,043244,083216,032554,046956,090175,037365,090215,037417
0000000101,0000006667,041598,032908,042431,083243,033265,046148,090222,038087,090260,038140
0000000102,0000006733,040790,033632,041623,083242,033989,045340,090235,038816,090270,038869
0000000103,0000006800,039987,034367,040819,083213,034724,044538,090223,039552,090255,039603
0000000104,0000006867,039188,035114,040020,083158,035471,043746,090190,040306,090220,040357
0000000105,0000006933,038393,035871,039224,083078,036227,042960,090135,041069,090162,041120
0000000106,0000007000,037603,036638,038433,082976,036994,042185,090061,041846,090086,041897
0000000107,0000007067,036818,037414,037647,082853,037769,041415,089962,042629,089985,042679
0000000108,0000007133,036038,038198,036867,082709,038553,040650,089840,043417,089861,043466
0000000109,0000007200,035265,038990,036093,082547,039345,039899,089704,044220,089724,044269
0000000110,0000007267,034498,039789,035326,082368,040144,039159,089552,045033,089570,045081
0000000111,0000007333,033741,040595,034568,082173,040949,038425,089377,045847,089394,045895
0000000112,0000007400,032992,041406,033819,081963,041760,037703,089185,046669,089200,046716
0000000113,0000007467,032255,042223,033081,081739,042577,036994,088977,047498,088991,047545
0000000114,0000007533,031529,043045,032355,081500,043398,036300,088754,048335,088767,048382
0000000115,0000007600,030817,043871,031643,081249,044225,035620,088517,049178,088530,049224
0000000116,0000007667,030121,044702,030946,080984,045055,034956,088263,050025,088275,050070
0000000117,0000007733,029441,045535,030266,080706,045889,034306,087988,050874,088000,050918
0000000118,0000007800,028780,046373,029604,080414,046727,033672,087696,051725,087706,051769
0000000119,0000007867,028138,047214,028962,080108,047568,033058,087389,052581,087397,052624
0000000120,0000007933,027519,048057,028342,079788,048412,032466,087066,053443,087074,053485
0000000121,0000008000,026922,048904,027745,079453,049259,031895,086727,054308,086734,054350
0000000122,0000008067,026349,049754,027172,079102,050110,031346,086370,055176,086377,055217
0000000123,0000008133,025801,050606,026624,078734,050963,030819,085996,056045,086002,056085
0000000124,0000008200,025280,051462,026103,078350,051819,030315,085604,056916,085610,056956
0000000125,0000008267,024785,052321,025608,077948,052679,029835,085193,057789,085199,057828
0000000126,0000008333,024318,053182,025141,077527,053541,029380,084764,058664,084771,058702
0000000127,0000008400,023879,054047,024702,077089,054407,028951,084318,059542,084326,059579
0000000128,0000008467,023468,054915,024291,076631,055276,028548,083856,060422,083865,060459
0000000129,0000008533,023085,055786,023908,076154,056148,028171,083374,061305,083385,061342
0000000130,0000008600,022729,056661,023552,075658,057022,027816,082872,062186,082884,062222
0000000131,0000008667,022401,057538,023224,075143,057900,027486,082351,063066,082365,063100
0000000132,0000008733,022100,058418,022923,074610,058781,027181,081812,063947,081829,063981
0000000133,0000008800,021825,059301,022648,074058,059664,026902,081257,064830,081276,064863
0000000134,0000008867,021575,060186,022398,073488,060549,026647,080686,065713,080707,065746
0000000135,0000008933,021350,061074,022172,072901,061436,026415,080099,066595,080123,066627
0000000136,0000009000,021148,061963,021970,072297,062325,026206,079494,067476,079521,067507
0000000137,0000009067,020969,062853,021791,071678,063215,026019,078874,068354,078904,068384
0000000138,0000009133,020812,063744,021633,071043,064104,025853,078238,069229,078271,069259
0000000139,0000009200,020676,064634,021497,070395,064993,025708,077588,070101,077624,070129
0000000140,0000009267,020559,065523,021380,069733,065881,025584,076925,070969,076965,070996
0000000141,0000009333,020462,066410,021282,069059,066767,025481,076250,071835,076293,071861
0000000142,0000009400,020384,067295,021204,068373,067649,025400,075565,072696,075612,072721
0000000143,0000009467,020325,068175,021144,067677,068527,025338,074867,073548,074918,073573
0000000144,0000009533,020284,069049,021102,066970,069400,025293,074155,074393,074210,074417
0000000145,0000009600,020260,069918,021078,066254,070266,025268,073434,075230,073492,075253
0000000146,0000009667,020255,070779,021071,065529,071124,025263,072703,076057,072766,076080
0000000147,0000009733,020267,071630,021083,064796,071974,025280,071966,076878,072032,076900
0000000148,0000009800,020298,072472,021113,064055,072812,025313,071215,077685,071286,077705
0000000149,0000009867,020347,073302,021162,063306,073640,025368,070458,078481,070533,078501
0000000150,0000009933,020416,074120,021230,062550,074454,025443,069693,079265,069772,079284
0000000151,0000010000,020504,074923,021318,061786,075255,025540,068920,080035,069003,080053
0000000152,0000010067,020613,075711,021425,061015,076040,025656,068138,080791,068225,080808
0000000153,0000010133,020742,076483,021554,060237,076809,025794,067349,081531,067440,081548
0000000154,0000010200,020893,077237,021704,059451,077561,025954,066551,082254,066647,082270
0000000155,0000010267,021065,077972,021876,058657,078294,026135,065745,082960,065844,082975
0000000156,0000010333,021261,078688,022071,057856,079007,026339,064931,083648,065034,083663
0000000157,0000010400,021479,079384,022289,057046,079701,026564,064110,084318,064216,084331
0000000158,0000010467,021721,080058,022530,056229,080373,026813,063281,084967,063391,084979
0000000159,0000010533,021986,080711,022795,055403,081023,027087,062449,085600,062563,085613
0000000160,0000010600,022275,081341,023084,054569,081651,027380,061606,086208,061724,086219
0000000161,0000010667,022587,081948,023396,053727,082257,027699,060760,086800,060882,086810
0000000162,0000010733,022923,082532,023732,052877,082839,028040,059907,087369,060034,087379
0000000163,0000010800,023283,083092,024091,052020,083398,028402,059046,087915,059177,087924
0000000164,0000010867,023665,083628,024473,051156,083933,028789,058185,088443,058321,088451
0000000165,0000010933,024069,084141,024878,050285,084444,029194,057313,088945,057453,088953
0000000166,0000011000,024495,084629,025303,049408,084932,029622,056438,089427,056582,089434
0000000167,0000011067,024941,085094,025750,048525,085396,030064,055545,089884,055687,089891
0000000168,0000011133,025407,085535,026216,047636,085836,030526,054649,090317,054789,090323
0000000169,0000011200,025891,085953,026701,046741,086253,031010,053755,090732,053895,090738
0000000170,0000011267,026394,086347,027203,045842,086647,031508,052849,091120,052986,091125
0000000171,0000011333,026912,086718,027722,044937,087018,032025,051944,091488,052078,091492
0000000172,0000011400,027447,087067,028257,044028,087366,032560,051039,091835,051172,091840
0000000173,0000011467,027996,087393,028806,043116,087692,033110,050134,092160,050265,092164
0000000174,0000011533,028558,087697,029369,042200,087995,033675,049229,092463,049359,092466
0000000175,0000011600,029132,087979,029943,041282,088276,034255,048325,092744,048454,092747
0000000176,0000011667,029719,088239,030530,040364,088536,034850,047425,093005,047553,093008
0000000177,0000011733,030315,088478,031127,039446,088774,035459,046527,093246,046656,093249
0000000178,0000011800,030922,088695,031734,038529,088991,036078,045632,093464,045760,093466
0000000179,0000011867,031538,088892,032350,037615,089187,036710,044742,093661,044870,093663
0000000180,0000011933,032163,089067,032975,036705,089361,037353,043859,093838,043987,093839
0000000181,0000012000,032797,089222,033609,035801,089515,038007,042980,093991,043107,093991
0000000182,0000012067,033439,089356,034252,034904,089648,038673,042112,094125,042239,094125
0000000183,0000012133,034090,089469,034902,034015,089759,039349,041250,094238,041377,094238
0000000184,0000012200,034749,089561,035562,033135,089850,040035,040398,094328,040525,094328
0000000185,0000012267,035417,089632,036230,032266,089920,040731,039556,094396,039683,094396
0000000186,0000012333,036094,089682,036907,031409,089968,041437,038725,094443,038851,094442
0000000187,0000012400,036781,089710,037595,030564,089995,042155,037906,094470,038033,094468
0000000188,0000012467,037479,089718,038292,029733,090001,042883,037099,094473,037226,094471
0000000189,0000012533,038187,089704,039000,028917,089986,043621,036306,094455,036432,094453
0000000190,0000012600,038907,089668,039720,028115,089949,044372,035528,094416,035653,094414
0000000191,0000012667,039638,089611,040452,027330,089890,045132,034763,094353,034888,094351
0000000192,0000012733,040383,089532,041196,026562,089809,045904,034012,094270,034138,094267
0000000193,0000012800,041140,089431,041954,025811,089707,046688,033278,094164,033403,094161
0000000194,0000012867,041912,089308,042726,025076,089583,047477,032542,094032,032659,094029
0000000195,0000012933,042697,089164,043511,024358,089438,048276,031817,093876,031925,093873
0000000196,0000013000,043497,088998,044311,023656,089270,049087,031106,093698,031205,093696
0000000197,0000013067,044311,088810,045125,022969,089081,049910,030412,093500,030501,093497
0000000198,0000013133,045139,088600,045954,022297,088871,050744,029736,093278,029816,093276
0000000199,0000013200,045981,088369,046796,021640,088639,051592,029081,093039,029155,093037
0000000200,0000013267,046836,088117,047652,020998,088386,052452,028443,092779,028512,092777
0000000201,0000013333,047704,087844,048520,020370,088111,053320,027820,092496,027883,092494
0000000202,0000013400,048584,087550,049400,019758,087817,054197,027213,092193,027271,092191
0000000203,0000013467,049474,087235,050290,019161,087501,055084,026626,091870,026678,091869
