DIgSILENT PowerFactory,20000410,2000
10,10A,00D
1,LC684-652A:Phase Voltage A/Terminal i,,,kV,0.00010000000,-4.542074,0.000000,-7831,99998,1,1,P
2,LC684-652A:Phase Voltage C/Terminal i,,,kV,0.00010000000,-5.179110,0.000000,-6148,99998,1,1,P
3,LC692-675:Phase Voltage A/Terminal i,,,kV,0.00010000000,-4.550211,0.000000,-7719,99998,1,1,P
4,LC692-675:Phase Voltage B/Terminal i,,,kV,0.00010000000,-4.471679,0.000000,-33924,99998,1,1,P
5,LC692-675:Phase Voltage C/Terminal i,,,kV,0.00010000000,-5.205883,0.000000,-5305,99998,1,1,P
6,LOHL632-633:Phase Voltage A/Terminal i,,,kV,0.00010000000,-5.445208,0.000000,8949,99998,1,1,P
7,LOHL632-633:Phase Voltage B/Terminal i,,,kV,0.00010000000,-5.432699,0.000000,-5138,99998,1,1,P
8,LOHL632-633:Phase Voltage C/Terminal i,,,kV,0.00010000000,-5.759780,0.000000,11206,99998,1,1,P
9,LOHL645-646:Phase Voltage B/Terminal i,,,kV,0.00010000000,-5.445300,0.000000,-4850,99998,1,1,P
10,LOHL645-646:Phase Voltage C/Terminal i,,,kV,0.00010000000,-5.762379,0.000000,11268,99998,1,1,P
50
1
15000.000000,3001
11/11/2020,22:33:49.000000
11/11/2020,22:33:49.000000
ASCII
1.000000
0000000001,0000000000,076092,052071,076182,014068,052288,085383,023949,057397,024111,057412
0000000002,0000000067,076526,051167,076617,014526,051386,085808,024401,056506,024563,056521
0000000003,0000000133,076944,050267,077033,015003,050485,086215,024887,055601,025048,055617
0000000004,0000000200,077338,049367,077428,015498,049585,086603,025375,054712,025535,054730
0000000005,0000000267,077710,048465,077803,016011,048686,086970,025897,053811,026056,053830
0000000006,0000000333,078066,047570,078157,016542,047791,087314,026427,052922,026584,052941
0000000007,0000000400,078399,046677,078490,017091,046898,087638,026976,052033,027134,052053
0000000008,0000000467,078710,045785,078802,017658,046008,087944,027542,051149,027697,051169
0000000009,0000000533,079001,044899,079094,018241,045122,088226,028127,050267,028282,050289
0000000010,0000000600,079271,044018,079364,018842,044241,088486,028730,049389,028884,049411
0000000011,0000000667,079518,043140,079612,019459,043365,088726,029347,048517,029501,048540
0000000012,0000000733,079744,042269,079838,020092,042494,088944,029982,047649,030135,047673
0000000013,0000000800,079950,041404,080043,020740,041629,089141,030632,046790,030782,046813
0000000014,0000000867,080132,040545,080226,021404,040771,089315,031295,045937,031445,045962
0000000015,0000000933,080291,039692,080387,022083,039920,089466,031973,045092,032122,045117
0000000016,0000001000,080430,038848,080526,022776,039077,089596,032664,044256,032812,044283
0000000017,0000001067,080548,038012,080643,023480,038242,089681,033318,043405,033447,043432
0000000018,0000001133,080642,037185,080739,024194,037417,089750,033941,042583,034044,042613
0000000019,0000001200,080715,036365,080810,024920,036596,089790,034695,041710,034794,041734
0000000020,0000001267,080766,035557,080860,025650,035789,089821,035388,040960,035489,040991
0000000021,0000001333,080792,034756,080889,026392,034989,089857,036168,040119,036265,040142
0000000022,0000001400,080799,033969,080895,027140,034203,089851,036904,039384,036997,039415
0000000023,0000001467,080781,033190,080878,027899,033426,089852,037730,038628,037828,038663
0000000024,0000001533,080741,032423,080839,028665,032660,089835,038540,037895,038636,037930
0000000025,0000001600,080679,031669,080776,029435,031907,089739,039269,037165,039359,037201
0000000026,0000001667,080593,030924,080691,030217,031162,089637,040057,036365,040143,036399
0000000027,0000001733,080485,030194,080582,031004,030434,089497,040807,035663,040887,035699
0000000028,0000001800,080353,029475,080451,031802,029716,089364,041625,034937,041701,034970
0000000029,0000001867,080199,028771,080296,032609,029012,089230,042496,034279,042574,034318
0000000030,0000001933,080020,028079,080118,033422,028322,089031,043286,033582,043356,033619
0000000031,0000002000,079820,027403,079917,034241,027646,088798,044062,032907,044126,032945
0000000032,0000002067,079595,026739,079693,035071,026983,088576,044921,032239,044983,032276
0000000033,0000002133,079347,026091,079446,035908,026338,088363,045810,031657,045872,031699
0000000034,0000002200,079078,025459,079176,036751,025706,088064,046622,031038,046679,031080
0000000035,0000002267,078785,024840,078883,037602,025089,087751,047465,030392,047517,030432
0000000036,0000002333,078470,024239,078569,038459,024490,087441,048319,029833,048366,029876
0000000037,0000002400,078133,023655,078232,039324,023907,087118,049217,029282,049263,029327
0000000038,0000002467,077775,023086,077874,040193,023340,086740,050068,028706,050109,028749
0000000039,0000002533,077396,022536,077496,041066,022791,086370,050944,028196,050981,028243
0000000040,0000002600,076997,022003,077096,041945,022259,085963,051821,027658,051854,027703
0000000041,0000002667,076577,021488,076677,042826,021747,085542,052697,027187,052727,027235
0000000042,0000002733,076138,020992,076238,043712,021252,085108,053598,026701,053631,026749
0000000043,0000002800,075680,020516,075780,044600,020777,084648,054487,026254,054521,026302
0000000044,0000002867,075204,020058,075304,045491,020321,084153,055366,025784,055399,025830
0000000045,0000002933,074710,019621,074810,046383,019886,083658,056246,025374,056278,025421
0000000046,0000003000,074198,019204,074298,047279,019471,083160,057173,024990,057210,025039
0000000047,0000003067,073670,018809,073770,048175,019078,082633,058069,024627,058107,024677
0000000048,0000003133,073126,018434,073226,049072,018705,082075,058951,024250,058990,024298
0000000049,0000003200,072566,018082,072666,049970,018354,081519,059856,023921,059897,023971
0000000050,0000003267,071991,017752,072091,050866,018026,080925,060728,023605,060769,023654
0000000051,0000003333,071401,017445,071502,051763,017721,080353,061648,023341,061692,023392
0000000052,0000003400,070798,017161,070899,052656,017439,079738,062519,023072,062563,023124
0000000053,0000003467,070181,016900,070281,053547,017180,079098,063382,022807,063426,022858
0000000054,0000003533,069550,016664,069651,054434,016946,078478,064277,022612,064323,022665
0000000055,0000003600,068907,016451,069008,055316,016735,077808,065125,022391,065170,022442
0000000056,0000003667,068252,016263,068353,056193,016549,077143,065992,022224,066037,022276
0000000057,0000003733,067585,016100,067686,057063,016387,076469,066853,022076,066899,022129
0000000058,0000003800,066906,015961,067007,057926,016250,075783,067709,021954,067756,022008
0000000059,0000003867,066215,015848,066316,058779,016139,075073,068539,021845,068586,021898
0000000060,0000003933,065514,015760,065615,059623,016052,074362,069368,021775,069416,021829
0000000061,0000004000,064801,015697,064902,060456,015991,073632,070188,021715,070236,021769
0000000062,0000004067,064078,015660,064179,061278,015955,072891,070988,021682,071037,021737
0000000063,0000004133,063344,015647,063445,062089,015943,072139,071782,021670,071831,021724
0000000064,0000004200,062600,015660,062700,062886,015958,071382,072570,021693,072619,021748
0000000065,0000004267,061846,015699,061945,063671,015997,070608,073337,021733,073386,021788
0000000066,0000004333,061081,015762,061181,064441,016061,069833,074100,021805,074151,021861
0000000067,0000004400,060306,015849,060406,065198,016149,069043,074845,021896,074896,021951
0000000068,0000004467,059522,015961,059621,065939,016262,068237,075566,022000,075617,022056
0000000069,0000004533,058728,016097,058826,066666,016399,067430,076293,022137,076351,022192
0000000070,0000004600,057924,016256,058022,067380,016559,066625,077020,022310,077085,022366
0000000071,0000004667,057111,016439,057208,068079,016742,065804,077728,022491,077804,022547
0000000072,0000004733,056289,016645,056386,068765,016948,064981,078427,022709,078512,022765
0000000073,0000004800,055458,016873,055555,069439,017177,064148,079109,022940,079204,022996
0000000074,0000004867,054620,017122,054716,070101,017427,063303,079775,023192,079879,023247
0000000075,0000004933,053773,017394,053869,070750,017698,062443,080412,023456,080523,023510
0000000076,0000005000,052919,017686,053014,071388,017991,061584,081047,023748,081166,023803
0000000077,0000005067,052059,017999,052154,072014,018305,060725,081667,024072,081792,024127
0000000078,0000005133,051194,018332,051288,072627,018638,059846,082258,024395,082386,024449
0000000079,0000005200,050323,018684,050417,073226,018991,058972,082840,024756,082973,024811
0000000080,0000005267,049448,019056,049542,073812,019364,058098,083414,025133,083552,025188
0000000081,0000005333,048571,019447,048664,074382,019755,057213,083958,025526,084100,025581
0000000082,0000005400,047691,019856,047783,074936,020165,056324,084485,025930,084630,025984
0000000083,0000005467,046810,020284,046902,075472,020593,055436,084991,026360,085139,026414
0000000084,0000005533,045929,020730,046020,075989,021039,054552,085488,026811,085640,026865
0000000085,0000005600,045048,021193,045139,076486,021503,053669,085960,027284,086114,027338
0000000086,0000005667,044169,021673,044260,076961,021985,052780,086406,027764,086562,027818
0000000087,0000005733,043292,022171,043383,077412,022484,051899,086832,028269,086991,028323
0000000088,0000005800,042418,022686,042509,077839,022999,051012,087225,028782,087383,028836
0000000089,0000005867,041548,023217,041638,078240,023531,050126,087588,029311,087743,029364
0000000090,0000005933,040682,023765,040772,078614,024080,049253,087935,029868,088088,029922
0000000091,0000006000,039821,024330,039910,078959,024646,048379,088250,030435,088400,030489
0000000092,0000006067,038964,024910,039053,079273,025227,047506,088535,031012,088681,031065
0000000093,0000006133,038113,025507,038201,079557,025824,046648,088803,031620,088946,031673
0000000094,0000006200,037267,026119,037355,079809,026437,045787,089029,032232,089167,032286
0000000095,0000006267,036426,026747,036514,080029,027065,044934,089229,032863,089361,032916
0000000096,0000006333,035590,027389,035678,080215,027708,044087,089403,033508,089529,033561
0000000097,0000006400,034760,028046,034847,080369,028366,043246,089549,034167,089671,034220
0000000098,0000006467,033935,028718,034021,080490,029038,042410,089668,034839,089786,034892
0000000099,0000006533,033114,029403,033200,080579,029723,041582,089759,035526,089873,035578
0000000100,0000006600,032298,030102,032383,080637,030422,040761,089825,036228,089935,036280
0000000101,0000006667,031486,030813,031571,080664,031134,039949,089865,036945,089972,036996
0000000102,0000006733,030679,031537,030763,080663,031857,039146,089886,037678,089990,037729
0000000103,0000006800,029875,032273,029959,080634,032593,038343,089872,038416,089973,038466
0000000104,0000006867,029076,033019,029159,080579,033339,037552,089842,039169,089940,039219
0000000105,0000006933,028281,033776,028364,080499,034096,036768,089787,039935,089884,039985
0000000106,0000007000,027491,034543,027573,080397,034862,035988,089708,040705,089802,040755
0000000107,0000007067,026706,035319,026787,080273,035638,035218,089609,041489,089701,041538
0000000108,0000007133,025926,036103,026007,080130,036422,034459,089495,042285,089585,042333
0000000109,0000007200,025153,036895,025233,079968,037213,033706,089358,043086,089446,043134
0000000110,0000007267,024387,037694,024466,079789,038012,032960,089197,043890,089284,043937
0000000111,0000007333,023629,038500,023707,079594,038817,032228,089024,044707,089109,044754
0000000112,0000007400,022880,039312,022959,079384,039628,031507,088833,045531,088918,045578
0000000113,0000007467,022143,040129,022220,079160,040445,030801,088630,046365,088714,046411
0000000114,0000007533,021417,040950,021494,078921,041267,030103,088403,047196,088486,047241
0000000115,0000007600,020705,041777,020782,078669,042093,029424,088165,048040,088247,048085
0000000116,0000007667,020009,042607,020085,078404,042923,028759,087909,048885,087990,048930
0000000117,0000007733,019329,043441,019405,078126,043757,028109,087636,049734,087717,049777
0000000118,0000007800,018668,044278,018743,077835,044595,027479,087349,050590,087429,050633
0000000119,0000007867,018026,045119,018102,077529,045436,026863,087038,051444,087116,051486
0000000120,0000007933,017407,045963,017482,077209,046280,026273,086717,052308,086794,052350
0000000121,0000008000,016810,046809,016885,076873,047127,025699,086375,053169,086452,053210
0000000122,0000008067,016237,047659,016312,076522,047978,025150,086019,054037,086095,054077
0000000123,0000008133,015689,048512,015764,076155,048831,024624,085646,054908,085721,054947
0000000124,0000008200,015168,049368,015242,075771,049688,024118,085251,055777,085326,055816
0000000125,0000008267,014673,050226,014748,075369,050547,023642,084845,056654,084921,056692
0000000126,0000008333,014206,051088,014281,074948,051410,023185,084414,057526,084491,057564
0000000127,0000008400,013767,051953,013842,074509,052275,022757,083970,058407,084047,058443
0000000128,0000008467,013356,052821,013430,074052,053144,022353,083504,059285,083583,059321
0000000129,0000008533,012973,053692,013047,073575,054016,021973,083021,060164,083101,060200
0000000130,0000008600,012618,054566,012692,073079,054891,021621,082522,061048,082604,061082
0000000131,0000008667,012290,055443,012364,072564,055768,021290,081999,061927,082083,061961
0000000132,0000008733,011988,056324,012063,072031,056649,020988,081464,062813,081550,062846
0000000133,0000008800,011713,057207,011787,071479,057532,020707,080908,063693,080996,063725
0000000134,0000008867,011464,058092,011537,070909,058417,020452,080337,064576,080427,064607
0000000135,0000008933,011238,058979,011312,070322,059305,020220,079748,065458,079842,065489
0000000136,0000009000,011036,059868,011110,069718,060193,020009,079141,066337,079237,066366
0000000137,0000009067,010857,060759,010931,069099,061083,019824,078524,067218,078623,067246
0000000138,0000009133,010700,061649,010773,068464,061972,019656,077887,068090,077989,068118
0000000139,0000009200,010564,062540,010636,067816,062862,019514,077239,068965,077345,068992
0000000140,0000009267,010447,063429,010519,067154,063750,019390,076576,069834,076685,069860
0000000141,0000009333,010351,064316,010422,066479,064635,019287,075900,070697,076013,070723
0000000142,0000009400,010273,065200,010344,065794,065518,019205,075214,071558,075331,071582
0000000143,0000009467,010213,066080,010283,065097,066396,019140,074513,072408,074633,072432
0000000144,0000009533,010172,066955,010241,064391,067268,019098,073805,073257,073929,073280
0000000145,0000009600,010148,067823,010217,063675,068134,019073,073083,074092,073211,074114
0000000146,0000009667,010143,068684,010211,062950,068993,019069,072354,074922,072486,074943
0000000147,0000009733,010155,069536,010223,062217,069842,019085,071615,075741,071751,075762
0000000148,0000009800,010186,070378,010253,061476,070681,019118,070865,076548,071005,076567
0000000149,0000009867,010236,071208,010302,060727,071508,019175,070110,077346,070254,077365
0000000150,0000009933,010304,072025,010370,059971,072323,019248,069342,078127,069491,078145
0000000151,0000010000,010392,072828,010457,059207,073123,019345,068570,078899,068723,078916
0000000152,0000010067,010501,073616,010565,058436,073909,019461,067787,079654,067944,079670
0000000153,0000010133,010630,074388,010694,057658,074678,019600,066999,080394,067160,080410
0000000154,0000010200,010781,075142,010844,056872,075429,019759,066202,081118,066367,081132
0000000155,0000010267,010953,075878,011016,056078,076162,019939,065393,081821,065561,081835
0000000156,0000010333,011149,076594,011211,055276,076876,020142,064579,082509,064751,082522
0000000157,0000010400,011367,077289,011428,054467,077569,020368,063758,083179,063934,083192
0000000158,0000010467,011609,077964,011670,053649,078241,020617,062930,083830,063110,083841
0000000159,0000010533,011874,078616,011934,052824,078891,020891,062099,084462,062282,084474
0000000160,0000010600,012163,079246,012223,051990,079520,021185,061256,085071,061443,085081
0000000161,0000010667,012475,079853,012536,051148,080125,021504,060410,085662,060602,085672
0000000162,0000010733,012812,080437,012872,050298,080707,021845,059556,086231,059753,086240
0000000163,0000010800,013171,080997,013231,049441,081266,022208,058697,086779,058898,086787
0000000164,0000010867,013553,081533,013613,048577,081801,022593,057832,087304,058037,087312
0000000165,0000010933,013957,082046,014017,047706,082313,022999,056963,087808,057172,087815
0000000166,0000011000,014383,082535,014443,046828,082800,023426,056087,088290,056300,088296
0000000167,0000011067,014829,082999,014889,045945,083264,023869,055194,088746,055406,088752
0000000168,0000011133,015295,083441,015355,045056,083705,024332,054300,089181,054510,089187
0000000169,0000011200,015779,083858,015840,044162,084122,024815,053404,089594,053614,089598
0000000170,0000011267,016282,084252,016343,043262,084515,025313,052498,089983,052705,089987
0000000171,0000011333,016801,084624,016862,042358,084886,025830,051593,090351,051797,090354
0000000172,0000011400,017335,084972,017396,041449,085234,026364,050688,090698,050891,090701
0000000173,0000011467,017884,085298,017946,040536,085560,026914,049783,091022,049983,091025
0000000174,0000011533,018446,085602,018508,039621,085863,027480,048879,091326,049078,091328
0000000175,0000011600,019021,085884,019083,038703,086145,028061,047976,091608,048175,091610
0000000176,0000011667,019607,086144,019669,037785,086404,028655,047074,091868,047272,091870
0000000177,0000011733,020203,086383,020266,036866,086642,029263,046176,092109,046374,092110
0000000178,0000011800,020810,086601,020873,035950,086859,029883,045282,092327,045479,092328
0000000179,0000011867,021426,086797,021490,035036,087055,030514,044392,092524,044589,092524
0000000180,0000011933,022051,086973,022115,034126,087230,031158,043508,092700,043705,092700
0000000181,0000012000,022685,087128,022749,033222,087383,031813,042631,092854,042828,092854
0000000182,0000012067,023327,087261,023391,032325,087516,032477,041760,092987,041957,092986
0000000183,0000012133,023978,087374,024042,031435,087628,033153,040899,093100,041096,093099
0000000184,0000012200,024637,087466,024701,030556,087718,033839,040047,093190,040243,093189
0000000185,0000012267,025305,087537,025369,029687,087788,034535,039205,093259,039401,093257
0000000186,0000012333,025982,087587,026047,028829,087836,035243,038375,093306,038571,093304
0000000187,0000012400,026670,087616,026734,027985,087864,035960,037556,093332,037751,093330
0000000188,0000012467,027367,087623,027431,027154,087869,036687,036749,093335,036944,093333
0000000189,0000012533,028075,087609,028140,026337,087854,037427,035956,093318,036152,093315
0000000190,0000012600,028795,087574,028859,025536,087817,038176,035177,093278,035372,093275
0000000191,0000012667,029526,087516,029591,024751,087758,038937,034412,093216,034607,093213
0000000192,0000012733,030271,087437,030336,023983,087678,039710,033663,093133,033857,093129
0000000193,0000012800,031028,087336,031094,023231,087576,040493,032928,093026,033121,093023
0000000194,0000012867,031800,087214,031865,022497,087452,041282,032191,092894,032377,092890
0000000195,0000012933,032585,087069,032651,021779,087306,042082,031467,092739,031645,092736
0000000196,0000013000,033385,086903,033451,021077,087139,042892,030756,092561,030923,092558
0000000197,0000013067,034199,086715,034265,020390,086949,043714,030061,092361,030219,092358
0000000198,0000013133,035027,086506,035093,019718,086739,044550,029386,092142,029536,092139
0000000199,0000013200,035869,086275,035935,019061,086507,045397,028731,091902,028875,091899
0000000200,0000013267,036724,086022,036791,018419,086254,046256,028092,091640,028230,091637
0000000201,0000013333,037592,085749,037659,017791,085980,047125,027470,091359,027602,091356
0000000202,0000013400,038472,085455,038539,017179,085685,048002,026863,091056,026990,091053
0000000203,0000013467,039362,085141,039430,016582,085370,048888,026275,090733,026396,090730
