DIgSILENT PowerFactory,20000410,2000
10,10A,00D
1,LC684-652A:Phase Voltage A/Terminal i,,,kV,0.00010000000,-5.897764,0.000000,18678,99998,1,1,P
2,LC684-652A:Phase Voltage C/Terminal i,,,kV,0.00010000000,-5.771093,0.000000,-8380,99998,1,1,P
3,LC692-675:Phase Voltage A/Terminal i,,,kV,0.00010000000,-5.896392,0.000000,18535,99998,1,1,P
4,LC692-675:Phase Voltage B/Terminal i,,,kV,0.00010000000,-3.863212,0.000000,-6941,99998,1,1,P
5,LC692-675:Phase Voltage C/Terminal i,,,kV,0.00010000000,-5.803870,0.000000,-7700,99998,1,1,P
6,LOHL632-633:Phase Voltage A/Terminal i,,,kV,0.00010000000,-6.158705,0.000000,23416,99998,1,1,P
7,LOHL632-633:Phase Voltage B/Terminal i,,,kV,0.00010000000,-4.824568,0.000000,2296,99998,1,1,P
8,LOHL632-633:Phase Voltage C/Terminal i,,,kV,0.00010000000,-6.181993,0.000000,8660,99998,1,1,P
9,LOHL645-646:Phase Voltage B/Terminal i,,,kV,0.00010000000,-4.830935,0.000000,2432,99998,1,1,P
10,LOHL645-646:Phase Voltage C/Terminal i,,,kV,0.00010000000,-6.184564,0.000000,8685,99998,1,1,P
50
1
15000.000000,3001
11/11/2020,23:21:05.000000
11/11/2020,23:21:05.000000
ASCII
1.000000
0000000001,0000000000,089649,057991,089644,007983,058270,092518,017868,061619,017968,061634
0000000002,0000000067,090086,057087,090080,008442,057365,092944,018320,060727,018421,060740
0000000003,0000000133,090497,056184,090494,008919,056464,093352,018804,059824,018902,059839
0000000004,0000000200,090897,055287,090890,009414,055564,093737,019299,058929,019397,058946
0000000005,0000000267,091266,054386,091264,009926,054667,094102,019811,058038,019907,058055
0000000006,0000000333,091623,053489,091619,010458,053771,094450,020349,057140,020445,057159
0000000007,0000000400,091955,052596,091952,011007,052878,094774,020893,056257,020988,056276
0000000008,0000000467,092266,051705,092264,011573,051988,095078,021461,055371,021556,055391
0000000009,0000000533,092559,050820,092555,012157,051102,095360,022047,054488,022140,054509
0000000010,0000000600,092828,049937,092825,012757,050221,095622,022651,053610,022743,053631
0000000011,0000000667,093076,049060,093074,013374,049344,095862,023268,052737,023359,052760
0000000012,0000000733,093302,048189,093300,014007,048474,096080,023902,051870,023992,051893
0000000013,0000000800,093506,047324,093505,014656,047609,096275,024550,051012,024639,051036
0000000014,0000000867,093688,046464,093688,015319,046751,096449,025213,050161,025300,050185
0000000015,0000000933,093850,045612,093849,015998,045900,096601,025890,049316,025976,049341
0000000016,0000001000,093989,044769,093987,016691,045057,096732,026581,048480,026666,048506
0000000017,0000001067,094105,043932,094104,017395,044222,096817,027240,047628,027307,047655
0000000018,0000001133,094199,043105,094200,018109,043396,096887,027870,046807,027911,046835
0000000019,0000001200,094272,042285,094272,018836,042576,096923,028614,045937,028656,045964
0000000020,0000001267,094322,041476,094322,019566,041768,096966,029331,045153,029367,045180
0000000021,0000001333,094350,040677,094351,020308,040970,096999,030085,044366,030121,044395
0000000022,0000001400,094355,039888,094357,021058,040182,097011,030892,043616,030928,043646
0000000023,0000001467,094338,039111,094340,021814,039406,096999,031647,042872,031682,042908
0000000024,0000001533,094298,038343,094301,022578,038640,096968,032432,042124,032465,042160
0000000025,0000001600,094236,037588,094238,023350,037886,096867,033172,041365,033199,041401
0000000026,0000001667,094151,036845,094152,024130,037144,096743,033928,040604,033948,040637
0000000027,0000001733,094042,036113,094044,024921,036412,096660,034777,039873,034798,039907
0000000028,0000001800,093910,035396,093913,025719,035697,096534,035603,039217,035622,039256
0000000029,0000001867,093755,034691,093758,026523,034993,096364,036379,038516,036392,038555
0000000030,0000001933,093577,033999,093580,027336,034302,096161,037178,037813,037185,037850
0000000031,0000002000,093376,033323,093379,028158,033627,095972,038044,037175,038051,037216
0000000032,0000002067,093152,032659,093154,028986,032964,095705,038830,036481,038830,036519
0000000033,0000002133,092904,032011,092907,029823,032316,095470,039697,035842,039694,035881
0000000034,0000002200,092634,031378,092638,030668,031686,095220,040578,035259,040574,035301
0000000035,0000002267,092341,030761,092345,031517,031070,094910,041398,034663,041388,034706
0000000036,0000002333,092027,030159,092030,032376,030470,094583,042268,034054,042255,034096
0000000037,0000002400,091690,029574,091694,033238,029886,094231,043094,033482,043075,033525
0000000038,0000002467,091332,029006,091336,034107,029320,093871,043972,032936,043950,032980
0000000039,0000002533,090953,028455,090957,034981,028770,093484,044837,032389,044810,032433
0000000040,0000002600,090553,027922,090558,035861,028239,093101,045743,031890,045713,031935
0000000041,0000002667,090134,027408,090138,036742,027727,092674,046614,031403,046582,031450
0000000042,0000002733,089695,026912,089700,037627,027231,092225,047499,030898,047468,030943
0000000043,0000002800,089237,026435,089242,038516,026756,091786,048420,030467,048392,030514
0000000044,0000002867,088761,025978,088766,039406,026301,091293,049282,030018,049252,030065
0000000045,0000002933,088267,025541,088272,040300,025866,090808,050194,029610,050165,029658
0000000046,0000003000,087755,025124,087760,041194,025450,090280,051075,029192,051047,029239
0000000047,0000003067,087227,024728,087232,042091,025058,089770,051993,028848,051969,028898
0000000048,0000003133,086683,024354,086688,042988,024685,089225,052891,028489,052869,028538
0000000049,0000003200,086123,024002,086128,043885,024335,088660,053780,028160,053759,028210
0000000050,0000003267,085548,023672,085553,044782,024006,088071,054661,027830,054641,027879
0000000051,0000003333,084958,023365,084964,045677,023701,087475,055544,027547,055524,027597
0000000052,0000003400,084355,023081,084360,046572,023419,086871,056443,027289,056425,027340
0000000053,0000003467,083738,022820,083744,047463,023161,086252,057321,027054,057303,027106
0000000054,0000003533,083107,022583,083113,048350,022925,085606,058195,026823,058178,026874
0000000055,0000003600,082465,022371,082470,049232,022715,084943,059044,026616,059027,026667
0000000056,0000003667,081809,022183,081815,050109,022528,084287,059925,026448,059909,026500
0000000057,0000003733,081142,022019,081148,050979,022367,083605,060775,026295,060759,026347
0000000058,0000003800,080463,021881,080468,051841,022231,082916,061623,026179,061608,026233
0000000059,0000003867,079772,021768,079778,052694,022119,082208,062455,026074,062440,026127
0000000060,0000003933,079071,021680,079076,053538,022032,081487,063278,025978,063263,026031
0000000061,0000004000,078358,021617,078364,054372,021971,080771,064111,025940,064098,025994
0000000062,0000004067,077635,021580,077640,055194,021935,080030,064917,025908,064904,025962
0000000063,0000004133,076901,021567,076907,056004,021924,079280,065709,025903,065696,025958
0000000064,0000004200,076157,021580,076162,056802,021938,078517,066490,025913,066477,025967
0000000065,0000004267,075403,021618,075407,057586,021977,077740,067252,025949,067239,026003
0000000066,0000004333,074638,021681,074642,058357,022041,076969,068021,026025,068009,026081
0000000067,0000004400,073863,021769,073867,059113,022129,076177,068764,026112,068753,026168
0000000068,0000004467,073079,021881,073082,059855,022242,075375,069490,026227,069479,026283
0000000069,0000004533,072284,022017,072288,060582,022379,074573,070222,026367,070218,026422
0000000070,0000004600,071481,022176,071484,061295,022539,073761,070941,026529,070944,026584
0000000071,0000004667,070668,022359,070670,061994,022722,072936,071642,026709,071655,026764
0000000072,0000004733,069846,022564,069848,062681,022928,072112,072343,026923,072366,026978
0000000073,0000004800,069015,022792,069017,063354,023156,071273,073016,027152,073047,027206
0000000074,0000004867,068176,023042,068177,064016,023407,070434,073687,027412,073727,027467
0000000075,0000004933,067330,023314,067330,064665,023678,069586,074341,027687,074390,027742
0000000076,0000005000,066476,023606,066476,065303,023971,068724,074969,027980,075026,028034
0000000077,0000005067,065616,023919,065616,065929,024284,067857,075582,028292,075644,028347
0000000078,0000005133,064750,024252,064750,066542,024618,066989,076186,028628,076253,028683
0000000079,0000005200,063880,024604,063878,067142,024971,066108,076760,028978,076831,029032
0000000080,0000005267,063005,024976,063003,067728,025343,065227,077326,029349,077401,029403
0000000081,0000005333,062128,025367,062125,068298,025735,064343,077870,029741,077949,029795
0000000082,0000005400,061248,025776,061245,068852,026145,063461,078405,030155,078488,030209
0000000083,0000005467,060367,026204,060364,069388,026573,062576,078917,030589,079003,030643
0000000084,0000005533,059486,026649,059482,069904,027019,061689,079408,031037,079497,031091
0000000085,0000005600,058605,027112,058601,070401,027483,060798,079872,031498,079963,031552
0000000086,0000005667,057726,027593,057722,070876,027965,059916,080324,031987,080419,032040
0000000087,0000005733,056849,028091,056845,071327,028463,059029,080746,032485,080842,032538
0000000088,0000005800,055975,028606,055970,071755,028979,058149,081145,033008,081241,033062
0000000089,0000005867,055105,029137,055100,072156,029511,057267,081512,033540,081605,033593
0000000090,0000005933,054239,029685,054233,072529,030060,056388,081855,034090,081945,034143
0000000091,0000006000,053378,030250,053372,072874,030626,055515,082169,034658,082257,034711
0000000092,0000006067,052521,030830,052515,073189,031207,054646,082457,035241,082541,035294
0000000093,0000006133,051670,031427,051663,073473,031804,053782,082719,035840,082800,035893
0000000094,0000006200,050824,032039,050817,073725,032417,052921,082947,036453,083022,036506
0000000095,0000006267,049983,032666,049975,073944,033045,052067,083146,037082,083216,037135
0000000096,0000006333,049147,033309,049140,074130,033688,051220,083319,037727,083383,037780
0000000097,0000006400,048317,033966,048309,074284,034346,050379,083467,038387,083526,038439
0000000098,0000006467,047491,034638,047483,074405,035018,049545,083585,039061,083640,039113
0000000099,0000006533,046671,035323,046662,074494,035703,048721,083682,039753,083733,039805
0000000100,0000006600,045855,036022,045845,074552,036402,047896,083743,040451,083790,040503
0000000101,0000006667,045043,036733,045033,074579,037114,047087,083789,041172,083834,041223
0000000102,0000006733,044235,037457,044225,074578,037837,046278,083802,041897,083844,041948
0000000103,0000006800,043432,038193,043421,074549,038573,045480,083795,042640,083834,042690
0000000104,0000006867,042633,038939,042621,074494,039319,044688,083762,043394,083798,043445
0000000105,0000006933,041838,039696,041825,074415,040076,043902,083707,044156,083741,044205
0000000106,0000007000,041048,040463,041035,074312,040842,043122,083625,044927,083657,044977
0000000107,0000007067,040262,041239,040249,074189,041618,042355,083530,045714,083560,045763
0000000108,0000007133,039483,042023,039468,074045,042401,041592,083411,046504,083439,046553
0000000109,0000007200,038710,042815,038694,073883,043193,040839,083273,047305,083299,047352
0000000110,0000007267,037943,043614,037928,073705,043992,040098,083121,048117,083146,048164
0000000111,0000007333,037186,044420,037169,073509,044797,039364,082944,048931,082968,048978
0000000112,0000007400,036437,045232,036420,073299,045608,038642,082753,049754,082775,049800
0000000113,0000007467,035699,046049,035682,073075,046425,037936,082548,050587,082570,050633
0000000114,0000007533,034974,046870,034956,072837,047247,037239,082323,051420,082343,051465
0000000115,0000007600,034262,047697,034244,072585,048073,036558,082083,052260,082102,052304
0000000116,0000007667,033566,048527,033547,072320,048903,035894,081829,053108,081848,053152
0000000117,0000007733,032886,049361,032867,072042,049737,035244,081555,053956,081574,053999
0000000118,0000007800,032225,050198,032205,071750,050575,034614,081267,054812,081284,054855
0000000119,0000007867,031583,051039,031564,071444,051416,034001,080960,055670,080976,055712
0000000120,0000007933,030964,051883,030944,071124,052260,033408,080636,056530,080651,056572
0000000121,0000008000,030367,052729,030347,070789,053107,032835,080295,057393,080309,057434
0000000122,0000008067,029794,053579,029773,070438,053958,032285,079939,058259,079952,058299
0000000123,0000008133,029246,054432,029226,070070,054811,031758,079563,059128,079576,059167
0000000124,0000008200,028725,055287,028704,069686,055667,031254,079171,060000,079184,060038
0000000125,0000008267,028230,056146,028210,069284,056527,030774,078760,060873,078773,060911
0000000126,0000008333,027763,057008,027743,068864,057389,030321,078333,061749,078347,061787
0000000127,0000008400,027324,057873,027304,068425,058255,029891,077886,062626,077901,062663
0000000128,0000008467,026913,058741,026892,067967,059124,029487,077423,063506,077439,063542
0000000129,0000008533,026530,059612,026509,067490,059996,029109,076940,064387,076958,064422
0000000130,0000008600,026175,060486,026154,066994,060870,028756,076440,065270,076459,065304
0000000131,0000008667,025847,061363,025826,066480,061748,028427,075920,066152,075941,066186
0000000132,0000008733,025545,062243,025525,065946,062629,028123,075383,067035,075406,067068
0000000133,0000008800,025270,063126,025249,065394,063512,027844,074829,067917,074854,067949
0000000134,0000008867,025020,064012,024999,064824,064397,027587,074256,068799,074284,068830
0000000135,0000008933,024795,064899,024774,064237,065285,027355,073668,069681,073699,069711
0000000136,0000009000,024593,065788,024572,063633,066173,027145,073061,070560,073095,070589
0000000137,0000009067,024414,066678,024392,063014,067063,026958,072441,071438,072478,071467
0000000138,0000009133,024257,067569,024235,062379,067952,026791,071805,072313,071845,072340
0000000139,0000009200,024121,068459,024098,061731,068842,026647,071156,073186,071200,073213
0000000140,0000009267,024004,069349,023981,061069,069729,026524,070494,074054,070540,074080
0000000141,0000009333,023907,070236,023884,060395,070615,026421,069819,074919,069869,074944
0000000142,0000009400,023829,071120,023805,059709,071497,026339,069131,075778,069185,075803
0000000143,0000009467,023770,072000,023745,059013,072375,026276,068432,076632,068490,076655
0000000144,0000009533,023728,072875,023703,058306,073248,026234,067725,077479,067787,077501
0000000145,0000009600,023705,073743,023679,057590,074114,026207,067002,078314,067067,078335
0000000146,0000009667,023700,074604,023673,056865,074973,026205,066273,079145,066343,079166
0000000147,0000009733,023712,075456,023685,056132,075822,026221,065535,079964,065609,079984
0000000148,0000009800,023743,076297,023715,055391,076661,026254,064785,080771,064862,080790
0000000149,0000009867,023792,077127,023764,054642,077488,026310,064028,081568,064110,081587
0000000150,0000009933,023861,077945,023831,053886,078303,026383,063261,082350,063347,082367
0000000151,0000010000,023949,078748,023919,053122,079103,026479,062488,083120,062578,083137
0000000152,0000010067,024058,079536,024027,052351,079888,026597,061707,083877,061801,083893
0000000153,0000010133,024187,080308,024155,051573,080657,026734,060917,084615,061015,084630
0000000154,0000010200,024338,081062,024305,050787,081409,026893,060119,085339,060221,085353
0000000155,0000010267,024510,081797,024478,049993,082142,027075,059313,086045,059419,086059
0000000156,0000010333,024706,082514,024672,049192,082855,027278,058498,086733,058608,086746
0000000157,0000010400,024924,083209,024890,048382,083549,027504,057678,087401,057791,087414
0000000158,0000010467,025166,083883,025131,047565,084221,027754,056851,088053,056968,088065
0000000159,0000010533,025431,084536,025396,046739,084871,028026,056016,088684,056138,088694
0000000160,0000010600,025720,085166,025685,045905,085499,028320,055175,089293,055300,089303
0000000161,0000010667,026032,085773,025997,045063,086105,028639,054328,089884,054458,089894
0000000162,0000010733,026368,086357,026333,044213,086687,028980,053475,090453,053609,090462
0000000163,0000010800,026728,086917,026693,043356,087246,029342,052615,091000,052753,091008
0000000164,0000010867,027110,087453,027075,042492,087781,029728,051752,091526,051894,091533
0000000165,0000010933,027514,087966,027479,041621,088292,030135,050883,092032,051030,092038
0000000166,0000011000,027940,088454,027905,040744,088780,030561,050006,092512,050157,092518
0000000167,0000011067,028386,088919,028351,039861,089244,031004,049112,092968,049261,092973
0000000168,0000011133,028852,089360,028817,038972,089685,031467,048219,093403,048367,093408
0000000169,0000011200,029336,089778,029302,038077,090102,031949,047322,093815,047469,093820
0000000170,0000011267,029839,090172,029804,037178,090495,032448,046417,094205,046561,094209
0000000171,0000011333,030357,090543,030324,036273,090866,032966,045513,094573,045655,094577
0000000172,0000011400,030892,090892,030858,035364,091214,033499,044607,094919,044747,094922
0000000173,0000011467,031441,091218,031407,034452,091540,034049,043701,095243,043840,095246
0000000174,0000011533,032003,091522,031970,033536,091843,034616,042798,095549,042935,095551
0000000175,0000011600,032577,091804,032545,032619,092124,035196,041894,095830,042031,095832
0000000176,0000011667,033164,092064,033131,031700,092384,035790,040992,096090,041128,096092
0000000177,0000011733,033760,092303,033728,030782,092622,036398,040096,096331,040231,096332
0000000178,0000011800,034367,092521,034335,029865,092839,037018,039201,096549,039336,096550
0000000179,0000011867,034983,092717,034952,028951,093035,037649,038310,096745,038445,096746
0000000180,0000011933,035608,092893,035577,028041,093210,038293,037427,096922,037562,096922
0000000181,0000012000,036242,093047,036211,027137,093363,038948,036550,097077,036684,097076
0000000182,0000012067,036884,093181,036853,026240,093496,039612,035679,097209,035813,097208
0000000183,0000012133,037535,093294,037504,025351,093607,040288,034818,097322,034952,097321
0000000184,0000012200,038194,093386,038163,024471,093698,040974,033966,097412,034100,097411
0000000185,0000012267,038862,093457,038831,023602,093768,041670,033123,097481,033257,097478
0000000186,0000012333,039539,093507,039509,022745,093816,042377,032293,097528,032427,097526
0000000187,0000012400,040227,093536,040196,021900,093843,043095,031474,097554,031608,097552
0000000188,0000012467,040924,093543,040893,021069,093849,043822,030667,097558,030801,097555
0000000189,0000012533,041632,093529,041602,020253,093834,044561,029875,097540,030008,097537
0000000190,0000012600,042352,093493,042321,019452,093797,045311,029096,097501,029229,097497
0000000191,0000012667,043083,093436,043053,018666,093738,046072,028331,097438,028463,097434
0000000192,0000012733,043828,093357,043798,017898,093658,046844,027581,097355,027713,097351
0000000193,0000012800,044585,093256,044555,017147,093555,047628,026847,097249,026978,097245
0000000194,0000012867,045357,093134,045327,016412,093432,048417,026110,097116,026234,097113
0000000195,0000012933,046142,092989,046113,015694,093286,049216,025385,096960,025501,096956
0000000196,0000013000,046942,092823,046912,014992,093118,050027,024675,096783,024780,096779
0000000197,0000013067,047756,092635,047727,014305,092929,050850,023981,096584,024076,096581
0000000198,0000013133,048584,092426,048555,013634,092719,051684,023304,096363,023391,096360
0000000199,0000013200,049426,092195,049397,012976,092487,052533,022650,096124,022731,096121
0000000200,0000013267,050281,091942,050253,012334,092234,053391,022011,095863,022087,095860
0000000201,0000013333,051149,091669,051121,011706,091960,054259,021388,095581,021458,095577
0000000202,0000013400,052029,091375,052001,011094,091665,055137,020782,095278,020846,095275
0000000203,0000013467,052919,091060,052892,010497,091349,056024,020194,094956,020253,094953
