DIgSILENT PowerFactory,20000410,2000
10,10A,00D
1,LC684-652A:Phase Voltage A/Terminal i,,,kV,0.00010000000,-5.506772,0.000000,8542,99998,1,1,P
2,LC684-652A:Phase Voltage C/Terminal i,,,kV,0.00010000000,-5.245985,0.000000,274,99998,1,1,P
3,LC692-675:Phase Voltage A/Terminal i,,,kV,0.00010000000,-5.501247,0.000000,7886,99998,1,1,P
4,LC692-675:Phase Voltage B/Terminal i,,,kV,0.00010000000,-4.573301,0.000000,-3203,99998,1,1,P
5,LC692-675:Phase Voltage C/Terminal i,,,kV,0.00010000000,-5.277852,0.000000,840,99998,1,1,P
6,LOHL632-633:Phase Voltage A/Terminal i,,,kV,0.00010000000,-6.026398,0.000000,20098,99998,1,1,P
7,LOHL632-633:Phase Voltage B/Terminal i,,,kV,0.00010000000,-5.396191,0.000000,11308,99998,1,1,P
8,LOHL632-633:Phase Voltage C/Terminal i,,,kV,0.00010000000,-5.773861,0.000000,13337,99998,1,1,P
9,LOHL645-646:Phase Voltage B/Terminal i,,,kV,0.00010000000,-5.402343,0.000000,11425,99998,1,1,P
10,LOHL645-646:Phase Voltage C/Terminal i,,,kV,0.00010000000,-5.776679,0.000000,13397,99998,1,1,P
50
1
15000.000000,3001
11/11/2020,22:17:02.000000
11/11/2020,22:17:02.000000
ASCII
1.000000
0000000001,0000000000,085739,052739,085694,015086,053006,091195,023584,057538,023682,057555
0000000002,0000000067,086175,051838,086128,015542,052106,091621,024037,056646,024133,056663
0000000003,0000000133,086588,050933,086544,016019,051204,092028,024519,055743,024617,055763
0000000004,0000000200,086985,050033,086939,016514,050305,092413,025014,054850,025111,054869
0000000005,0000000267,087361,049136,087313,017027,049406,092781,025526,053957,025619,053976
0000000006,0000000333,087713,048240,087667,017559,048511,093125,026059,053065,026153,053086
0000000007,0000000400,088044,047344,088000,018108,047617,093451,026610,052175,026703,052197
0000000008,0000000467,088357,046454,088313,018674,046727,093755,027183,051285,027275,051307
0000000009,0000000533,088648,045568,088604,019258,045842,094038,027763,050408,027853,050431
0000000010,0000000600,088917,044686,088874,019858,044960,094299,028369,049526,028458,049549
0000000011,0000000667,089167,043810,089122,020475,044084,094538,028980,048660,029069,048685
0000000012,0000000733,089391,042938,089348,021108,043214,094757,029617,047790,029705,047816
0000000013,0000000800,089595,042072,089553,021757,042349,094952,030267,046930,030354,046956
0000000014,0000000867,089778,041213,089736,022420,041491,095126,030929,046079,031014,046106
0000000015,0000000933,089940,040362,089897,023099,040640,095278,031606,045235,031690,045263
0000000016,0000001000,090079,039517,090036,023792,039797,095408,032297,044398,032380,044427
0000000017,0000001067,090194,038681,090153,024497,038962,095500,032969,043552,033036,043581
0000000018,0000001133,090289,037854,090249,025210,038137,095572,033587,042743,033622,042775
0000000019,0000001200,090361,037034,090321,025937,037316,095623,034355,041865,034394,041892
0000000020,0000001267,090412,036225,090371,026669,036507,095652,035064,041057,035099,041085
0000000021,0000001333,090440,035427,090399,027408,035712,095689,035809,040346,035840,040382
0000000022,0000001400,090445,034637,090405,028160,034922,095720,036648,039559,036688,039597
0000000023,0000001467,090428,033860,090389,028914,034147,095706,037371,038839,037405,038881
0000000024,0000001533,090389,033092,090348,029680,033379,095634,038168,038027,038199,038064
0000000025,0000001600,090326,032337,090287,030451,032627,095553,038900,037304,038926,037345
0000000026,0000001667,090240,031593,090201,031234,031882,095461,039707,036522,039730,036559
0000000027,0000001733,090133,030862,090092,032021,031153,095293,040436,035780,040449,035814
0000000028,0000001800,090000,030144,089961,032819,030435,095165,041258,035056,041270,035091
0000000029,0000001867,089846,029440,089806,033624,029732,095026,042096,034406,042108,034446
0000000030,0000001933,089667,028749,089629,034437,029043,094859,042926,033764,042933,033806
0000000031,0000002000,089465,028071,089427,035260,028366,094655,043773,033078,043778,033120
0000000032,0000002067,089242,027408,089203,036087,027703,094389,044554,032387,044551,032427
0000000033,0000002133,088994,026760,088956,036924,027057,094167,045433,031797,045430,031841
0000000034,0000002200,088724,026127,088686,037767,026426,093877,046257,031181,046249,031227
0000000035,0000002267,088431,025509,088394,038619,025810,093599,047139,030581,047128,030626
0000000036,0000002333,088117,024908,088079,039475,025209,093244,047944,029959,047926,030003
0000000037,0000002400,087780,024323,087743,040340,024627,092934,048849,029434,048830,029482
0000000038,0000002467,087422,023755,087385,041209,024059,092565,049717,028858,049695,028905
0000000039,0000002533,087043,023204,087006,042083,023509,092159,050558,028291,050528,028335
0000000040,0000002600,086644,022672,086606,042960,022979,091754,051425,027794,051392,027841
0000000041,0000002667,086224,022156,086187,043843,022465,091350,052332,027302,052298,027350
0000000042,0000002733,085785,021661,085748,044728,021972,090918,053229,026856,053197,026906
0000000043,0000002800,085327,021184,085290,045616,021496,090445,054103,026367,054070,026415
0000000044,0000002867,084851,020727,084814,046507,021041,089971,055004,025933,054972,025982
0000000045,0000002933,084357,020289,084320,047400,020605,089471,055885,025516,055852,025566
0000000046,0000003000,083845,019873,083809,048295,020191,088964,056792,025130,056763,025180
0000000047,0000003067,083317,019477,083281,049191,019797,088430,057683,024743,057655,024793
0000000048,0000003133,082773,019103,082737,050088,019425,087884,058582,024396,058556,024447
0000000049,0000003200,082213,018751,082177,050986,019074,087321,059478,024055,059454,024105
0000000050,0000003267,081638,018421,081602,051883,018746,086742,060369,023742,060346,023793
0000000051,0000003333,081049,018114,081013,052778,018441,086157,061267,023475,061245,023528
0000000052,0000003400,080445,017830,080409,053672,018159,085546,062152,023202,062132,023255
0000000053,0000003467,079828,017569,079792,054564,017900,084916,063029,022950,063009,023003
0000000054,0000003533,079198,017332,079162,055451,017665,084272,063898,022727,063878,022780
0000000055,0000003600,078554,017120,078519,056333,017455,083626,064765,022542,064746,022596
0000000056,0000003667,077899,016932,077863,057210,017268,082953,065629,022354,065611,022407
0000000057,0000003733,077232,016768,077196,058079,017107,082272,066475,022209,066456,022263
0000000058,0000003800,076553,016630,076517,058942,016970,081585,067331,022078,067313,022132
0000000059,0000003867,075862,016517,075827,059795,016858,080894,068185,021994,068169,022050
0000000060,0000003933,075161,016429,075125,060639,016772,080174,069004,021917,068988,021973
0000000061,0000004000,074449,016366,074412,061472,016710,079439,069814,021850,069797,021906
0000000062,0000004067,073725,016328,073689,062294,016674,078697,070619,021814,070603,021870
0000000063,0000004133,072992,016316,072955,063105,016663,077948,071417,021808,071401,021864
0000000064,0000004200,072247,016329,072211,063903,016678,077198,072212,021839,072198,021897
0000000065,0000004267,071493,016367,071456,064687,016717,076420,072972,021869,072957,021926
0000000066,0000004333,070728,016430,070691,065458,016781,075648,073741,021945,073728,022003
0000000067,0000004400,069953,016518,069916,066214,016869,074850,074474,022032,074460,022089
0000000068,0000004467,069169,016630,069131,066956,016982,074058,075213,022150,075201,022208
0000000069,0000004533,068375,016765,068336,067683,017118,073244,075930,022278,075923,022336
0000000070,0000004600,067571,016925,067532,068396,017278,072433,076653,022442,076653,022499
0000000071,0000004667,066758,017108,066719,069095,017462,071620,077367,022639,077378,022697
0000000072,0000004733,065936,017313,065896,069782,017668,070794,078066,022847,078087,022905
0000000073,0000004800,065105,017541,065065,070455,017896,069952,078736,023075,078765,023132
0000000074,0000004867,064266,017791,064226,071116,018147,069110,079402,023331,079441,023388
0000000075,0000004933,063420,018062,063379,071766,018418,068263,080058,023605,080105,023663
0000000076,0000005000,062566,018355,062525,072404,018711,067404,080691,023902,080745,023960
0000000077,0000005067,061706,018667,061664,073030,019024,066531,081295,024207,081354,024264
0000000078,0000005133,060840,019000,060798,073643,019358,065665,081902,024546,081967,024603
0000000079,0000005200,059970,019353,059927,074243,019711,064790,082482,024902,082551,024959
0000000080,0000005267,059095,019725,059052,074828,020083,063904,083040,025269,083113,025326
0000000081,0000005333,058218,020116,058174,075399,020475,063025,083593,025667,083670,025724
0000000082,0000005400,057338,020525,057294,075952,020885,062139,084123,026076,084203,026133
0000000083,0000005467,056457,020953,056412,076489,021313,061253,084634,026506,084718,026562
0000000084,0000005533,055576,021398,055531,077005,021759,060366,085125,026955,085212,027011
0000000085,0000005600,054695,021861,054650,077502,022223,059479,085593,027423,085683,027480
0000000086,0000005667,053816,022342,053770,077977,022704,058591,086039,027904,086131,027960
0000000087,0000005733,052939,022840,052893,078428,023203,057707,086464,028405,086558,028461
0000000088,0000005800,052065,023354,052019,078855,023719,056821,086855,028921,086949,028977
0000000089,0000005867,051195,023886,051148,079257,024251,055944,087230,029459,087321,029515
0000000090,0000005933,050329,024434,050282,079630,024800,055062,087565,030005,087653,030061
0000000091,0000006000,049468,024999,049420,079975,025365,054191,087886,030576,087971,030632
0000000092,0000006067,048611,025579,048563,080290,025947,053319,088170,031155,088252,031210
0000000093,0000006133,047760,026176,047712,080573,026544,052459,088435,031759,088514,031814
0000000094,0000006200,046914,026788,046865,080825,027157,051598,088663,032371,088736,032427
0000000095,0000006267,046073,027415,046024,081045,027785,050743,088860,033000,088927,033055
0000000096,0000006333,045237,028058,045188,081231,028428,049898,089038,033647,089100,033702
0000000097,0000006400,044407,028715,044357,081385,029085,049054,089179,034303,089236,034357
0000000098,0000006467,043582,029386,043531,081506,029757,048225,089306,034984,089359,035038
0000000099,0000006533,042761,030072,042710,081595,030443,047394,089394,035668,089443,035722
0000000100,0000006600,041945,030771,041894,081653,031142,046575,089461,036371,089507,036425
0000000101,0000006667,041133,031482,041081,081680,031853,045761,089502,037087,089544,037140
0000000102,0000006733,040325,032206,040273,081679,032577,044955,089518,037816,089558,037870
0000000103,0000006800,039522,032941,039469,081650,033312,044157,089511,038559,089548,038612
0000000104,0000006867,038723,033688,038669,081595,034059,043364,089477,039310,089511,039362
0000000105,0000006933,037928,034445,037874,081516,034816,042580,089423,040077,089455,040129
0000000106,0000007000,037138,035212,037083,081413,035582,041800,089344,040846,089373,040898
0000000107,0000007067,036353,035988,036297,081290,036357,041028,089242,041628,089270,041679
0000000108,0000007133,035573,036772,035517,081146,037141,040268,089127,042423,089153,042473
0000000109,0000007200,034800,037564,034743,080984,037933,039515,088989,043223,089013,043273
0000000110,0000007267,034033,038363,033976,080805,038732,038775,088837,044035,088860,044085
0000000111,0000007333,033276,039169,033218,080610,039537,038042,088662,044851,088684,044900
0000000112,0000007400,032527,039981,032469,080400,040348,037319,088468,045672,088488,045720
0000000113,0000007467,031790,040798,031731,080176,041165,036613,088264,046505,088283,046553
0000000114,0000007533,031064,041619,031005,079937,041986,035917,088040,047340,088058,047387
0000000115,0000007600,030352,042445,030292,079686,042812,035234,087797,048178,087814,048224
0000000116,0000007667,029656,043276,029596,079421,043643,034571,087545,049027,087562,049073
0000000117,0000007733,028976,044110,028915,079143,044477,033923,087274,049877,087291,049923
0000000118,0000007800,028315,044947,028254,078851,045314,033289,086981,050728,086996,050773
0000000119,0000007867,027673,045788,027612,078545,046156,032677,086676,051588,086690,051632
0000000120,0000007933,027054,046632,026992,078225,047000,032084,086352,052449,086365,052493
0000000121,0000008000,026457,047478,026395,077890,047847,031510,086009,053310,086020,053353
0000000122,0000008067,025884,048328,025822,077539,048698,030962,085654,054178,085665,054221
0000000123,0000008133,025336,049181,025274,077171,049551,030436,085281,055048,085292,055090
0000000124,0000008200,024815,050036,024753,076787,050407,029930,084887,055917,084897,055958
0000000125,0000008267,024320,050895,024258,076385,051267,029453,084479,056793,084490,056833
0000000126,0000008333,023853,051757,023791,075965,052129,029000,084052,057670,084065,057710
0000000127,0000008400,023414,052621,023352,075526,052995,028568,083603,058545,083616,058584
0000000128,0000008467,023003,053489,022941,075068,053864,028164,083139,059426,083153,059464
0000000129,0000008533,022620,054361,022558,074591,054735,027787,082657,060308,082673,060345
0000000130,0000008600,022265,055235,022202,074095,055610,027431,082154,061186,082170,061223
0000000131,0000008667,021937,056112,021874,073580,056488,027103,081635,062070,081654,062106
0000000132,0000008733,021635,056992,021573,073047,057369,026799,081098,062953,081119,062988
0000000133,0000008800,021360,057875,021298,072495,058252,026520,080545,063836,080568,063870
0000000134,0000008867,021110,058761,021048,071925,059137,026265,079973,064718,079999,064752
0000000135,0000008933,020885,059648,020822,071338,060024,026032,079383,065599,079412,065632
0000000136,0000009000,020683,060537,020620,070734,060913,025823,078778,066480,078810,066512
0000000137,0000009067,020504,061427,020441,070115,061803,025634,078157,067357,078192,067388
0000000138,0000009133,020347,062318,020283,069480,062692,025469,077522,068232,077560,068262
0000000139,0000009200,020211,063208,020146,068832,063581,025324,076873,069104,076914,069133
0000000140,0000009267,020094,064097,020030,068170,064469,025200,076209,069972,076254,070001
0000000141,0000009333,019997,064985,019932,067496,065355,025098,075534,070838,075582,070865
0000000142,0000009400,019919,065869,019854,066810,066237,025016,074848,071697,074900,071723
0000000143,0000009467,019860,066749,019794,066113,067115,024953,074149,072550,074205,072576
0000000144,0000009533,019819,067624,019752,065407,067988,024910,073439,073397,073499,073422
0000000145,0000009600,019795,068492,019728,064691,068854,024887,072720,074235,072784,074259
0000000146,0000009667,019790,069353,019721,063966,069712,024882,071990,075064,072057,075087
0000000147,0000009733,019802,070205,019733,063233,070562,024897,071251,075883,071322,075906
0000000148,0000009800,019833,071046,019763,062492,071400,024932,070502,076691,070578,076712
0000000149,0000009867,019882,071876,019812,061743,072228,024986,069744,077487,069824,077508
0000000150,0000009933,019951,072694,019880,060987,073042,025061,068978,078270,069062,078290
0000000151,0000010000,020039,073497,019967,060223,073843,025156,068205,079039,068292,079058
0000000152,0000010067,020148,074285,020075,059452,074628,025273,067422,079794,067514,079812
0000000153,0000010133,020277,075057,020204,058674,075397,025410,066632,080533,066728,080551
0000000154,0000010200,020428,075811,020354,057888,076149,025571,065836,081258,065936,081275
0000000155,0000010267,020600,076546,020526,057094,076882,025751,065028,081963,065132,081979
0000000156,0000010333,020796,077262,020721,056293,077595,025955,064215,082651,064323,082667
0000000157,0000010400,021014,077958,020939,055483,078288,026181,063394,083321,063505,083335
0000000158,0000010467,021256,078632,021180,054666,078961,026430,062567,083972,062682,083986
0000000159,0000010533,021521,079285,021445,053840,079611,026702,061733,084602,061852,084615
0000000160,0000010600,021810,079915,021734,053006,080239,026998,060892,085213,061015,085226
0000000161,0000010667,022122,080522,022046,052164,080845,027316,060044,085803,060172,085815
0000000162,0000010733,022459,081106,022382,051314,081427,027657,059192,086372,059324,086383
0000000163,0000010800,022818,081666,022741,050457,081986,028020,058333,086920,058469,086931
0000000164,0000010867,023200,082202,023123,049593,082521,028406,057469,087446,057610,087456
0000000165,0000010933,023604,082715,023528,048722,083032,028812,056599,087950,056745,087959
0000000166,0000011000,024030,083203,023953,047845,083520,029239,055723,088431,055872,088439
0000000167,0000011067,024476,083668,024400,046961,083984,029681,054829,088887,054976,088894
0000000168,0000011133,024942,084109,024866,046073,084424,030144,053934,089321,054080,089328
0000000169,0000011200,025426,084527,025351,045178,084841,030626,053038,089734,053183,089741
0000000170,0000011267,025929,084921,025853,044279,085235,031125,052133,090123,052275,090129
0000000171,0000011333,026448,085292,026372,043374,085606,031642,051228,090491,051368,090497
0000000172,0000011400,026982,085641,026907,042465,085954,032176,050323,090837,050460,090843
0000000173,0000011467,027531,085967,027456,041553,086279,032726,049418,091162,049554,091167
0000000174,0000011533,028093,086271,028018,040637,086583,033292,048513,091466,048648,091471
0000000175,0000011600,028668,086553,028593,039719,086864,033873,047611,091749,047745,091753
0000000176,0000011667,029254,086813,029180,038801,087124,034468,046710,092010,046844,092014
0000000177,0000011733,029850,087052,029777,037883,087362,035075,045812,092250,045946,092254
0000000178,0000011800,030457,087270,030384,036966,087579,035696,044918,092469,045051,092472
0000000179,0000011867,031073,087466,031000,036052,087775,036327,044028,092666,044161,092668
0000000180,0000011933,031698,087642,031625,035142,087949,036970,043144,092841,043276,092843
0000000181,0000012000,032332,087796,032259,034238,088103,037624,042266,092995,042398,092997
0000000182,0000012067,032974,087930,032902,033341,088236,038289,041395,093128,041527,093129
0000000183,0000012133,033625,088043,033552,032452,088347,038965,040534,093240,040666,093241
0000000184,0000012200,034284,088135,034212,031572,088438,039651,039681,093330,039813,093331
0000000185,0000012267,034952,088206,034880,030703,088507,040347,038840,093399,038971,093399
0000000186,0000012333,035630,088256,035557,029846,088556,041054,038009,093447,038141,093447
0000000187,0000012400,036317,088284,036244,029001,088583,041771,037190,093472,037322,093472
0000000188,0000012467,037014,088292,036942,028170,088589,042499,036384,093476,036515,093476
0000000189,0000012533,037722,088278,037650,027354,088574,043238,035591,093459,035722,093458
0000000190,0000012600,038442,088242,038370,026552,088536,043988,034812,093419,034943,093418
0000000191,0000012667,039174,088185,039102,025767,088478,044750,034048,093358,034178,093357
0000000192,0000012733,039918,088106,039846,024999,088397,045522,033298,093274,033429,093273
0000000193,0000012800,040676,088005,040604,024248,088295,046306,032563,093168,032692,093167
0000000194,0000012867,041447,087883,041376,023513,088171,047094,031827,093035,031949,093034
0000000195,0000012933,042232,087738,042161,022795,088026,047894,031102,092879,031215,092878
0000000196,0000013000,043032,087572,042961,022093,087858,048704,030390,092701,030494,092700
0000000197,0000013067,043846,087384,043775,021406,087669,049526,029696,092502,029790,092501
0000000198,0000013133,044674,087174,044604,020734,087459,050362,029021,092284,029107,092283
0000000199,0000013200,045516,086943,045446,020077,087227,051208,028364,092041,028444,092040
0000000200,0000013267,046371,086691,046302,019435,086973,052068,027727,091781,027801,091781
0000000201,0000013333,047239,086418,047170,018807,086699,052936,027104,091499,027172,091499
0000000202,0000013400,048119,086124,048050,018195,086405,053814,026498,091197,026561,091196
0000000203,0000013467,049009,085809,048940,017598,086089,054700,025909,090873,025967,090873
