DIgSILENT PowerFactory,20000410,2000
10,10A,00D
1,LC684-652A:Phase Voltage A/Terminal i,,,kV,0.00010000000,-5.600241,0.000000,11805,99998,1,1,P
2,LC684-652A:Phase Voltage C/Terminal i,,,kV,0.00010000000,-5.453516,0.000000,10813,99998,1,1,P
3,LC692-675:Phase Voltage A/Terminal i,,,kV,0.00010000000,-5.599032,0.000000,11794,99998,1,1,P
4,LC692-675:Phase Voltage B/Terminal i,,,kV,0.00010000000,-5.678894,0.000000,9244,99998,1,1,P
5,LC692-675:Phase Voltage C/Terminal i,,,kV,0.00010000000,-5.465743,0.000000,11155,99998,1,1,P
6,LOHL632-633:Phase Voltage A/Terminal i,,,kV,0.00010000000,-6.010263,0.000000,20033,99998,1,1,P
7,LOHL632-633:Phase Voltage B/Terminal i,,,kV,0.00010000000,-6.027016,0.000000,18368,99998,1,1,P
8,LOHL632-633:Phase Voltage C/Terminal i,,,kV,0.00010000000,-5.852469,0.000000,18185,99998,1,1,P
9,LOHL645-646:Phase Voltage B/Terminal i,,,kV,0.00010000000,-6.029304,0.000000,18458,99998,1,1,P
10,LOHL645-646:Phase Voltage C/Terminal i,,,kV,0.00010000000,-5.855244,0.000000,18240,99998,1,1,P
50
1
15000.000000,3001
11/11/2020,23:35:24.000000
11/11/2020,23:35:24.000000
ASCII
1.000000
0000000001,0000000000,086673,054815,086670,026140,054888,091033,029892,058324,029952,058340
0000000002,0000000067,087107,053912,087105,026599,053985,091459,030344,057433,030403,057449
0000000003,0000000133,087527,053011,087521,027075,053083,091866,030831,056527,030888,056547
0000000004,0000000200,087920,052110,087916,027570,052183,092253,031318,055639,031375,055658
0000000005,0000000267,088292,051209,088291,028083,051285,092620,031840,054737,031896,054759
0000000006,0000000333,088648,050314,088645,028614,050389,092964,032369,053850,032425,053871
0000000007,0000000400,088981,049421,088978,029163,049496,093290,032921,052959,032974,052979
0000000008,0000000467,089291,048529,089291,029730,048606,093593,033491,052072,033544,052093
0000000009,0000000533,089582,047643,089582,030314,047720,093876,034071,051193,034123,051216
0000000010,0000000600,089852,046761,089852,030914,046839,094138,034675,050314,034726,050337
0000000011,0000000667,090101,045885,090100,031531,045963,094376,035290,049445,035339,049470
0000000012,0000000733,090327,045013,090327,032164,045092,094595,035927,048575,035976,048600
0000000013,0000000800,090531,044148,090531,032812,044228,094791,036573,047719,036621,047744
0000000014,0000000867,090713,043288,090714,033476,043370,094965,037236,046866,037282,046893
0000000015,0000000933,090874,042437,090875,034155,042519,095117,037913,046022,037958,046050
0000000016,0000001000,091013,041593,091014,034848,041676,095247,038604,045185,038649,045214
0000000017,0000001067,091130,040756,091131,035552,040840,095333,039267,044333,039292,044361
0000000018,0000001133,091223,039929,091227,036267,040014,095393,039887,043496,039890,043529
0000000019,0000001200,091297,039110,091298,036991,039195,095424,040611,042649,040610,042680
0000000020,0000001267,091347,038300,091350,037725,038387,095521,041416,041861,041421,041896
0000000021,0000001333,091375,037503,091377,038464,037592,095539,042135,041154,042136,041195
0000000022,0000001400,091379,036713,091384,039214,036803,095567,042937,040365,042933,040401
0000000023,0000001467,091363,035935,091366,039971,036025,095517,043676,039581,043669,039618
0000000024,0000001533,091324,035167,091327,040733,035258,095427,044372,038768,044358,038801
0000000025,0000001600,091261,034412,091264,041508,034504,095360,045193,038029,045179,038065
0000000026,0000001667,091175,033668,091180,042290,033762,095313,046029,037329,046015,037368
0000000027,0000001733,091067,032938,091071,043078,033032,095170,046794,036595,046774,036632
0000000028,0000001800,090935,032220,090939,043873,032315,095000,047541,035871,047512,035907
0000000029,0000001867,090780,031515,090784,044680,031611,094861,048397,035177,048367,035215
0000000030,0000001933,090602,030824,090606,045494,030921,094700,049257,034535,049228,034578
0000000031,0000002000,090400,030147,090405,046314,030246,094488,050052,033880,050016,033923
0000000032,0000002067,090177,029484,090181,047143,029583,094216,050849,033182,050807,033222
0000000033,0000002133,089929,028835,089934,047980,028935,093978,051710,032537,051666,032576
0000000034,0000002200,089659,028202,089664,048824,028304,093726,052584,031954,052538,031997
0000000035,0000002267,089367,027585,089371,049674,027688,093399,053407,031325,053356,031368
0000000036,0000002333,089052,026983,089057,050531,027089,093083,054250,030750,054194,030794
0000000037,0000002400,088715,026399,088721,051395,026506,092767,055147,030210,055089,030256
0000000038,0000002467,088357,025830,088362,052265,025938,092389,056005,029629,055942,029674
0000000039,0000002533,087978,025279,087984,053139,025389,092007,056883,029092,056816,029138
0000000040,0000002600,087579,024747,087584,054016,024858,091592,057731,028584,057659,028631
0000000041,0000002667,087159,024232,087165,054898,024345,091178,058623,028089,058549,028137
0000000042,0000002733,086720,023736,086726,055784,023850,090732,059514,027592,059442,027638
0000000043,0000002800,086262,023259,086268,056672,023375,090282,060407,027156,060335,027204
0000000044,0000002867,085786,022802,085792,057563,022919,089806,061306,026714,061235,026762
0000000045,0000002933,085291,022365,085298,058456,022485,089325,062220,026319,062150,026370
0000000046,0000003000,084780,021948,084787,059351,022070,088805,063099,025917,063031,025968
0000000047,0000003067,084252,021553,084259,060247,021676,088279,064003,025551,063937,025602
0000000048,0000003133,083708,021178,083714,061144,021303,087725,064896,025174,064832,025224
0000000049,0000003200,083148,020826,083155,062042,020953,087169,065798,024851,065736,024902
0000000050,0000003267,082573,020496,082580,062939,020625,086590,066689,024542,066628,024593
0000000051,0000003333,081983,020189,081990,063834,020320,086001,067578,024268,067519,024321
0000000052,0000003400,081379,019905,081387,064728,020038,085384,068457,023992,068398,024045
0000000053,0000003467,080762,019644,080770,065619,019779,084763,069340,023754,069281,023808
0000000054,0000003533,080132,019408,080140,066507,019544,084128,070227,023536,070170,023591
0000000055,0000003600,079489,019195,079496,067389,019333,083458,071073,023315,071015,023367
0000000056,0000003667,078834,019007,078841,068266,019147,082806,071952,023159,071895,023214
0000000057,0000003733,078166,018844,078174,069135,018986,082119,072797,023002,072740,023057
0000000058,0000003800,077487,018705,077495,069997,018849,081424,073637,022870,073580,022924
0000000059,0000003867,076797,018592,076804,070851,018737,080729,074491,022777,074436,022833
0000000060,0000003933,076096,018504,076103,071695,018651,080003,075303,022687,075247,022742
0000000061,0000004000,075383,018441,075390,072528,018590,079285,076130,022646,076075,022702
0000000062,0000004067,074660,018404,074667,073350,018553,078535,076923,022603,076868,022659
0000000063,0000004133,073926,018391,073933,074161,018542,077795,077733,022603,077678,022660
0000000064,0000004200,073182,018405,073188,074959,018557,077036,078516,022628,078463,022685
0000000065,0000004267,072427,018443,072434,075743,018596,076258,079279,022658,079225,022715
0000000066,0000004333,071663,018505,071669,076514,018660,075488,080050,022732,079998,022790
0000000067,0000004400,070888,018593,070894,077270,018748,074687,080779,022812,080727,022869
0000000068,0000004467,070103,018705,070109,078012,018861,073894,081519,022934,081468,022992
0000000069,0000004533,069309,018841,069314,078739,018997,073082,082241,023060,082196,023117
0000000070,0000004600,068506,019000,068510,079452,019157,072277,082965,023236,082927,023294
0000000071,0000004667,067693,019183,067697,080151,019340,071449,083664,023412,083636,023469
0000000072,0000004733,066871,019389,066874,080837,019547,070631,084372,023632,084354,023689
0000000073,0000004800,066040,019617,066043,081511,019775,069791,085042,023859,085032,023916
0000000074,0000004867,065201,019866,065204,082172,020025,068949,085710,024115,085709,024172
0000000075,0000004933,064355,020138,064357,082822,020297,068101,086366,024392,086375,024449
0000000076,0000005000,063501,020430,063503,083460,020590,067242,086997,024687,087013,024744
0000000077,0000005067,062641,020743,062642,084086,020903,066370,087604,024992,087625,025049
0000000078,0000005133,061775,021076,061776,084699,021237,065503,088208,025331,088234,025388
0000000079,0000005200,060905,021428,060905,085299,021590,064624,088787,025681,088818,025738
0000000080,0000005267,060030,021800,060030,085884,021962,063741,089346,026053,089380,026109
0000000081,0000005333,059152,022191,059152,086454,022353,062858,089894,026444,089932,026500
0000000082,0000005400,058273,022600,058271,087008,022763,061975,090427,026858,090469,026914
0000000083,0000005467,057392,023028,057390,087544,023192,061090,090940,027292,090985,027348
0000000084,0000005533,056510,023474,056508,088061,023638,060203,091431,027739,091479,027794
0000000085,0000005600,055630,023937,055628,088558,024102,059314,091897,028204,091947,028260
0000000086,0000005667,054751,024417,054748,089033,024583,058433,092351,028693,092405,028749
0000000087,0000005733,053874,024915,053871,089484,025082,057541,092766,029187,092821,029242
0000000088,0000005800,053000,025430,052997,089912,025598,056665,093171,029712,093226,029767
0000000089,0000005867,052130,025961,052126,090313,026130,055777,093532,030238,093584,030293
0000000090,0000005933,051264,026509,051260,090686,026679,054902,093875,030794,093925,030849
0000000091,0000006000,050402,027074,050398,091031,027244,054029,094193,031360,094240,031415
0000000092,0000006067,049546,027654,049541,091346,027826,053158,094479,031941,094523,031996
0000000093,0000006133,048694,028251,048689,091629,028423,052294,094740,032539,094780,032594
0000000094,0000006200,047848,028863,047843,091881,029036,051436,094970,033156,095004,033211
0000000095,0000006267,047008,029491,047002,092101,029664,050585,095175,033790,095203,033845
0000000096,0000006333,046172,030133,046166,092287,030307,049736,095345,034432,095369,034486
0000000097,0000006400,045342,030790,045335,092441,030965,048898,095495,035096,095514,035151
0000000098,0000006467,044516,031462,044509,092562,031636,048061,095611,035766,095626,035820
0000000099,0000006533,043696,032147,043688,092651,032322,047233,095702,036454,095712,036508
0000000100,0000006600,042879,032846,042871,092709,033021,046412,095767,037154,095774,037208
0000000101,0000006667,042068,033557,042059,092736,033732,045603,095814,037877,095819,037930
0000000102,0000006733,041260,034281,041251,092735,034456,044796,095828,038606,095829,038659
0000000103,0000006800,040457,035017,040447,092706,035191,043993,095816,039341,095814,039394
0000000104,0000006867,039658,035763,039647,092651,035938,043201,095783,040095,095779,040147
0000000105,0000006933,038863,036520,038852,092571,036694,042416,095728,040859,095721,040910
0000000106,0000007000,038073,037287,038061,092469,037461,041641,095654,041636,095645,041687
0000000107,0000007067,037287,038063,037275,092346,038236,040870,095555,042418,095544,042469
0000000108,0000007133,036508,038847,036495,092202,039020,040105,095433,043207,095419,043257
0000000109,0000007200,035734,039639,035721,092040,039812,039354,095297,044010,095283,044059
0000000110,0000007267,034968,040439,034954,091861,040611,038614,095145,044822,095129,044872
0000000111,0000007333,034210,041244,034196,091666,041416,037880,094970,045637,094953,045685
0000000112,0000007400,033462,042056,033447,091456,042227,037158,094778,046458,094759,046506
0000000113,0000007467,032724,042873,032709,091232,043044,036449,094570,047288,094550,047335
0000000114,0000007533,031999,043695,031983,090993,043865,035755,094347,048125,094326,048172
0000000115,0000007600,031287,044521,031270,090742,044691,035075,094110,048968,094088,049014
0000000116,0000007667,030590,045351,030573,090477,045522,034411,093855,049814,093834,049860
0000000117,0000007733,029911,046185,029893,090198,046356,033761,093581,050663,093559,050708
0000000118,0000007800,029249,047022,029232,089907,047193,033127,093289,051515,093265,051559
0000000119,0000007867,028608,047863,028590,089601,048034,032514,092981,052371,092956,052415
0000000120,0000007933,027988,048707,027970,089281,048879,031922,092659,053232,092633,053276
0000000121,0000008000,027391,049554,027373,088946,049726,031351,092320,054098,092293,054141
0000000122,0000008067,026819,050403,026800,088595,050576,030801,091963,054965,091936,055007
0000000123,0000008133,026271,051256,026252,088227,051430,030274,091589,055834,091561,055876
0000000124,0000008200,025749,052112,025731,087843,052286,029771,091197,056705,091169,056746
0000000125,0000008267,025255,052970,025236,087441,053146,029291,090786,057578,090758,057618
0000000126,0000008333,024788,053832,024769,087020,054008,028836,090357,058454,090330,058493
0000000127,0000008400,024349,054697,024330,086581,054874,028406,089911,059331,089885,059370
0000000128,0000008467,023938,055565,023919,086124,055743,028004,089448,060212,089424,060250
0000000129,0000008533,023555,056436,023536,085647,056614,027626,088967,061095,088944,061132
0000000130,0000008600,023199,057310,023180,085151,057489,027272,088465,061976,088443,062012
0000000131,0000008667,022871,058187,022852,084636,058367,026942,087944,062855,087924,062891
0000000132,0000008733,022570,059068,022551,084103,059247,026637,087405,063737,087388,063771
0000000133,0000008800,022295,059951,022276,083551,060131,026357,086850,064620,086835,064654
0000000134,0000008867,022045,060836,022026,082981,061016,026102,086279,065503,086266,065536
0000000135,0000008933,021820,061723,021800,082394,061903,025870,085691,066385,085681,066417
0000000136,0000009000,021618,062613,021598,081790,062792,025661,085087,067266,085080,067297
0000000137,0000009067,021439,063503,021419,081171,063681,025474,084467,068144,084463,068175
0000000138,0000009133,021282,064393,021261,080536,064571,025308,083831,069019,083830,069049
0000000139,0000009200,021145,065284,021124,079888,065460,025163,083181,069890,083183,069919
0000000140,0000009267,021029,066173,021008,079226,066348,025039,082518,070758,082524,070786
0000000141,0000009333,020932,067060,020910,078552,067234,024937,081843,071624,081852,071651
0000000142,0000009400,020854,067944,020832,077866,068116,024856,081157,072485,081171,072512
0000000143,0000009467,020795,068824,020772,077169,068994,024793,080459,073338,080477,073364
0000000144,0000009533,020753,069699,020730,076463,069867,024749,079748,074183,079769,074207
0000000145,0000009600,020730,070567,020705,075747,070733,024724,079026,075019,079051,075043
0000000146,0000009667,020724,071428,020699,075022,071591,024719,078296,075847,078325,075870
0000000147,0000009733,020737,072280,020711,074289,072440,024735,077558,076668,077591,076690
0000000148,0000009800,020768,073122,020741,073548,073279,024769,076808,077475,076845,077496
0000000149,0000009867,020817,073952,020790,072799,074107,024824,076051,078271,076092,078291
0000000150,0000009933,020886,074769,020858,072043,074921,024899,075286,079054,075331,079074
0000000151,0000010000,020974,075572,020945,071279,075722,024995,074512,079825,074562,079843
0000000152,0000010067,021082,076360,021053,070508,076507,025111,073730,080580,073784,080598
0000000153,0000010133,021212,077132,021182,069730,077276,025250,072941,081321,072999,081338
0000000154,0000010200,021362,077886,021332,068944,078028,025409,072144,082044,072206,082060
0000000155,0000010267,021535,078622,021504,068150,078761,025591,071338,082750,071403,082766
0000000156,0000010333,021730,079338,021699,067349,079474,025794,070524,083438,070593,083453
0000000157,0000010400,021949,080033,021917,066539,080167,026020,069703,084107,069775,084122
0000000158,0000010467,022190,080708,022158,065722,080840,026268,068874,084756,068950,084770
0000000159,0000010533,022456,081360,022423,064896,081490,026542,068042,085390,068122,085403
0000000160,0000010600,022744,081990,022711,064062,082118,026835,067199,085997,067283,086009
0000000161,0000010667,023057,082597,023024,063220,082724,027154,066352,086589,066441,086601
0000000162,0000010733,023393,083181,023360,062370,083306,027495,065500,087158,065593,087169
0000000163,0000010800,023753,083741,023719,061513,083865,027857,064638,087704,064736,087714
0000000164,0000010867,024135,084278,024101,060649,084400,028244,063777,088233,063880,088242
0000000165,0000010933,024539,084790,024505,059778,084911,028650,062906,088735,063012,088743
0000000166,0000011000,024964,085279,024931,058901,085399,029077,062031,089217,062141,089225
0000000167,0000011067,025411,085743,025377,058017,085863,029520,061137,089674,061245,089681
0000000168,0000011133,025876,086185,025844,057129,086303,029982,060242,090106,060348,090113
0000000169,0000011200,026361,086602,026328,056234,086720,030466,059348,090522,059454,090528
0000000170,0000011267,026863,086996,026831,055335,087114,030964,058442,090909,058545,090915
0000000171,0000011333,027382,087368,027350,054430,087485,031480,057536,091277,057637,091283
0000000172,0000011400,027917,087716,027885,053521,087833,032015,056632,091625,056731,091630
0000000173,0000011467,028465,088042,028434,052609,088158,032565,055727,091950,055824,091955
0000000174,0000011533,029028,088346,028996,051693,088462,033131,054821,092253,054918,092257
0000000175,0000011600,029602,088628,029571,050775,088743,033711,053918,092533,054013,092537
0000000176,0000011667,030188,088888,030158,049857,089003,034306,053017,092795,053112,092798
0000000177,0000011733,030785,089127,030755,048939,089241,034914,052120,093036,052215,093039
0000000178,0000011800,031392,089345,031362,048022,089458,035533,051225,093253,051319,093256
0000000179,0000011867,032008,089541,031978,047108,089654,036165,050335,093451,050429,093453
0000000180,0000011933,032633,089717,032603,046198,089828,036809,049452,093627,049546,093629
0000000181,0000012000,033267,089872,033237,045294,089982,037462,048573,093780,048666,093782
0000000182,0000012067,033909,090005,033879,044397,090114,038128,047705,093915,047798,093916
0000000183,0000012133,034559,090118,034530,043508,090226,038804,046843,094027,046936,094028
0000000184,0000012200,035219,090210,035189,042628,090317,039490,045991,094118,046084,094118
0000000185,0000012267,035887,090281,035858,041759,090386,040186,045149,094186,045242,094186
0000000186,0000012333,036564,090331,036535,040901,090435,040893,044317,094233,044410,094232
0000000187,0000012400,037251,090360,037222,040057,090462,041610,043499,094259,043592,094259
0000000188,0000012467,037949,090367,037920,039226,090468,042338,042692,094262,042785,094262
0000000189,0000012533,038657,090353,038628,038409,090453,043077,041899,094245,041991,094243
0000000190,0000012600,039376,090318,039348,037608,090415,043827,041120,094205,041212,094204
0000000191,0000012667,040108,090260,040079,036823,090357,044588,040356,094143,040447,094141
0000000192,0000012733,040853,090181,040824,036055,090276,045360,039605,094059,039697,094057
0000000193,0000012800,041610,090081,041582,035304,090174,046144,038871,093954,038962,093952
0000000194,0000012867,042382,089958,042353,034569,090050,046933,038134,093821,038218,093819
0000000195,0000012933,043167,089813,043139,033851,089904,047732,037410,093665,037484,093663
0000000196,0000013000,043967,089647,043939,033149,089737,048542,036699,093488,036764,093486
0000000197,0000013067,044780,089459,044753,032462,089548,049365,036005,093289,036060,093288
0000000198,0000013133,045609,089250,045581,031790,089337,050199,035329,093068,035375,093066
0000000199,0000013200,046451,089019,046424,031133,089105,051048,034674,092828,034714,092827
0000000200,0000013267,047306,088767,047279,030491,088852,051907,034036,092568,034071,092567
0000000201,0000013333,048174,088493,048148,029863,088578,052775,033413,092286,033442,092284
0000000202,0000013400,049053,088199,049028,029251,088283,053652,032806,091982,032830,091981
0000000203,0000013467,049943,087885,049918,028654,087968,054539,032218,091660,032237,091659
