DIgSILENT PowerFactory,20000410,2000
10,10A,00D
1,LC684-652A:Phase Voltage A/Terminal i,,,kV,0.00010000000,-4.147061,0.000000,-31789,99998,1,1,P
2,LC684-652A:Phase Voltage C/Terminal i,,,kV,0.00010000000,-3.383397,0.000000,-22276,99998,1,1,P
3,LC692-675:Phase Voltage A/Terminal i,,,kV,0.00010000000,-4.158401,0.000000,-31392,99998,1,1,P
4,LC692-675:Phase Voltage B/Terminal i,,,kV,0.00010000000,-5.289352,0.000000,-8674,99998,1,1,P
5,LC692-675:Phase Voltage C/Terminal i,,,kV,0.00010000000,-3.482949,0.000000,-20847,99998,1,1,P
6,LOHL632-633:Phase Voltage A/Terminal i,,,kV,0.00010000000,-5.188593,0.000000,-5984,99998,1,1,P
7,LOHL632-633:Phase Voltage B/Terminal i,,,kV,0.00010000000,-5.840773,0.000000,9536,99998,1,1,P
8,LOHL632-633:Phase Voltage C/Terminal i,,,kV,0.00010000000,-5.067326,0.000000,3472,99998,1,1,P
9,LOHL645-646:Phase Voltage B/Terminal i,,,kV,0.00010000000,-5.836260,0.000000,9611,99998,1,1,P
10,LOHL645-646:Phase Voltage C/Terminal i,,,kV,0.00010000000,-5.070393,0.000000,3530,99998,1,1,P
50
1
15000.000000,3001
11/11/2020,23:46:54.000000
11/11/2020,23:46:54.000000
ASCII
1.000000
0000000001,0000000000,072142,034114,072264,022244,035060,082817,028030,050472,028021,050492
0000000002,0000000067,072578,033210,072700,022703,034156,083242,028482,049581,028474,049600
0000000003,0000000133,072991,032307,073115,023179,033256,083650,028966,048678,028955,048698
0000000004,0000000200,073390,031409,073510,023674,032356,084035,029456,047788,029445,047810
0000000005,0000000267,073761,030510,073884,024188,031457,084403,029979,046885,029966,046907
0000000006,0000000333,074115,029613,074238,024719,030561,084749,030510,045995,030496,046018
0000000007,0000000400,074447,028718,074572,025268,029668,085072,031058,045108,031043,045132
0000000008,0000000467,074762,027830,074884,025835,028779,085377,031624,044224,031608,044249
0000000009,0000000533,075049,026941,075175,026419,027893,085659,032213,043338,032197,043364
0000000010,0000000600,075321,026061,075445,027019,027012,085921,032810,042465,032793,042492
0000000011,0000000667,075568,025183,075693,027635,026135,086160,033427,041593,033409,041621
0000000012,0000000733,075794,024311,075920,028268,025265,086378,034063,040725,034044,040753
0000000013,0000000800,076000,023447,076125,028917,024400,086574,034712,039866,034691,039895
0000000014,0000000867,076181,022587,076308,029581,023542,086749,035374,039014,035353,039043
0000000015,0000000933,076342,021735,076469,030259,022691,086901,036052,038169,036030,038199
0000000016,0000001000,076481,020892,076608,030952,021848,087030,036744,037332,036720,037363
0000000017,0000001067,076598,020055,076724,031657,021012,087113,037397,036477,037355,036510
0000000018,0000001133,076692,019228,076820,032370,020187,087198,038036,035684,037967,035720
0000000019,0000001200,076765,018408,076892,033097,019367,087218,038773,034789,038707,034825
0000000020,0000001267,076815,017599,076943,033829,018558,087279,039514,033991,039439,034018
0000000021,0000001333,076843,016801,076971,034568,017762,087305,040246,033264,040172,033298
0000000022,0000001400,076848,016011,076977,035319,016974,087344,041078,032497,041007,032536
0000000023,0000001467,076832,015233,076959,036075,016195,087262,041790,031659,041715,031693
0000000024,0000001533,076792,014466,076920,036841,015429,087230,042587,030925,042509,030961
0000000025,0000001600,076729,013711,076858,037613,014676,087190,043381,030214,043302,030255
0000000026,0000001667,076644,012968,076773,038391,013935,087054,044094,029463,044004,029501
0000000027,0000001733,076535,012236,076664,039182,013202,086937,044912,028699,044821,028736
0000000028,0000001800,076403,011519,076532,039978,012487,086782,045683,028023,045587,028062
0000000029,0000001867,076248,010813,076378,040784,011783,086646,046535,027327,046438,027368
0000000030,0000001933,076070,010123,076200,041598,011093,086477,047376,026679,047276,026723
0000000031,0000002000,075869,009446,075999,042419,010418,086270,048187,026026,048083,026072
0000000032,0000002067,075644,008782,075775,043248,009755,086032,049028,025348,048920,025392
0000000033,0000002133,075397,008135,075527,044084,009109,085787,049870,024748,049760,024795
0000000034,0000002200,075127,007501,075258,044928,008476,085494,050697,024096,050582,024142
0000000035,0000002267,074835,006884,074965,045779,007861,085203,051554,023509,051434,023557
0000000036,0000002333,074520,006282,074650,046636,007261,084867,052395,022901,052271,022948
0000000037,0000002400,074183,005697,074314,047500,006678,084544,053273,022354,053147,022403
0000000038,0000002467,073825,005129,073956,048370,006111,084189,054170,021802,054041,021852
0000000039,0000002533,073446,004579,073577,049243,005562,083808,055027,021276,054894,021327
0000000040,0000002600,073047,004046,073178,050121,005030,083380,055875,020737,055735,020787
0000000041,0000002667,072627,003531,072758,051003,004517,082962,056761,020239,056619,020290
0000000042,0000002733,072188,003035,072320,051889,004022,082534,057677,019767,057539,019818
0000000043,0000002800,071730,002558,071862,052777,003548,082081,058568,019324,058430,019377
0000000044,0000002867,071254,002101,071386,053668,003091,081591,059454,018864,059316,018916
0000000045,0000002933,070760,001663,070892,054561,002656,081101,060353,018454,060215,018507
0000000046,0000003000,070248,001247,070380,055455,002241,080580,061229,018050,061092,018102
0000000047,0000003067,069720,000851,069852,056352,001848,080066,062148,017699,062015,017754
0000000048,0000003133,069176,000477,069308,057249,001476,079517,063040,017346,062909,017401
0000000049,0000003200,068616,000125,068748,058146,001125,078948,063928,017003,063798,017057
0000000050,0000003267,068041,-00205,068174,059043,000797,078364,064813,016679,064683,016733
0000000051,0000003333,067451,-00512,067584,059939,000492,077770,065704,016396,065576,016451
0000000052,0000003400,066848,-00796,066981,060833,000210,077163,066587,016136,066460,016191
0000000053,0000003467,066231,-01057,066363,061724,-00049,076537,067474,015886,067348,015941
0000000054,0000003533,065600,-01294,065733,062611,-00284,075901,068352,015669,068226,015725
0000000055,0000003600,064957,-01506,065090,063493,-00495,075244,069209,015471,069083,015527
0000000056,0000003667,064302,-01694,064435,064370,-00681,074583,070079,015304,069953,015362
0000000057,0000003733,063635,-01857,063768,065240,-00842,073907,070939,015160,070814,015218
0000000058,0000003800,062956,-01996,063089,066102,-00979,073213,071782,015028,071658,015086
0000000059,0000003867,062265,-02109,062398,066956,-01090,072510,072622,014928,072498,014987
0000000060,0000003933,061564,-02197,061697,067799,-01177,071794,073449,014844,073326,014903
0000000061,0000004000,060851,-02260,060984,068633,-01239,071068,074271,014791,074148,014850
0000000062,0000004067,060128,-02298,060261,069455,-01275,070322,075069,014753,074946,014811
0000000063,0000004133,059394,-02310,059527,070265,-01286,069573,075861,014749,075738,014808
0000000064,0000004200,058650,-02297,058782,071063,-01272,068812,076644,014765,076522,014825
0000000065,0000004267,057896,-02259,058027,071848,-01233,068044,077421,014805,077299,014864
0000000066,0000004333,057131,-02196,057262,072618,-01169,067265,078180,014874,078060,014933
0000000067,0000004400,056356,-02108,056487,073374,-01080,066469,078915,014962,078795,015022
0000000068,0000004467,055572,-01996,055703,074116,-00967,065675,079653,015080,079533,015141
0000000069,0000004533,054777,-01860,054908,074843,-00831,064868,080382,015213,080269,015273
0000000070,0000004600,053974,-01701,054104,075556,-00670,064062,081103,015387,080998,015448
0000000071,0000004667,053161,-01518,053290,076256,-00488,063233,081804,015561,081708,015620
0000000072,0000004733,052339,-01313,052468,076942,-00281,062414,082507,015781,082421,015841
0000000073,0000004800,051508,-01085,051637,077615,-00053,061571,083175,016004,083097,016064
0000000074,0000004867,050669,-00835,050798,078277,000198,060735,083851,016267,083783,016328
0000000075,0000004933,049823,-00563,049950,078927,000469,059880,084498,016534,084438,016594
0000000076,0000005000,048969,-00271,049096,079565,000762,059028,085137,016837,085085,016897
0000000077,0000005067,048109,000042,048236,080190,001075,058153,085741,017139,085694,017198
0000000078,0000005133,047243,000375,047370,080804,001409,057288,086347,017480,086305,017540
0000000079,0000005200,046373,000727,046499,081403,001762,056407,086923,017830,086885,017889
0000000080,0000005267,045498,001099,045624,081989,002134,055527,087486,018205,087453,018264
0000000081,0000005333,044621,001490,044745,082559,002526,054648,088041,018602,088012,018661
0000000082,0000005400,043741,001899,043865,083113,002935,053756,088564,019003,088538,019062
0000000083,0000005467,042860,002327,042984,083649,003364,052875,089080,019441,089058,019500
0000000084,0000005533,041979,002772,042102,084166,003810,051985,089566,019888,089546,019946
0000000085,0000005600,041098,003235,041221,084662,004274,051098,090035,020353,090018,020411
0000000086,0000005667,040219,003716,040342,085137,004755,050216,090489,020841,090474,020899
0000000087,0000005733,039342,004214,039465,085589,005254,049326,090906,021335,090892,021393
0000000088,0000005800,038468,004729,038590,086016,005770,048447,091306,021860,091293,021919
0000000089,0000005867,037598,005260,037720,086417,006302,047566,091676,022394,091661,022452
0000000090,0000005933,036732,005808,036854,086791,006851,046686,092016,022943,091997,023001
0000000091,0000006000,035871,006373,035992,087135,007416,045810,092327,023506,092305,023564
0000000092,0000006067,035014,006953,035135,087450,007998,044944,092621,024094,092596,024152
0000000093,0000006133,034163,007550,034283,087734,008595,044082,092882,024695,092855,024753
0000000094,0000006200,033317,008162,033437,087986,009208,043221,093109,025307,093076,025365
0000000095,0000006267,032476,008789,032596,088205,009836,042367,093310,025936,093270,025994
0000000096,0000006333,031640,009432,031760,088392,010479,041518,093481,026579,093436,026636
0000000097,0000006400,030810,010089,030929,088546,011136,040679,093629,027240,093580,027298
0000000098,0000006467,029984,010761,030103,088667,011808,039843,093746,027914,093693,027971
0000000099,0000006533,029164,011446,029282,088756,012494,039016,093839,028603,093781,028659
0000000100,0000006600,028348,012145,028465,088813,013193,038199,093910,029310,093850,029367
0000000101,0000006667,027536,012856,027653,088841,013904,037385,093949,030024,093885,030080
0000000102,0000006733,026728,013580,026845,088839,014628,036577,093963,030750,093896,030806
0000000103,0000006800,025925,014316,026041,088810,015363,035779,093957,031494,093888,031549
0000000104,0000006867,025126,015062,025241,088755,016110,034985,093921,032245,093849,032300
0000000105,0000006933,024331,015819,024445,088676,016866,034198,093865,033006,093790,033060
0000000106,0000007000,023541,016586,023655,088574,017633,033422,093789,033782,093712,033836
0000000107,0000007067,022755,017362,022869,088450,018408,032653,093693,034566,093614,034620
0000000108,0000007133,021976,018146,022088,088307,019192,031892,093575,035360,093494,035414
0000000109,0000007200,021202,018938,021315,088145,019984,031140,093437,036161,093355,036214
0000000110,0000007267,020436,019737,020548,087966,020783,030395,093279,036967,093195,037019
0000000111,0000007333,019679,020543,019789,087771,021588,029664,093107,037785,093022,037836
0000000112,0000007400,018930,021355,019040,087561,022399,028944,092918,038609,092831,038660
0000000113,0000007467,018192,022172,018302,087336,023216,028233,092708,039437,092620,039487
0000000114,0000007533,017467,022993,017576,087098,024037,027539,092486,040275,092397,040324
0000000115,0000007600,016755,023820,016864,086846,024863,026858,092246,041116,092157,041165
0000000116,0000007667,016059,024650,016167,086581,025694,026191,091988,041959,091898,042008
0000000117,0000007733,015379,025484,015487,086303,026528,025544,091719,042811,091629,042860
0000000118,0000007800,014718,026321,014825,086011,027366,024912,091429,043665,091338,043713
0000000119,0000007867,014076,027162,014184,085706,028206,024297,091120,044520,091027,044567
0000000120,0000007933,013457,028006,013564,085385,029051,023706,090798,045383,090704,045429
0000000121,0000008000,012859,028852,012967,085050,029898,023134,090457,046247,090362,046292
0000000122,0000008067,012287,029702,012394,084699,030748,022583,090099,047112,090003,047157
0000000123,0000008133,011739,030555,011846,084332,031602,022058,089726,047983,089631,048027
0000000124,0000008200,011218,031410,011324,083947,032458,021554,089334,048853,089238,048897
0000000125,0000008267,010723,032269,010830,083545,033318,021075,088924,049728,088829,049771
0000000126,0000008333,010256,033131,010363,083125,034180,020620,088496,050604,088402,050646
0000000127,0000008400,009817,033996,009924,082686,035046,020190,088049,051480,087956,051522
0000000128,0000008467,009406,034864,009513,082228,035915,019786,087585,052360,087492,052400
0000000129,0000008533,009023,035735,009129,081752,036786,019407,087101,053240,087009,053279
0000000130,0000008600,008668,036609,008774,081256,037661,019053,086600,054122,086511,054161
0000000131,0000008667,008340,037486,008446,080741,038539,018724,086080,055004,085993,055042
0000000132,0000008733,008038,038366,008145,080207,039420,018421,085544,055886,085459,055924
0000000133,0000008800,007763,039249,007869,079655,040303,018141,084989,056769,084906,056806
0000000134,0000008867,007513,040135,007619,079086,041188,017886,084418,057652,084337,057688
0000000135,0000008933,007288,041022,007394,078498,042075,017654,083829,058534,083751,058569
0000000136,0000009000,007086,041911,007192,077895,042964,017444,083224,059414,083149,059449
0000000137,0000009067,006907,042802,007012,077275,043854,017257,082605,060293,082533,060326
0000000138,0000009133,006750,043692,006855,076641,044743,017092,081969,061168,081900,061200
0000000139,0000009200,006613,044582,006718,075992,045632,016948,081320,062040,081255,062072
0000000140,0000009267,006497,045472,006601,075330,046520,016823,080656,062909,080594,062940
0000000141,0000009333,006400,046359,006504,074656,047406,016721,079981,063773,079923,063803
0000000142,0000009400,006322,047243,006425,073970,048288,016637,079292,064631,079238,064661
0000000143,0000009467,006263,048123,006365,073274,049166,016575,078596,065486,078545,065514
0000000144,0000009533,006221,048998,006323,072567,050039,016532,077886,066332,077839,066359
0000000145,0000009600,006198,049866,006299,071852,050905,016508,077166,067169,077123,067196
0000000146,0000009667,006192,050727,006293,071127,051763,016504,076436,067998,076397,068024
0000000147,0000009733,006205,051579,006305,070394,052613,016519,075696,068817,075661,068842
0000000148,0000009800,006236,052420,006335,069653,053451,016554,074947,069625,074916,069649
0000000149,0000009867,006285,053250,006384,068904,054279,016607,074189,070420,074162,070443
0000000150,0000009933,006354,054068,006452,068148,055093,016683,073425,071205,073402,071227
0000000151,0000010000,006442,054871,006539,067384,055894,016778,072649,071973,072631,071995
0000000152,0000010067,006551,055659,006647,066613,056679,016896,071869,072730,071855,072751
0000000153,0000010133,006680,056431,006775,065834,057448,017032,071078,073468,071068,073488
0000000154,0000010200,006831,057185,006926,065048,058200,017192,070281,074192,070274,074211
0000000155,0000010267,007003,057921,007098,064255,058933,017374,069475,074898,069472,074917
0000000156,0000010333,007199,058637,007292,063453,059646,017577,068661,075585,068661,075603
0000000157,0000010400,007417,059332,007510,062644,060339,017802,067839,076255,067844,076272
0000000158,0000010467,007658,060007,007751,061826,061012,018053,067013,076907,067022,076923
0000000159,0000010533,007924,060659,008016,061000,061662,018324,066178,077536,066190,077552
0000000160,0000010600,008213,061289,008305,060166,062290,018619,065337,078147,065354,078162
0000000161,0000010667,008525,061896,008617,059325,062896,018938,064491,078738,064512,078752
0000000162,0000010733,008861,062480,008954,058475,063478,019278,063636,079306,063661,079319
0000000163,0000010800,009221,063040,009313,057618,064037,019641,062778,079854,062807,079866
0000000164,0000010867,009603,063576,009695,056753,064572,020027,061914,080381,061948,080393
0000000165,0000010933,010007,064089,010099,055882,065083,020433,061044,080884,061083,080895
0000000166,0000011000,010433,064577,010525,055005,065571,020860,060168,081365,060210,081376
0000000167,0000011067,010879,065042,010971,054122,066035,021303,059275,081822,059315,081832
0000000168,0000011133,011345,065483,011437,053233,066475,021766,058380,082256,058419,082266
0000000169,0000011200,011829,065901,011922,052339,066892,022249,057485,082669,057523,082679
0000000170,0000011267,012332,066295,012425,051439,067286,022747,056579,083058,056614,083067
0000000171,0000011333,012850,066667,012944,050535,067657,023264,055674,083426,055707,083435
0000000172,0000011400,013385,067015,013478,049626,068005,023798,054769,083773,054800,083781
0000000173,0000011467,013934,067341,014027,048713,068330,024348,053863,084097,053893,084105
0000000174,0000011533,014496,067645,014590,047797,068634,024914,052959,084402,052988,084409
0000000175,0000011600,015070,067927,015165,046880,068915,025495,052056,084683,052084,084690
0000000176,0000011667,015657,068187,015751,045961,069175,026089,051156,084945,051183,084951
0000000177,0000011733,016253,068426,016348,045043,069413,026696,050257,085184,050283,085190
0000000178,0000011800,016860,068644,016955,044126,069630,027317,049363,085403,049389,085408
0000000179,0000011867,017476,068840,017572,043213,069826,027949,048473,085599,048499,085604
0000000180,0000011933,018101,069016,018197,042303,070000,028592,047589,085775,047615,085780
0000000181,0000012000,018735,069170,018831,041399,070154,029246,046711,085930,046737,085935
0000000182,0000012067,019377,069304,019473,040501,070287,029911,045841,086063,045866,086067
0000000183,0000012133,020028,069417,020124,039612,070398,030587,044980,086175,045006,086179
0000000184,0000012200,020687,069509,020783,038732,070489,031273,044127,086265,044153,086268
0000000185,0000012267,021355,069580,021451,037863,070558,031970,043286,086335,043311,086337
0000000186,0000012333,022032,069630,022129,037006,070607,032676,042455,086381,042480,086384
0000000187,0000012400,022719,069659,022816,036161,070634,033394,041636,086407,041661,086410
0000000188,0000012467,023417,069666,023513,035330,070640,034122,040830,086411,040854,086413
0000000189,0000012533,024125,069652,024222,034514,070625,034860,040036,086393,040061,086395
0000000190,0000012600,024845,069616,024941,033713,070588,035610,039258,086354,039282,086355
0000000191,0000012667,025576,069559,025673,032928,070529,036371,038493,086291,038516,086293
0000000192,0000012733,026321,069480,026418,032159,070448,037143,037743,086208,037767,086210
0000000193,0000012800,027078,069379,027176,031408,070346,037927,037008,086102,037031,086103
0000000194,0000012867,027850,069257,027947,030673,070222,038716,036272,085969,036287,085970
0000000195,0000012933,028635,069112,028733,029955,070077,039516,035548,085814,035554,085816
0000000196,0000013000,029435,068946,029532,029253,069909,040326,034836,085636,034833,085637
0000000197,0000013067,030249,068758,030347,028567,069720,041148,034143,085437,034130,085439
0000000198,0000013133,031077,068549,031175,027895,069510,041983,033466,085217,033444,085218
0000000199,0000013200,031919,068318,032017,027238,069278,042831,032812,084977,032784,084979
0000000200,0000013267,032774,068065,032873,026595,069024,043690,032173,084716,032140,084718
0000000201,0000013333,033642,067792,033741,025968,068750,044558,031550,084434,031511,084436
0000000202,0000013400,034522,067498,034621,025355,068456,045436,030944,084132,030900,084134
0000000203,0000013467,035412,067183,035512,024759,068140,046322,030355,083808,030306,083810
