DIgSILENT PowerFactory,20000410,2000
10,10A,00D
1,LC684-652A:Phase Voltage A/Terminal i,,,kV,0.00010000000,-5.255971,0.000000,10763,99998,1,1,P
2,LC684-652A:Phase Voltage C/Terminal i,,,kV,0.00010000000,-4.370109,0.000000,-6277,99998,1,1,P
3,LC692-675:Phase Voltage A/Terminal i,,,kV,0.00010000000,-5.266822,0.000000,10888,99998,1,1,P
4,LC692-675:Phase Voltage B/Terminal i,,,kV,0.00010000000,-5.292788,0.000000,8648,99998,1,1,P
5,LC692-675:Phase Voltage C/Terminal i,,,kV,0.00010000000,-4.522395,0.000000,-4312,99998,1,1,P
6,LOHL632-633:Phase Voltage A/Terminal i,,,kV,0.00010000000,-5.735605,0.000000,18342,99998,1,1,P
7,LOHL632-633:Phase Voltage B/Terminal i,,,kV,0.00010000000,-5.793411,0.000000,18092,99998,1,1,P
8,LOHL632-633:Phase Voltage C/Terminal i,,,kV,0.00010000000,-5.322422,0.000000,9465,99998,1,1,P
9,LOHL645-646:Phase Voltage B/Terminal i,,,kV,0.00010000000,-5.799682,0.000000,18205,99998,1,1,P
10,LOHL645-646:Phase Voltage C/Terminal i,,,kV,0.00010000000,-5.325575,0.000000,9530,99998,1,1,P
50
1
15000.000000,3001
17/11/2020,18:43:51.000000
17/11/2020,18:43:51.000000
ASCII
1.000000
0000000001,0000000000,083232,043982,083348,022279,045455,088287,027556,053023,027655,053044
0000000002,0000000067,083668,043079,083784,022737,044551,088711,028008,052133,028105,052156
0000000003,0000000133,084083,042176,084200,023215,043648,089119,028495,051227,028594,051248
0000000004,0000000200,084476,041275,084594,023709,042750,089507,028981,050339,029079,050361
0000000005,0000000267,084851,040376,084969,024223,041851,089873,029505,049436,029601,049458
0000000006,0000000333,085205,039480,085323,024753,040956,090218,030031,048551,030125,048576
0000000007,0000000400,085538,038586,085656,025303,040063,090543,030585,047658,030679,047683
0000000008,0000000467,085849,037696,085969,025869,039173,090847,031154,046771,031247,046797
0000000009,0000000533,086140,036809,086260,026453,038287,091130,031739,045890,031831,045916
0000000010,0000000600,086410,035927,086529,027053,037406,091391,032341,045011,032432,045038
0000000011,0000000667,086658,035050,086778,027670,036529,091631,032957,044141,033047,044169
0000000012,0000000733,086884,034179,087004,028303,035659,091849,033589,043277,033678,043306
0000000013,0000000800,087088,033314,087209,028951,034794,092044,034237,042418,034324,042448
0000000014,0000000867,087271,032455,087392,029615,033937,092218,034898,041567,034984,041598
0000000015,0000000933,087431,031603,087553,030294,033086,092370,035576,040722,035661,040754
0000000016,0000001000,087570,030758,087692,030987,032242,092500,036269,039884,036353,039917
0000000017,0000001067,087687,029922,087809,031694,031407,092599,036958,039043,037030,039077
0000000018,0000001133,087781,029095,087904,032406,030581,092654,037560,038214,037602,038249
0000000019,0000001200,087854,028275,087977,033131,029761,092716,038328,037355,038368,037384
0000000020,0000001267,087905,027468,088026,033861,028955,092719,038993,036572,039025,036604
0000000021,0000001333,087932,026668,088055,034602,028156,092766,039769,035787,039801,035821
0000000022,0000001400,087938,025879,088061,035351,027369,092775,040535,035037,040568,035075
0000000023,0000001467,087921,025101,088044,036111,026591,092787,041388,034283,041424,034322
0000000024,0000001533,087881,024334,088004,036873,025826,092722,042088,033528,042119,033573
0000000025,0000001600,087817,023578,087942,037648,025071,092665,042925,032774,042956,032818
0000000026,0000001667,087732,022835,087857,038427,024330,092564,043671,032059,043696,032103
0000000027,0000001733,087624,022104,087749,039216,023598,092406,044424,031272,044440,031310
0000000028,0000001800,087492,021385,087617,040014,022880,092273,045247,030555,045263,030596
0000000029,0000001867,087338,020681,087462,040819,022178,092122,046070,029913,046080,029956
0000000030,0000001933,087159,019989,087284,041633,021488,091951,046914,029229,046924,029274
0000000031,0000002000,086958,019313,087083,042453,020812,091751,047726,028590,047732,028638
0000000032,0000002067,086734,018650,086859,043281,020150,091486,048522,027904,048519,027948
0000000033,0000002133,086486,018001,086612,044120,019503,091266,049415,027286,049413,027333
0000000034,0000002200,086216,017368,086342,044963,018871,090965,050230,026651,050224,026699
0000000035,0000002267,085924,016751,086049,045813,018254,090651,051061,026025,051048,026070
0000000036,0000002333,085609,016149,085735,046672,017655,090368,051971,025471,051958,025520
0000000037,0000002400,085272,015564,085398,047534,017072,089999,052787,024889,052768,024938
0000000038,0000002467,084914,014996,085040,048404,016504,089631,053661,024313,053637,024361
0000000039,0000002533,084535,014445,084661,049278,015955,089264,054551,023800,054525,023850
0000000040,0000002600,084136,013913,084262,050155,015424,088845,055395,023274,055363,023323
0000000041,0000002667,083716,013398,083843,051038,014911,088441,056301,022792,056267,022844
0000000042,0000002733,083277,012902,083404,051924,014417,088014,057212,022336,057182,022390
0000000043,0000002800,082819,012425,082946,052812,013941,087544,058089,021852,058059,021903
0000000044,0000002867,082343,011968,082470,053702,013486,087052,058963,021408,058932,021460
0000000045,0000002933,081849,011531,081976,054596,013051,086580,059890,021016,059861,021070
0000000046,0000003000,081337,011114,081465,055490,012636,086054,060758,020610,060730,020664
0000000047,0000003067,080809,010718,080937,056386,012243,085525,061655,020237,061628,020291
0000000048,0000003133,080265,010344,080392,057283,011870,084988,062566,019893,062542,019948
0000000049,0000003200,079705,009992,079833,058180,011520,084410,063446,019543,063422,019598
0000000050,0000003267,079130,009662,079258,059078,011192,083849,064357,019258,064337,019314
0000000051,0000003333,078540,009355,078668,059974,010887,083257,065255,018967,065236,019025
0000000052,0000003400,077937,009071,078065,060867,010604,082640,066123,018697,066104,018754
0000000053,0000003467,077320,008810,077448,061758,010345,082008,066994,018442,066975,018498
0000000054,0000003533,076690,008574,076817,062645,010110,081366,067871,018214,067853,018270
0000000055,0000003600,076047,008361,076175,063528,009900,080721,068745,018031,068728,018089
0000000056,0000003667,075391,008173,075519,064404,009713,080048,069603,017843,069585,017900
0000000057,0000003733,074724,008010,074852,065274,009552,079366,070452,017692,070434,017750
0000000058,0000003800,074045,007871,074173,066137,009415,078683,071310,017575,071294,017633
0000000059,0000003867,073354,007758,073482,066990,009304,077980,072149,017476,072133,017535
0000000060,0000003933,072653,007670,072781,067834,009217,077257,072969,017387,072953,017445
0000000061,0000004000,071940,007607,072068,068667,009156,076536,073796,017340,073781,017400
0000000062,0000004067,071217,007570,071345,069490,009120,075803,074611,017316,074597,017377
0000000063,0000004133,070483,007558,070611,070300,009109,075043,075392,017298,075377,017358
0000000064,0000004200,069739,007571,069866,071097,009123,074282,076173,017315,076158,017376
0000000065,0000004267,068985,007609,069112,071882,009162,073519,076952,017368,076939,017430
0000000066,0000004333,068220,007672,068347,072652,009226,072736,077704,017430,077691,017491
0000000067,0000004400,067445,007759,067572,073409,009315,071943,078446,017517,078433,017579
0000000068,0000004467,066661,007871,066787,074151,009427,071149,079185,017634,079174,017695
0000000069,0000004533,065867,008007,065992,074878,009564,070342,079913,017768,079909,017829
0000000070,0000004600,065063,008166,065188,075591,009724,069521,080618,017924,080620,017985
0000000071,0000004667,064250,008349,064375,076290,009907,068708,081333,018119,081344,018180
0000000072,0000004733,063428,008555,063552,076976,010113,067878,082027,018323,082048,018383
0000000073,0000004800,062597,008782,062721,077650,010341,067043,082707,018556,082737,018617
0000000074,0000004867,061758,009032,061882,078312,010592,066205,083379,018816,083419,018876
0000000075,0000004933,060912,009304,061035,078961,010864,065354,084029,019089,084077,019150
0000000076,0000005000,060058,009596,060181,079599,011156,064494,084660,019384,084716,019444
0000000077,0000005067,059198,009909,059320,080225,011470,063626,085271,019695,085332,019755
0000000078,0000005133,058332,010242,058454,080838,011803,062754,085869,020027,085935,020087
0000000079,0000005200,057462,010594,057583,081438,012156,061879,086453,020383,086523,020443
0000000080,0000005267,056587,010966,056708,082023,012529,060999,087018,020756,087093,020817
0000000081,0000005333,055710,011357,055830,082594,012920,060119,087567,021154,087646,021214
0000000082,0000005400,054830,011766,054949,083147,013330,059232,088096,021564,088178,021624
0000000083,0000005467,053949,012194,054068,083683,013758,058341,088600,021988,088685,022047
0000000084,0000005533,053068,012639,053186,084200,014204,057456,089094,022438,089182,022498
0000000085,0000005600,052187,013103,052305,084697,014668,056571,089567,022906,089658,022966
0000000086,0000005667,051308,013583,051426,085172,015150,055686,090014,023394,090107,023454
0000000087,0000005733,050431,014081,050549,085623,015648,054802,090439,023894,090535,023953
0000000088,0000005800,049557,014596,049675,086050,016164,053918,090836,024411,090931,024471
0000000089,0000005867,048687,015127,048804,086451,016697,053036,091200,024946,091293,025005
0000000090,0000005933,047821,015675,047938,086825,017245,052156,091539,025494,091628,025553
0000000091,0000006000,046960,016240,047076,087170,017811,051283,091856,026061,091942,026120
0000000092,0000006067,046103,016820,046219,087484,018392,050411,092142,026639,092225,026698
0000000093,0000006133,045252,017417,045367,087768,018989,049548,092404,027240,092484,027298
0000000094,0000006200,044406,018029,044521,088020,019602,048691,092636,027858,092710,027917
0000000095,0000006267,043565,018656,043680,088240,020230,047836,092835,028486,092904,028545
0000000096,0000006333,042729,019299,042844,088426,020873,046989,093008,029131,093071,029189
0000000097,0000006400,041899,019956,042013,088580,021531,046147,093153,029790,093211,029848
0000000098,0000006467,041074,020628,041187,088701,022203,045316,093277,030467,093331,030525
0000000099,0000006533,040253,021313,040366,088790,022888,044488,093368,031156,093418,031213
0000000100,0000006600,039437,022012,039549,088848,023587,043667,093434,031858,093480,031916
0000000101,0000006667,038625,022723,038737,088875,024299,042853,093473,032573,093516,032630
0000000102,0000006733,037817,023447,037929,088874,025022,042046,093488,033300,093529,033357
0000000103,0000006800,037014,024183,037125,088845,025758,041246,093479,034040,093517,034096
0000000104,0000006867,036215,024929,036325,088790,026504,040456,093449,034797,093484,034853
0000000105,0000006933,035420,025686,035530,088710,027261,039668,093390,035557,093423,035612
0000000106,0000007000,034630,026453,034739,088608,028027,038894,093319,036336,093350,036391
0000000107,0000007067,033845,027229,033953,088485,028803,038124,093219,037119,093248,037173
0000000108,0000007133,033065,028013,033173,088341,029587,037361,093099,037909,093126,037963
0000000109,0000007200,032292,028805,032399,088179,030378,036608,092962,038709,092987,038763
0000000110,0000007267,031525,029605,031632,088000,031177,035867,092808,039521,092832,039574
0000000111,0000007333,030768,030410,030874,087805,031982,035132,092632,040335,092654,040387
0000000112,0000007400,030019,031222,030125,087595,032794,034413,092443,041160,092464,041212
0000000113,0000007467,029282,032039,029386,087371,033610,033704,092235,041990,092256,042041
0000000114,0000007533,028556,032861,028660,087132,034432,033008,092011,042823,092030,042874
0000000115,0000007600,027844,033687,027948,086881,035258,032330,091775,043667,091793,043718
0000000116,0000007667,027148,034517,027251,086616,036088,031660,091514,044509,091532,044559
0000000117,0000007733,026468,035351,026571,086337,036922,031014,091245,045363,091263,045412
0000000118,0000007800,025807,036188,025910,086046,037760,030382,090955,046215,090971,046264
0000000119,0000007867,025166,037029,025268,085740,038601,029768,090647,047071,090661,047119
0000000120,0000007933,024546,037873,024648,085420,039445,029177,090325,047934,090338,047981
0000000121,0000008000,023949,038719,024051,085085,040293,028603,089982,048796,089995,048842
0000000122,0000008067,023376,039569,023478,084734,041143,028054,089626,049664,089639,049710
0000000123,0000008133,022828,040422,022930,084366,041996,027527,089253,050533,089265,050578
0000000124,0000008200,022307,041278,022409,083982,042853,027024,088860,051405,088873,051450
0000000125,0000008267,021812,042136,021914,083580,043712,026546,088452,052280,088464,052324
0000000126,0000008333,021345,042998,021447,083159,044575,026091,088023,053155,088036,053198
0000000127,0000008400,020906,043863,021008,082721,045440,025661,087577,054032,087591,054075
0000000128,0000008467,020495,044731,020597,082263,046309,025257,087113,054912,087128,054954
0000000129,0000008533,020112,045602,020214,081786,047181,024878,086629,055792,086645,055833
0000000130,0000008600,019757,046476,019858,081290,048056,024525,086128,056674,086146,056714
0000000131,0000008667,019429,047353,019530,080775,048934,024196,085608,057556,085628,057595
0000000132,0000008733,019127,048234,019229,080242,049814,023891,085070,058438,085092,058476
0000000133,0000008800,018852,049117,018954,079690,050697,023612,084515,059321,084540,059359
0000000134,0000008867,018603,050002,018704,079120,051583,023355,083943,060202,083970,060239
0000000135,0000008933,018377,050889,018478,078533,052470,023123,083354,061084,083384,061120
0000000136,0000009000,018175,051778,018276,077929,053358,022914,082750,061964,082783,061999
0000000137,0000009067,017996,052669,018097,077310,054248,022726,082129,062841,082165,062875
0000000138,0000009133,017839,053559,017939,076675,055138,022561,081495,063718,081534,063751
0000000139,0000009200,017703,054450,017802,076027,056027,022416,080845,064590,080887,064623
0000000140,0000009267,017586,055339,017685,075365,056915,022293,080182,065459,080228,065491
0000000141,0000009333,017489,056226,017588,074690,057800,022190,079507,066324,079556,066355
0000000142,0000009400,017411,057110,017510,074005,058683,022107,078818,067182,078871,067212
0000000143,0000009467,017352,057990,017449,073308,059561,022044,078120,068035,078177,068065
0000000144,0000009533,017310,058865,017407,072602,060433,022001,077410,068880,077471,068909
0000000145,0000009600,017287,059733,017383,071886,061299,021979,076693,069721,076758,069748
0000000146,0000009667,017282,060594,017377,071161,062158,021973,075962,070549,076030,070576
0000000147,0000009733,017294,061446,017389,070428,063007,021989,075222,071367,075295,071393
0000000148,0000009800,017325,062287,017419,069687,063846,022023,074473,072175,074549,072200
0000000149,0000009867,017374,063118,017468,068938,064673,022077,073715,072971,073796,072995
0000000150,0000009933,017443,063935,017536,068182,065488,022152,072950,073754,073035,073778
0000000151,0000010000,017531,064738,017623,067418,066288,022249,072176,074525,072265,074547
0000000152,0000010067,017640,065526,017731,066647,067074,022365,071395,075280,071488,075302
0000000153,0000010133,017769,066298,017860,065869,067843,022503,070605,076020,070702,076041
0000000154,0000010200,017920,067052,018010,065083,068594,022663,069808,076743,069909,076763
0000000155,0000010267,018092,067788,018182,064289,069327,022843,069001,077448,069106,077468
0000000156,0000010333,018288,068504,018377,063487,070041,023047,068187,078137,068296,078156
0000000157,0000010400,018506,069199,018594,062678,070734,023273,067366,078806,067478,078824
0000000158,0000010467,018748,069874,018836,061860,071406,023523,066540,079457,066656,079475
0000000159,0000010533,019013,070526,019101,061035,072056,023794,065704,080088,065824,080104
0000000160,0000010600,019302,071156,019389,060201,072685,024090,064864,080699,064989,080715
0000000161,0000010667,019614,071763,019702,059359,073290,024407,064016,081288,064145,081303
0000000162,0000010733,019951,072347,020038,058509,073872,024749,063163,081858,063296,081872
0000000163,0000010800,020310,072907,020397,057652,074431,025112,062304,082405,062441,082418
0000000164,0000010867,020692,073443,020779,056788,074966,025497,061440,082931,061582,082944
0000000165,0000010933,021096,073956,021183,055917,075478,025904,060571,083435,060717,083447
0000000166,0000011000,021522,074444,021609,055040,075965,026331,059695,083917,059845,083929
0000000167,0000011067,021968,074909,022055,054156,076429,026773,058802,084373,058950,084384
0000000168,0000011133,022434,075350,022521,053268,076870,027237,057907,084808,058054,084819
0000000169,0000011200,022918,075768,023006,052373,077287,027719,057012,085221,057158,085231
0000000170,0000011267,023421,076162,023509,051474,077681,028217,056106,085609,056250,085619
0000000171,0000011333,023940,076534,024028,050569,078051,028733,055200,085976,055341,085986
0000000172,0000011400,024474,076882,024563,049660,078399,029267,054294,086322,054433,086331
0000000173,0000011467,025023,077208,025112,048748,078725,029817,053389,086647,053527,086655
0000000174,0000011533,025585,077512,025674,047832,079028,030384,052485,086951,052621,086959
0000000175,0000011600,026160,077794,026249,046914,079310,030964,051582,087234,051718,087241
0000000176,0000011667,026746,078054,026835,045996,079569,031560,050683,087496,050818,087504
0000000177,0000011733,027342,078293,027433,045078,079808,032166,049783,087734,049917,087741
0000000178,0000011800,027949,078511,028039,044161,080025,032786,048889,087953,049022,087959
0000000179,0000011867,028565,078707,028656,043247,080220,033419,048001,088151,048134,088157
0000000180,0000011933,029190,078883,029281,042337,080395,034062,047115,088327,047249,088332
0000000181,0000012000,029824,079038,029915,041433,080548,034717,046238,088482,046372,088487
0000000182,0000012067,030466,079171,030557,040536,080681,035381,045368,088614,045501,088619
0000000183,0000012133,031117,079284,031208,039647,080793,036057,044507,088727,044640,088731
0000000184,0000012200,031776,079376,031867,038767,080883,036743,043654,088816,043788,088821
0000000185,0000012267,032444,079447,032536,037898,080953,037440,042812,088885,042945,088889
0000000186,0000012333,033121,079497,033213,037040,081001,038147,041982,088933,042114,088937
0000000187,0000012400,033809,079526,033900,036196,081029,038864,041163,088959,041295,088962
0000000188,0000012467,034506,079533,034598,035365,081035,039592,040357,088963,040489,088966
0000000189,0000012533,035214,079519,035306,034548,081019,040330,039562,088944,039694,088946
0000000190,0000012600,035934,079484,036026,033747,080982,041081,038785,088905,038917,088908
0000000191,0000012667,036665,079426,036757,032962,080923,041841,038019,088842,038150,088845
0000000192,0000012733,037410,079347,037502,032194,080843,042614,037270,088759,037401,088761
0000000193,0000012800,038168,079246,038260,031442,080741,043397,036535,088653,036665,088655
0000000194,0000012867,038939,079124,039031,030708,080617,044186,035798,088520,035921,088522
0000000195,0000012933,039724,078979,039817,029990,080471,044985,035074,088365,035188,088367
0000000196,0000013000,040524,078813,040617,029288,080304,045795,034362,088186,034466,088188
0000000197,0000013067,041338,078625,041431,028601,080115,046618,033669,087988,033764,087990
0000000198,0000013133,042166,078416,042259,027929,079904,047454,032993,087768,033080,087771
0000000199,0000013200,043008,078185,043102,027272,079672,048302,032338,087528,032419,087531
0000000200,0000013267,043863,077932,043957,026630,079419,049160,031700,087267,031774,087269
0000000201,0000013333,044731,077659,044826,026002,079145,050028,031076,086985,031145,086987
0000000202,0000013400,045611,077365,045706,025390,078850,050906,030470,086682,030534,086684
0000000203,0000013467,046501,077051,046596,024793,078535,051792,029882,086359,029941,086362
