DIgSILENT PowerFactory,20000410,2000
10,10A,00D
1,LC684-652A:Phase Voltage A/Terminal i,,,kV,0.00010000000,-3.947659,0.000000,-7400,99998,1,1,P
2,LC684-652A:Phase Voltage C/Terminal i,,,kV,0.00010000000,-5.344414,0.000000,4068,99998,1,1,P
3,LC692-675:Phase Voltage A/Terminal i,,,kV,0.00010000000,-3.950578,0.000000,-6814,99998,1,1,P
4,LC692-675:Phase Voltage B/Terminal i,,,kV,0.00010000000,-5.221187,0.000000,-18803,99998,1,1,P
5,LC692-675:Phase Voltage C/Terminal i,,,kV,0.00010000000,-5.365567,0.000000,4618,99998,1,1,P
6,LOHL632-633:Phase Voltage A/Terminal i,,,kV,0.00010000000,-4.987779,0.000000,7914,99998,1,1,P
7,LOHL632-633:Phase Voltage B/Terminal i,,,kV,0.00010000000,-5.806670,0.000000,1939,99998,1,1,P
8,LOHL632-633:Phase Voltage C/Terminal i,,,kV,0.00010000000,-5.840869,0.000000,16702,99998,1,1,P
9,LOHL645-646:Phase Voltage B/Terminal i,,,kV,0.00010000000,-5.813015,0.000000,2100,99998,1,1,P
10,LOHL645-646:Phase Voltage C/Terminal i,,,kV,0.00010000000,-5.843495,0.000000,16754,99998,1,1,P
50
1
15000.000000,3001
11/11/2020,22:27:55.000000
11/11/2020,22:27:55.000000
ASCII
1.000000
0000000001,0000000000,070148,053723,070187,021564,053884,080809,027689,058208,027789,058223
0000000002,0000000067,070584,052822,070621,022021,052983,081235,028141,057316,028240,057331
0000000003,0000000133,070997,051917,071037,022498,052081,081642,028624,056413,028724,056431
0000000004,0000000200,071393,051017,071432,022993,051182,082027,029119,055520,029218,055537
0000000005,0000000267,071770,050120,071807,023506,050284,082395,029631,054627,029726,054645
0000000006,0000000333,072122,049224,072160,024037,049388,082739,030164,053735,030259,053754
0000000007,0000000400,072453,048328,072494,024586,048495,083065,030715,052846,030809,052865
0000000008,0000000467,072766,047438,072806,025153,047605,083369,031288,051955,031382,051976
0000000009,0000000533,073057,046552,073097,025737,046719,083651,031868,051078,031960,051099
0000000010,0000000600,073325,045670,073367,026337,045838,083913,032474,050196,032565,050217
0000000011,0000000667,073576,044794,073616,026954,044962,084152,033085,049330,033175,049353
0000000012,0000000733,073800,043922,073842,027587,044091,084370,033722,048460,033812,048484
0000000013,0000000800,074004,043056,074047,028235,043226,084566,034372,047600,034461,047625
0000000014,0000000867,074187,042197,074229,028899,042368,084740,035033,046749,035121,046774
0000000015,0000000933,074349,041346,074391,029578,041517,084892,035711,045905,035797,045931
0000000016,0000001000,074487,040502,074529,030271,040674,085022,036402,045068,036487,045095
0000000017,0000001067,074603,039665,074646,030976,039839,085114,037074,044223,037142,044249
0000000018,0000001133,074698,038838,074743,031689,039014,085185,037692,043413,037729,043443
0000000019,0000001200,074770,038018,074814,032416,038193,085237,038460,042535,038501,042560
0000000020,0000001267,074821,037209,074864,033147,037384,085266,039169,041728,039206,041753
0000000021,0000001333,074849,036411,074892,033887,036589,085303,039913,041016,039947,041050
0000000022,0000001400,074854,035622,074898,034639,035799,085334,040753,040229,040794,040265
0000000023,0000001467,074837,034844,074882,035393,035025,085320,041475,039509,041512,039549
0000000024,0000001533,074798,034077,074842,036159,034256,085248,042273,038697,042306,038732
0000000025,0000001600,074735,033322,074780,036930,033504,085166,043005,037974,043033,038013
0000000026,0000001667,074649,032577,074695,037712,032759,085075,043812,037192,043837,037227
0000000027,0000001733,074541,031847,074586,038500,032030,084906,044540,036450,044556,036482
0000000028,0000001800,074409,031128,074454,039297,031312,084779,045363,035727,045376,035759
0000000029,0000001867,074254,030424,074300,040103,030609,084640,046201,035076,046214,035114
0000000030,0000001933,074076,029733,074122,040916,029920,084473,047030,034434,047040,034475
0000000031,0000002000,073874,029055,073921,041738,029243,084268,047878,033748,047885,033789
0000000032,0000002067,073650,028392,073696,042566,028580,084002,048659,033057,048658,033095
0000000033,0000002133,073403,027744,073449,043403,027934,083780,049538,032467,049537,032509
0000000034,0000002200,073133,027112,073179,044246,027303,083491,050362,031851,050356,031895
0000000035,0000002267,072840,026494,072887,045098,026687,083212,051244,031251,051235,031295
0000000036,0000002333,072526,025892,072572,045954,026087,082858,052049,030630,052033,030671
0000000037,0000002400,072189,025308,072236,046819,025504,082548,052954,030104,052937,030150
0000000038,0000002467,071831,024739,071878,047688,024937,082179,053822,029528,053802,029573
0000000039,0000002533,071452,024188,071499,048562,024387,081773,054662,028961,054635,029003
0000000040,0000002600,071053,023656,071099,049439,023856,081368,055530,028464,055499,028509
0000000041,0000002667,070633,023141,070680,050322,023343,080963,056437,027972,056405,028018
0000000042,0000002733,070194,022645,070241,051207,022849,080532,057334,027526,057304,027574
0000000043,0000002800,069736,022168,069784,052095,022373,080059,058207,027037,058177,027084
0000000044,0000002867,069260,021711,069307,052986,021918,079585,059108,026603,059079,026650
0000000045,0000002933,068766,021274,068813,053879,021483,079085,059990,026186,059959,026234
0000000046,0000003000,068254,020857,068302,054774,021068,078578,060897,025800,060870,025848
0000000047,0000003067,067726,020461,067774,055670,020674,078044,061788,025413,061762,025461
0000000048,0000003133,067182,020087,067230,056567,020302,077498,062687,025066,062663,025115
0000000049,0000003200,066622,019735,066670,057464,019951,076935,063583,024725,063561,024773
0000000050,0000003267,066047,019405,066095,058361,019623,076355,064474,024412,064452,024461
0000000051,0000003333,065457,019098,065506,059257,019318,075771,065371,024145,065352,024196
0000000052,0000003400,064854,018814,064902,060151,019036,075160,066257,023872,066238,023923
0000000053,0000003467,064237,018553,064285,061042,018777,074530,067134,023620,067116,023671
0000000054,0000003533,063607,018317,063655,061929,018542,073886,068002,023397,067985,023449
0000000055,0000003600,062963,018104,063012,062812,018332,073240,068870,023212,068852,023264
0000000056,0000003667,062308,017916,062357,063689,018145,072567,069734,023024,069717,023075
0000000057,0000003733,061641,017753,061689,064558,017984,071886,070579,022879,070562,022931
0000000058,0000003800,060962,017614,061010,065420,017847,071198,071435,022748,071419,022801
0000000059,0000003867,060271,017501,060320,066274,017736,070508,072290,022664,072276,022719
0000000060,0000003933,059570,017413,059618,067118,017649,069788,073109,022587,073094,022642
0000000061,0000004000,058857,017350,058906,067951,017588,069053,073918,022520,073903,022574
0000000062,0000004067,058134,017313,058182,068773,017551,068311,074724,022484,074709,022538
0000000063,0000004133,057400,017300,057448,069584,017540,067562,075522,022478,075508,022532
0000000064,0000004200,056656,017314,056704,070382,017555,066812,076317,022510,076305,022565
0000000065,0000004267,055902,017352,055949,071166,017594,066034,077077,022539,077064,022594
0000000066,0000004333,055137,017414,055184,071937,017658,065262,077846,022615,077834,022671
0000000067,0000004400,054362,017502,054409,072693,017746,064464,078578,022702,078566,022758
0000000068,0000004467,053578,017614,053624,073435,017859,063672,079318,022820,079308,022876
0000000069,0000004533,052783,017750,052830,074162,017995,062858,080035,022948,080030,023004
0000000070,0000004600,051980,017909,052026,074875,018155,062047,080758,023112,080760,023167
0000000071,0000004667,051167,018092,051212,075574,018339,061234,081472,023309,081484,023365
0000000072,0000004733,050345,018298,050390,076261,018545,060408,082171,023517,082194,023573
0000000073,0000004800,049514,018526,049559,076934,018773,059566,082841,023745,082872,023801
0000000074,0000004867,048675,018775,048719,077595,019024,058724,083507,024001,083547,024056
0000000075,0000004933,047829,019047,047872,078245,019295,057876,084163,024275,084211,024331
0000000076,0000005000,046975,019339,047018,078883,019588,057018,084795,024573,084852,024628
0000000077,0000005067,046115,019652,046158,079509,019901,056145,085400,024877,085461,024932
0000000078,0000005133,045249,019985,045291,080122,020235,055279,086007,025216,086074,025271
0000000079,0000005200,044379,020337,044420,080722,020588,054404,086587,025572,086658,025627
0000000080,0000005267,043504,020709,043545,081307,020960,053518,087145,025939,087220,025994
0000000081,0000005333,042626,021100,042667,081878,021352,052639,087698,026337,087777,026392
0000000082,0000005400,041747,021509,041787,082431,021762,051753,088227,026746,088310,026801
0000000083,0000005467,040866,021937,040906,082967,022190,050867,088739,027176,088825,027230
0000000084,0000005533,039984,022382,040024,083484,022636,049980,089229,027625,089319,027680
0000000085,0000005600,039104,022846,039143,083981,023100,049093,089698,028094,089789,028148
0000000086,0000005667,038225,023326,038264,084456,023582,048205,090143,028574,090237,028628
0000000087,0000005733,037348,023824,037386,084907,024080,047321,090569,029075,090664,029129
0000000088,0000005800,036474,024339,036512,085334,024596,046435,090960,029591,091055,029645
0000000089,0000005867,035604,024870,035642,085736,025128,045558,091335,030129,091428,030183
0000000090,0000005933,034738,025418,034775,086109,025677,044676,091670,030675,091759,030729
0000000091,0000006000,033877,025983,033914,086454,026242,043805,091990,031247,092078,031300
0000000092,0000006067,033020,026563,033057,086768,026824,042933,092275,031825,092359,031878
0000000093,0000006133,032169,027160,032205,087052,027421,042072,092540,032429,092621,032483
0000000094,0000006200,031323,027772,031359,087304,028034,041212,092768,033041,092842,033095
0000000095,0000006267,030482,028400,030517,087524,028662,040357,092965,033670,093034,033723
0000000096,0000006333,029646,029042,029681,087710,029305,039512,093143,034317,093207,034370
0000000097,0000006400,028816,029699,028851,087864,029963,038667,093284,034973,093343,035025
0000000098,0000006467,027990,030371,028025,087985,030635,037839,093411,035654,093466,035707
0000000099,0000006533,027170,031056,027203,088074,031320,037008,093499,036338,093550,036390
0000000100,0000006600,026354,031755,026387,088131,032019,036189,093566,037042,093614,037094
0000000101,0000006667,025542,032466,025575,088159,032730,035375,093606,037757,093651,037809
0000000102,0000006733,024734,033190,024766,088158,033454,034569,093623,038487,093665,038538
0000000103,0000006800,023931,033926,023962,088129,034190,033771,093616,039229,093655,039280
0000000104,0000006867,023132,034672,023163,088074,034936,032977,093582,039980,093618,040030
0000000105,0000006933,022337,035429,022367,087994,035693,032194,093528,040747,093562,040798
0000000106,0000007000,021547,036196,021576,087892,036459,031414,093449,041516,093480,041566
0000000107,0000007067,020761,036972,020790,087768,037234,030642,093347,042298,093377,042347
0000000108,0000007133,019982,037756,020010,087625,038018,029882,093232,043093,093260,043141
0000000109,0000007200,019208,038548,019236,087463,038810,029129,093093,043893,093119,043941
0000000110,0000007267,018442,039348,018470,087284,039609,028389,092942,044705,092967,044753
0000000111,0000007333,017685,040153,017711,087089,040414,027656,092767,045521,092790,045568
0000000112,0000007400,016936,040965,016962,086879,041225,026933,092573,046342,092595,046389
0000000113,0000007467,016198,041782,016224,086655,042042,026227,092369,047175,092390,047222
0000000114,0000007533,015473,042604,015498,086416,042864,025531,092144,048010,092164,048056
0000000115,0000007600,014761,043430,014786,086165,043690,024848,091902,048848,091921,048892
0000000116,0000007667,014065,044260,014089,085900,044520,024185,091650,049697,091669,049741
0000000117,0000007733,013385,045094,013409,085621,045354,023537,091379,050547,091398,050591
0000000118,0000007800,012724,045931,012747,085330,046192,022902,091086,051398,091103,051441
0000000119,0000007867,012082,046772,012106,085024,047033,022291,090781,052258,090797,052300
0000000120,0000007933,011463,047616,011486,084704,047877,021698,090457,053119,090472,053161
0000000121,0000008000,010866,048463,010888,084369,048724,021124,090113,053980,090127,054021
0000000122,0000008067,010293,049312,010315,084018,049575,020576,089759,054848,089772,054889
0000000123,0000008133,009745,050165,009768,083650,050428,020050,089386,055718,089399,055758
0000000124,0000008200,009224,051021,009246,083266,051284,019544,088991,056587,089004,056626
0000000125,0000008267,008729,051879,008752,082864,052144,019067,088583,057463,088597,057501
0000000126,0000008333,008262,052741,008285,082443,053006,018614,088157,058341,088171,058379
0000000127,0000008400,007823,053606,007845,082004,053872,018182,087708,059216,087722,059253
0000000128,0000008467,007412,054474,007434,081547,054741,017778,087243,060096,087259,060132
0000000129,0000008533,007029,055345,007051,081070,055613,017400,086762,060978,086780,061013
0000000130,0000008600,006674,056219,006696,080574,056487,017045,086258,061856,086277,061891
0000000131,0000008667,006346,057096,006368,080059,057365,016717,085740,062740,085761,062774
0000000132,0000008733,006044,057977,006066,079526,058246,016413,085203,063623,085226,063656
0000000133,0000008800,005769,058860,005791,078974,059129,016134,084649,064506,084675,064538
0000000134,0000008867,005519,059745,005541,078404,060014,015879,084078,065388,084106,065420
0000000135,0000008933,005294,060632,005316,077817,060902,015646,083488,066269,083519,066300
0000000136,0000009000,005092,061522,005114,077213,061790,015436,082883,067150,082917,067180
0000000137,0000009067,004913,062412,004934,076594,062680,015248,082262,068027,082298,068056
0000000138,0000009133,004756,063302,004777,075959,063569,015082,081627,068902,081667,068930
0000000139,0000009200,004619,064193,004640,075311,064459,014938,080978,069774,081021,069802
0000000140,0000009267,004503,065082,004523,074649,065346,014814,080314,070642,080360,070669
0000000141,0000009333,004406,065969,004426,073974,066232,014712,079639,071508,079689,071534
0000000142,0000009400,004328,066853,004347,073289,067114,014629,078953,072367,079006,072392
0000000143,0000009467,004269,067733,004287,072592,067992,014567,078254,073220,078311,073244
0000000144,0000009533,004227,068608,004245,071886,068865,014524,077544,074067,077606,074090
0000000145,0000009600,004204,069476,004221,071170,069731,014500,076825,074905,076891,074927
0000000146,0000009667,004198,070337,004215,070445,070589,014496,076095,075734,076164,075755
0000000147,0000009733,004211,071189,004226,069712,071439,014511,075355,076553,075429,076574
0000000148,0000009800,004242,072031,004257,068971,072278,014546,074607,077361,074685,077381
0000000149,0000009867,004291,072861,004305,068222,073105,014600,073849,078157,073931,078176
0000000150,0000009933,004360,073678,004373,067466,073920,014675,073083,078940,073169,078958
0000000151,0000010000,004448,074481,004461,066702,074720,014770,072309,079709,072399,079726
0000000152,0000010067,004557,075269,004569,065931,075505,014886,071527,080464,071621,080481
0000000153,0000010133,004686,076041,004697,065153,076274,015024,070737,081203,070835,081219
0000000154,0000010200,004837,076795,004847,064367,077026,015184,069941,081928,070043,081943
0000000155,0000010267,005009,077531,005019,063573,077759,015365,069133,082633,069239,082647
0000000156,0000010333,005205,078247,005214,062772,078472,015569,068320,083321,068429,083335
0000000157,0000010400,005423,078942,005432,061962,079166,015795,067499,083991,067612,084004
0000000158,0000010467,005664,079617,005673,061144,079838,016044,066672,084642,066788,084654
0000000159,0000010533,005930,080269,005938,060319,080488,016316,065837,085272,065958,085283
0000000160,0000010600,006219,080899,006227,059485,081116,016611,064996,085883,065122,085894
0000000161,0000010667,006531,081506,006539,058643,081722,016929,064149,086473,064278,086483
0000000162,0000010733,006867,082090,006875,057793,082304,017271,063297,087042,063430,087051
0000000163,0000010800,007227,082650,007235,056936,082863,017634,062438,087590,062576,087599
0000000164,0000010867,007609,083187,007617,056072,083398,018019,061573,088116,061716,088124
0000000165,0000010933,008013,083699,008021,055201,083909,018426,060704,088620,060851,088627
0000000166,0000011000,008439,084188,008447,054324,084397,018853,059828,089101,059979,089108
0000000167,0000011067,008885,084652,008893,053440,084861,019295,058934,089557,059082,089563
0000000168,0000011133,009351,085093,009359,052551,085301,019757,058039,089991,058186,089996
0000000169,0000011200,009835,085511,009844,051657,085718,020240,057143,090404,057290,090409
0000000170,0000011267,010338,085905,010346,050757,086112,020739,056238,090793,056382,090798
0000000171,0000011333,010856,086277,010866,049853,086483,021255,055333,091161,055474,091165
0000000172,0000011400,011391,086625,011400,048944,086831,021789,054427,091507,054567,091511
0000000173,0000011467,011940,086951,011949,048031,087157,022340,053522,091832,053661,091835
0000000174,0000011533,012502,087255,012512,047116,087460,022906,052618,092136,052755,092139
0000000175,0000011600,013076,087537,013087,046198,087741,023487,051715,092419,051852,092421
0000000176,0000011667,013663,087797,013673,045280,088001,024081,050815,092680,050950,092682
0000000177,0000011733,014259,088036,014270,044362,088239,024689,049917,092920,050052,092922
0000000178,0000011800,014866,088254,014877,043445,088456,025309,049023,093139,049158,093140
0000000179,0000011867,015482,088450,015493,042531,088652,025941,048133,093336,048268,093336
0000000180,0000011933,016107,088626,016119,041621,088826,026584,047249,093511,047383,093511
0000000181,0000012000,016741,088781,016752,040717,088980,027238,046371,093665,046505,093665
0000000182,0000012067,017383,088914,017395,039820,089113,027903,045500,093798,045634,093797
0000000183,0000012133,018034,089027,018046,038931,089224,028578,044638,093910,044772,093909
0000000184,0000012200,018693,089119,018705,038051,089315,029264,043786,094000,043920,093999
0000000185,0000012267,019361,089190,019373,037182,089385,029961,042944,094069,043078,094068
0000000186,0000012333,020038,089240,020051,036324,089433,030668,042114,094117,042247,094115
0000000187,0000012400,020725,089269,020738,035480,089460,031385,041295,094142,041428,094140
0000000188,0000012467,021423,089276,021435,034649,089466,032113,040489,094146,040622,094144
0000000189,0000012533,022131,089262,022143,033832,089451,032852,039696,094129,039829,094126
0000000190,0000012600,022851,089227,022863,033031,089414,033602,038917,094089,039050,094086
0000000191,0000012667,023582,089169,023595,032246,089355,034363,038153,094028,038285,094025
0000000192,0000012733,024327,089090,024340,031478,089275,035136,037403,093944,037535,093941
0000000193,0000012800,025084,088990,025097,030726,089172,035919,036668,093838,036799,093835
0000000194,0000012867,025856,088867,025869,029992,089048,036708,035931,093705,036055,093702
0000000195,0000012933,026641,088722,026654,029274,088903,037507,035207,093550,035322,093546
0000000196,0000013000,027441,088556,027454,028572,088735,038317,034495,093371,034600,093368
0000000197,0000013067,028255,088368,028268,027885,088546,039140,033801,093172,033896,093169
0000000198,0000013133,029083,088159,029097,027213,088336,039976,033126,092954,033213,092951
0000000199,0000013200,029925,087928,029939,026556,088104,040822,032469,092712,032550,092709
0000000200,0000013267,030780,087676,030795,025914,087851,041682,031832,092452,031907,092449
0000000201,0000013333,031648,087402,031663,025286,087577,042550,031209,092170,031279,092167
0000000202,0000013400,032528,087108,032543,024674,087282,043428,030603,091867,030667,091864
0000000203,0000013467,033418,086794,033434,024077,086966,044314,030014,091544,030074,091541
