DIgSILENT PowerFactory,20000410,2000
10,10A,00D
1,LC684-652A:Phase Voltage A/Terminal i,,,kV,0.00010000000,-6.645521,0.000000,24669,99998,1,1,P
2,LC684-652A:Phase Voltage C/Terminal i,,,kV,0.00010000000,-5.403456,0.000000,18422,99998,1,1,P
3,LC692-675:Phase Voltage A/Terminal i,,,kV,0.00010000000,-6.642839,0.000000,24514,99998,1,1,P
4,LC692-675:Phase Voltage B/Terminal i,,,kV,0.00010000000,-6.216176,0.000000,13381,99998,1,1,P
5,LC692-675:Phase Voltage C/Terminal i,,,kV,0.00010000000,-5.455313,0.000000,19009,99998,1,1,P
6,LOHL632-633:Phase Voltage A/Terminal i,,,kV,0.00010000000,-6.490177,0.000000,27621,99998,1,1,P
7,LOHL632-633:Phase Voltage B/Terminal i,,,kV,0.00010000000,-6.330858,0.000000,19230,99998,1,1,P
8,LOHL632-633:Phase Voltage C/Terminal i,,,kV,0.00010000000,-5.720298,0.000000,21773,99998,1,1,P
9,LOHL645-646:Phase Voltage B/Terminal i,,,kV,0.00010000000,-6.355783,0.000000,19814,99998,1,1,P
10,LOHL645-646:Phase Voltage C/Terminal i,,,kV,0.00010000000,-5.734524,0.000000,22056,99998,1,1,P
50
1
15000.000000,3001
11/11/2020,18:14:47.000000
11/11/2020,18:14:47.000000
ASCII
1.000000
0000000001,0000000000,092581,058478,092611,029168,058945,092922,030812,060672,031261,060757
0000000002,0000000067,093095,057653,093126,029572,058118,093418,031220,059810,031664,059897
0000000003,0000000133,093596,056827,093627,029990,057289,093901,031643,058946,032082,059036
0000000004,0000000200,094084,055999,094116,030424,056459,094371,032082,058081,032516,058174
0000000005,0000000267,094547,055169,094579,030888,055627,094812,032550,057215,032979,057311
0000000006,0000000333,094996,054338,095028,031367,054795,095240,033032,056350,033456,056449
0000000007,0000000400,095431,053508,095464,031860,053963,095653,033529,055485,033947,055587
0000000008,0000000467,095839,052678,095873,032382,053131,096037,034054,054621,034467,054726
0000000009,0000000533,096233,051848,096267,032918,052300,096406,034593,053759,035000,053867
0000000010,0000000600,096613,051020,096647,033468,051470,096760,035145,052898,035547,053010
0000000011,0000000667,096964,050194,096999,034045,050643,097084,035724,052041,036121,052156
0000000012,0000000733,097301,049371,097336,034635,049818,097393,036316,051187,036707,051305
0000000013,0000000800,097623,048549,097659,035239,048995,097686,036921,050336,037306,050457
0000000014,0000000867,097916,047733,097952,035867,048177,097949,037551,049491,037930,049615
0000000015,0000000933,098194,046920,098230,036509,047362,098195,038193,048650,038566,048777
0000000016,0000001000,098457,046110,098493,037162,046551,098426,038847,047813,039214,047944
0000000017,0000001067,098690,045307,098726,037839,045747,098626,039524,046984,039885,047118
0000000018,0000001133,098907,044509,098943,038528,044947,098809,040212,046161,040567,046298
0000000019,0000001200,099109,043715,099145,039228,044152,098976,040912,045343,041260,045483
0000000020,0000001267,099281,042931,099317,039950,043367,099111,041632,044536,041974,044680
0000000021,0000001333,099436,042152,099472,040682,042587,099230,042363,043735,042699,043882
0000000022,0000001400,099576,041379,099612,041424,041813,099332,043104,042940,043433,043091
0000000023,0000001467,099684,040617,099720,042186,041050,099402,043864,042159,044186,042313
0000000024,0000001533,099777,039863,099813,042957,040294,099456,044633,041385,044949,041542
0000000025,0000001600,099854,039114,099889,043738,039545,099493,045411,040619,045720,040779
0000000026,0000001667,099899,038380,099935,044536,038810,099497,046206,039868,046509,040031
0000000027,0000001733,099929,037654,099964,045342,038083,099485,047009,039125,047305,039292
0000000028,0000001800,099942,036935,099977,046157,037363,099456,047820,038391,048109,038561
0000000029,0000001867,099924,036232,099958,046986,036660,099395,048646,037675,048928,037848
0000000030,0000001933,099890,035538,099924,047823,035965,099318,049478,036968,049754,037144
0000000031,0000002000,099840,034852,099873,048666,035279,099224,050317,036271,050586,036450
0000000032,0000002067,099759,034185,099791,049523,034611,099097,051168,035593,051430,035776
0000000033,0000002133,099661,033527,099693,050385,033953,098955,052025,034926,052281,035111
0000000034,0000002200,099548,032879,099580,051253,033304,098796,052888,034269,053136,034458
0000000035,0000002267,099404,032251,099435,052131,032676,098605,053760,033634,054002,033826
0000000036,0000002333,099244,031633,099274,053014,032058,098398,054637,033011,054872,033205
0000000037,0000002400,099068,031026,099098,053902,031450,098175,055518,032398,055746,032596
0000000038,0000002467,098862,030441,098891,054797,030865,097921,056406,031809,056628,032010
0000000039,0000002533,098640,029866,098668,055695,030290,097651,057298,031233,057512,031436
0000000040,0000002600,098403,029304,098430,056597,029728,097366,058192,030668,058400,030874
0000000041,0000002667,098135,028764,098162,057504,029188,097050,059091,030129,059293,030338
0000000042,0000002733,097853,028237,097879,058413,028661,096718,059992,029602,060187,029814
0000000043,0000002800,097556,027722,097581,059324,028146,096372,060895,029089,061083,029303
0000000044,0000002867,097229,027232,097253,060238,027656,095996,061800,028602,061982,028819
0000000045,0000002933,096888,026754,096911,061152,027179,095605,062706,028129,062881,028348
0000000046,0000003000,096532,026290,096554,062067,026715,095199,063612,027669,063780,027891
0000000047,0000003067,096148,025851,096169,062982,026277,094765,064518,027238,064680,027462
0000000048,0000003133,095750,025427,095770,063897,025852,094317,065423,026821,065578,027048
0000000049,0000003200,095338,025015,095357,064810,025442,093855,066327,026418,066476,026647
0000000050,0000003267,094899,024631,094916,065722,025058,093365,067229,026044,067371,026276
0000000051,0000003333,094446,024262,094462,066631,024689,092862,068128,025685,068264,025919
0000000052,0000003400,093980,023906,093995,067539,024334,092345,069025,025341,069156,025577
0000000053,0000003467,093488,023578,093502,068441,024007,091803,069917,025027,070041,025266
0000000054,0000003533,092983,023266,092996,069340,023695,091248,070806,024728,070924,024969
0000000055,0000003600,092465,022967,092477,070237,023398,090680,071691,024445,071803,024688
0000000056,0000003667,091923,022699,091934,071125,023130,090088,072568,024193,072674,024438
0000000057,0000003733,091369,022445,091378,072009,022877,089484,073440,023956,073541,024203
0000000058,0000003800,090803,022206,090811,072888,022639,088869,074309,023735,074404,023984
0000000059,0000003867,090214,021997,090220,073758,022431,088230,075166,023546,075256,023797
0000000060,0000003933,089613,021803,089619,074621,022238,087581,076018,023373,076102,023626
0000000061,0000004000,089002,021625,089006,075479,022061,086921,076864,023216,076943,023470
0000000062,0000004067,088369,021477,088372,076325,021915,086240,077697,023091,077771,023347
0000000063,0000004133,087726,021345,087728,077163,021784,085549,078523,022982,078592,023240
0000000064,0000004200,087073,021228,087073,077995,021668,084848,079342,022890,079406,023148
0000000065,0000004267,086400,021142,086399,078812,021584,084128,080146,022830,080205,023090
0000000066,0000004333,085718,021072,085715,079620,021515,083399,080942,022786,080996,023047
0000000067,0000004400,085027,021017,085022,080421,021462,082662,081730,022758,081779,023021
0000000068,0000004467,084318,020994,084312,081204,021440,081907,082500,022764,082544,023027
0000000069,0000004533,083601,020987,083593,081978,021434,081145,083261,022785,083301,023050
0000000070,0000004600,082875,020995,082866,082743,021444,080374,084012,022823,084048,023089
0000000071,0000004667,082134,021034,082123,083488,021485,079589,084744,022893,084776,023160
0000000072,0000004733,081386,021089,081373,084223,021541,078798,085466,022980,085494,023247
0000000073,0000004800,080630,021159,080616,084948,021614,077999,086178,023082,086202,023351
0000000074,0000004867,079861,021261,079846,085651,021717,077188,086867,023218,086888,023487
0000000075,0000004933,079086,021378,079069,086343,021836,076372,087546,023369,087562,023638
0000000076,0000005000,078304,021511,078286,087023,021971,075549,088213,023536,088226,023806
0000000077,0000005067,077512,021675,077492,087680,022136,074717,088856,023735,088866,024006
0000000078,0000005133,076714,021853,076692,088325,022317,073880,089487,023950,089494,024221
0000000079,0000005200,075911,022047,075888,088957,022513,073039,090106,024181,090110,024452
0000000080,0000005267,075099,022272,075075,089564,022739,072190,090700,024443,090701,024714
0000000081,0000005333,074284,022511,074258,090158,022981,071338,091280,024720,091279,024992
0000000082,0000005400,073464,022766,073437,090739,023237,070483,091848,025013,091844,025285
0000000083,0000005467,072638,023050,072609,091293,023523,069622,092388,025337,092382,025609
0000000084,0000005533,071810,023348,071779,091833,023824,068760,092914,025675,092906,025947
0000000085,0000005600,070978,023662,070945,092359,024139,067895,093427,026029,093416,026300
0000000086,0000005667,070142,024004,070108,092856,024483,067027,093911,026412,093898,026683
0000000087,0000005733,069305,024360,069269,093338,024842,066159,094380,026809,094366,027080
0000000088,0000005800,068466,024730,068429,093806,025214,065290,094835,027221,094819,027492
0000000089,0000005867,067625,025128,067586,094244,025614,064420,095259,027662,095243,027931
0000000090,0000005933,066784,025540,066744,094667,026028,063551,095669,028116,095651,028385
0000000091,0000006000,065942,025965,065901,095074,026456,062683,096063,028584,096044,028853
0000000092,0000006067,065101,026417,065058,095450,026910,061816,096427,029080,096407,029347
0000000093,0000006133,064261,026882,064216,095810,027377,060951,096774,029588,096754,029855
0000000094,0000006200,063422,027360,063375,096155,027857,060088,097106,030110,097085,030376
0000000095,0000006267,062585,027863,062537,096467,028363,059229,097406,030657,097384,030922
0000000096,0000006333,061751,028378,061702,096763,028880,058374,097689,031217,097668,031481
0000000097,0000006400,060919,028906,060868,097042,029410,057521,097956,031789,097935,032052
0000000098,0000006467,060091,029457,060039,097289,029964,056675,098191,032386,098170,032647
0000000099,0000006533,059267,030020,059214,097519,030530,055833,098409,032994,098388,033254
0000000100,0000006600,058447,030595,058391,097732,031106,054995,098610,033613,098590,033872
0000000101,0000006667,057633,031191,057577,097911,031705,054167,098778,034255,098758,034512
0000000102,0000006733,056824,031799,056766,098074,032315,053344,098929,034908,098910,035164
0000000103,0000006800,056020,032417,055961,098219,032936,052526,099063,035571,099045,035825
0000000104,0000006867,055225,033055,055165,098331,033577,051720,099164,036255,099147,036508
0000000105,0000006933,054436,033703,054374,098425,034227,050921,099247,036949,099232,037199
0000000106,0000007000,053653,034362,053589,098502,034888,050128,099313,037652,099300,037901
0000000107,0000007067,052881,035038,052817,098545,035567,049348,099346,038374,099334,038621
0000000108,0000007133,052116,035724,052050,098570,036255,048577,099361,039105,099351,039350
0000000109,0000007200,051358,036418,051291,098578,036951,047813,099359,039844,099351,040087
0000000110,0000007267,050614,037129,050546,098552,037665,047065,099323,040600,099317,040841
0000000111,0000007333,049878,037848,049808,098509,038386,046326,099270,041363,099266,041602
0000000112,0000007400,049149,038575,049079,098448,039115,045595,099199,042135,099199,042371
0000000113,0000007467,048437,039316,048365,098353,039859,044883,099095,042920,099097,043155
0000000114,0000007533,047734,040065,047661,098240,040610,044180,098974,043712,098979,043944
0000000115,0000007600,047039,040820,046965,098111,041367,043487,098836,044511,098844,044741
0000000116,0000007667,046363,041587,046288,097948,042137,042814,098665,045321,098675,045549
0000000117,0000007733,045696,042360,045620,097767,042912,042152,098476,046138,098490,046362
0000000118,0000007800,045039,043139,044962,097570,043693,041501,098271,046959,098289,047182
0000000119,0000007867,044402,043929,044325,097339,044485,040871,098033,047790,098054,048010
0000000120,0000007933,043776,044723,043698,097092,045281,040254,097778,048626,097803,048843
0000000121,0000008000,043161,045521,043081,096828,046081,039647,097507,049466,097536,049680
0000000122,0000008067,042567,046328,042487,096531,046890,039065,097204,050313,097237,050525
0000000123,0000008133,041985,047138,041904,096217,047702,038495,096884,051163,096921,051372
0000000124,0000008200,041415,047951,041333,095888,048518,037938,096549,052016,096590,052222
0000000125,0000008267,040868,048770,040786,095527,049339,037406,096182,052874,096228,053078
0000000126,0000008333,040334,049592,040250,095150,050162,036887,095800,053734,095850,053935
0000000127,0000008400,039812,050416,039727,094757,050988,036381,095402,054596,095457,054794
0000000128,0000008467,039315,051243,039230,094333,051817,035902,094974,055460,095033,055655
0000000129,0000008533,038830,052071,038745,093895,052648,035438,094530,056325,094595,056517
0000000130,0000008600,038359,052901,038273,093441,053479,034987,094072,057191,094142,057380
0000000131,0000008667,037915,053731,037828,092957,054312,034564,093585,058057,093660,058242
0000000132,0000008733,037484,054562,037397,092459,055144,034156,093084,058921,093164,059104
0000000133,0000008800,037067,055392,036979,091947,055976,033762,092568,059786,092653,059965
0000000134,0000008867,036677,056222,036590,091406,056807,033398,092025,060648,092115,060824
0000000135,0000008933,036302,057050,036214,090851,057637,033049,091468,061508,091564,061681
0000000136,0000009000,035941,057876,035853,090283,058465,032714,090898,062366,090999,062536
0000000137,0000009067,035609,058699,035520,089688,059290,032411,090301,063219,090409,063386
0000000138,0000009133,035292,059520,035203,089081,060112,032122,089692,064070,089805,064233
0000000139,0000009200,034989,060338,034900,088460,060932,031850,089070,064917,089190,065077
0000000140,0000009267,034716,061151,034627,087815,061745,031608,088424,065757,088550,065914
0000000141,0000009333,034458,061960,034369,087157,062556,031382,087766,066593,087898,066746
0000000142,0000009400,034215,062765,034126,086488,063362,031173,087097,067424,087234,067575
0000000143,0000009467,034003,063562,033914,085795,064160,030995,086404,068246,086548,068393
0000000144,0000009533,033806,064354,033717,085092,064954,030833,085701,069062,085852,069206
0000000145,0000009600,033625,065141,033535,084377,065743,030687,084988,069873,085144,070014
0000000146,0000009667,033475,065918,033385,083641,066521,030574,084253,070672,084417,070809
0000000147,0000009733,033340,066690,033251,082896,067293,030477,083509,071464,083679,071598
0000000148,0000009800,033221,067455,033132,082140,068059,030396,082756,072250,082932,072381
0000000149,0000009867,033134,068207,033045,081366,068813,030348,081984,073021,082166,073149
0000000150,0000009933,033062,068953,032973,080582,069560,030317,081203,073785,081392,073910
0000000151,0000010000,033006,069692,032918,079790,070299,030301,080413,074541,080609,074663
0000000152,0000010067,032982,070416,032894,078981,071024,030319,079608,075281,079810,075399
0000000153,0000010133,032974,071132,032886,078164,071741,030353,078794,076012,079004,076127
0000000154,0000010200,032981,071840,032894,077339,072450,030403,077974,076734,078190,076846
0000000155,0000010267,033021,072532,032934,076500,073142,030486,077139,077438,077362,077547
0000000156,0000010333,033076,073214,032989,075655,073825,030586,076298,078132,076527,078237
0000000157,0000010400,033147,073887,033061,074802,074499,030701,075450,078816,075687,078919
0000000158,0000010467,033249,074542,033164,073938,075154,030849,074592,079480,074835,079579
0000000159,0000010533,033368,075187,033283,073069,075799,031013,073728,080133,073978,080229
0000000160,0000010600,033502,075822,033417,072194,076434,031193,072858,080775,073115,080868
0000000161,0000010667,033667,076436,033583,071309,077048,031405,071980,081395,072244,081485
0000000162,0000010733,033848,077039,033764,070421,077652,031633,071098,082004,071369,082091
0000000163,0000010800,034044,077632,033961,069528,078245,031877,070212,082600,070489,082685
0000000164,0000010867,034271,078202,034189,068628,078816,032152,069320,083173,069603,083255
0000000165,0000010933,034513,078761,034432,067726,079374,032443,068424,083733,068715,083812
0000000166,0000011000,034770,079308,034690,066820,079922,032749,067527,084281,067824,084357
0000000167,0000011067,035057,079832,034978,065911,080445,033085,066625,084803,066929,084876
0000000168,0000011133,035359,080343,035281,064999,080956,033436,065722,085312,066032,085383
0000000169,0000011200,035676,080841,035599,064086,081454,033803,064817,085808,065134,085876
0000000170,0000011267,036022,081314,035946,063172,081927,034199,063911,086277,064235,086342
0000000171,0000011333,036383,081775,036307,062257,082387,034609,063005,086732,063335,086794
0000000172,0000011400,036757,082222,036683,061341,082834,035034,062099,087173,062436,087233
0000000173,0000011467,037160,082642,037086,060427,083254,035487,061194,087585,061537,087643
0000000174,0000011533,037577,083049,037504,059514,083660,035953,060290,087983,060640,088038
0000000175,0000011600,038007,083442,037936,058601,084053,036434,059388,088367,059744,088419
0000000176,0000011667,038464,083807,038394,057692,084417,036942,058489,088721,058851,088771
0000000177,0000011733,038935,084158,038866,056785,084768,037462,057593,089060,057961,089108
0000000178,0000011800,039418,084495,039350,055881,085104,037996,056699,089384,057073,089430
0000000179,0000011867,039928,084803,039861,054983,085411,038556,055811,089678,056192,089721
0000000180,0000011933,040449,085097,040384,054088,085704,039127,054928,089956,055314,089997
0000000181,0000012000,040983,085376,040919,053197,085982,039711,054048,090218,054440,090258
0000000182,0000012067,041542,085625,041479,052314,086230,040319,053176,090450,053574,090487
0000000183,0000012133,042111,085859,042050,051436,086463,040939,052310,090665,052713,090701
0000000184,0000012200,042693,086078,042633,050563,086681,041570,051449,090865,051858,090899
0000000185,0000012267,043297,086266,043238,049701,086868,042223,050599,091033,051013,091065
0000000186,0000012333,043912,086440,043854,048846,087040,042886,049755,091185,050175,091215
0000000187,0000012400,044538,086598,044482,047996,087197,043560,048917,091320,049342,091349
0000000188,0000012467,045184,086725,045130,047160,087323,044255,048094,091424,048524,091451
0000000189,0000012533,045841,086837,045787,046331,087433,044959,047277,091511,047712,091537
0000000190,0000012600,046507,086933,046455,045509,087528,045672,046468,091582,046908,091606
0000000191,0000012667,047192,086998,047142,044703,087592,046404,045675,091620,046120,091644
0000000192,0000012733,047887,087047,047838,043905,087640,047145,044890,091642,045340,091664
0000000193,0000012800,048590,087081,048542,043116,087672,047894,044114,091648,044568,091669
0000000194,0000012867,049310,087083,049264,042346,087673,048659,043356,091621,043814,091641
0000000195,0000012933,050038,087070,049994,041584,087658,049432,042608,091578,043070,091597
0000000196,0000013000,050774,087041,050731,040832,087627,050212,041869,091519,042336,091536
0000000197,0000013067,051525,086981,051484,040101,087565,051006,041151,091427,041622,091443
0000000198,0000013133,052283,086905,052243,039380,087488,051807,040443,091318,040918,091334
0000000199,0000013200,053048,086814,053009,038669,087395,052613,039746,091194,040224,091209
0000000200,0000013267,053825,086691,053788,037981,087271,053432,039072,091037,039553,091052
0000000201,0000013333,054608,086553,054573,037305,087131,054256,038409,090865,038894,090879
0000000202,0000013400,055397,086400,055363,036640,086976,055085,037757,090676,038246,090690
0000000203,0000013467,056197,086216,056164,035999,086790,055923,037130,090456,037621,090469
