DIgSILENT PowerFactory,20000410,2000
10,10A,00D
1,LC684-652A:Phase Voltage A/Terminal i,,,kV,0.00010000000,-6.642797,0.000000,23979,99998,1,1,P
2,LC684-652A:Phase Voltage C/Terminal i,,,kV,0.00010000000,-5.346457,0.000000,17666,99998,1,1,P
3,LC692-675:Phase Voltage A/Terminal i,,,kV,0.00010000000,-6.640288,0.000000,23818,99998,1,1,P
4,LC692-675:Phase Voltage B/Terminal i,,,kV,0.00010000000,-6.205531,0.000000,12714,99998,1,1,P
5,LC692-675:Phase Voltage C/Terminal i,,,kV,0.00010000000,-5.399731,0.000000,18273,99998,1,1,P
6,LOHL632-633:Phase Voltage A/Terminal i,,,kV,0.00010000000,-6.486357,0.000000,27121,99998,1,1,P
7,LOHL632-633:Phase Voltage B/Terminal i,,,kV,0.00010000000,-6.324549,0.000000,18793,99998,1,1,P
8,LOHL632-633:Phase Voltage C/Terminal i,,,kV,0.00010000000,-5.682821,0.000000,21285,99998,1,1,P
9,LOHL645-646:Phase Voltage B/Terminal i,,,kV,0.00010000000,-6.349520,0.000000,19379,99998,1,1,P
10,LOHL645-646:Phase Voltage C/Terminal i,,,kV,0.00010000000,-5.697187,0.000000,21571,99998,1,1,P
50
1
15000.000000,3001
11/11/2020,18:13:53.000000
11/11/2020,18:13:53.000000
ASCII
1.000000
0000000001,0000000000,092554,057908,092586,029062,058389,092883,030749,060298,031198,060383
0000000002,0000000067,093068,057083,093100,029465,057562,093380,031157,059435,031601,059523
0000000003,0000000133,093569,056257,093602,029884,056733,093863,031580,058571,032020,058662
0000000004,0000000200,094057,055429,094091,030318,055904,094333,032019,057706,032453,057801
0000000005,0000000267,094519,054599,094554,030782,055072,094774,032487,056841,032916,056938
0000000006,0000000333,094968,053768,095003,031260,054240,095201,032969,055975,033393,056076
0000000007,0000000400,095404,052938,095439,031753,053407,095614,033466,055110,033885,055213
0000000008,0000000467,095812,052108,095847,032276,052575,095998,033991,054246,034404,054353
0000000009,0000000533,096206,051278,096241,032811,051744,096367,034529,053384,034938,053494
0000000010,0000000600,096585,050450,096622,033361,050914,096722,035082,052523,035485,052636
0000000011,0000000667,096937,049624,096974,033938,050087,097046,035661,051667,036058,051783
0000000012,0000000733,097274,048801,097311,034529,049262,097354,036253,050813,036644,050932
0000000013,0000000800,097596,047979,097633,035132,048439,097648,036858,049961,037243,050084
0000000014,0000000867,097889,047163,097927,035761,047621,097910,037488,049116,037867,049242
0000000015,0000000933,098167,046350,098205,036402,046806,098157,038130,048275,038503,048404
0000000016,0000001000,098430,045540,098468,037056,045995,098388,038784,047438,039151,047570
0000000017,0000001067,098663,044737,098701,037733,045191,098587,039461,046610,039822,046745
0000000018,0000001133,098880,043939,098918,038422,044391,098771,040149,045786,040504,045925
0000000019,0000001200,099082,043145,099120,039121,043596,098938,040849,044968,041197,045110
0000000020,0000001267,099253,042361,099291,039843,042811,099073,041569,044161,041912,044306
0000000021,0000001333,099409,041582,099447,040575,042031,099192,042300,043360,042636,043509
0000000022,0000001400,099549,040809,099586,041317,041257,099294,043041,042566,043370,042717
0000000023,0000001467,099657,040047,099695,042079,040494,099364,043801,041784,044124,041939
0000000024,0000001533,099750,039293,099787,042851,039739,099417,044570,041011,044886,041169
0000000025,0000001600,099827,038544,099864,043631,038989,099454,045348,040244,045658,040405
0000000026,0000001667,099872,037810,099909,044430,038254,099459,046143,039493,046446,039658
0000000027,0000001733,099902,037084,099938,045236,037527,099447,046946,038751,047242,038918
0000000028,0000001800,099915,036365,099951,046050,036807,099418,047757,038017,048047,038188
0000000029,0000001867,099897,035662,099933,046880,036104,099357,048582,037300,048865,037475
0000000030,0000001933,099863,034968,099898,047716,035409,099279,049415,036594,049691,036771
0000000031,0000002000,099813,034282,099848,048560,034723,099186,050254,035896,050523,036077
0000000032,0000002067,099731,033615,099766,049416,034055,099059,051105,035219,051368,035402
0000000033,0000002133,099634,032957,099668,050279,033397,098917,051962,034551,052218,034738
0000000034,0000002200,099521,032309,099554,051147,032748,098758,052825,033895,053074,034084
0000000035,0000002267,099376,031681,099409,052025,032120,098567,053697,033260,053939,033452
0000000036,0000002333,099216,031063,099249,052908,031502,098360,054574,032636,054809,032832
0000000037,0000002400,099041,030456,099072,053795,030894,098137,055455,032024,055683,032222
0000000038,0000002467,098834,029871,098865,054690,030309,097883,056343,031435,056565,031636
0000000039,0000002533,098612,029296,098642,055589,029735,097613,057234,030858,057450,031062
0000000040,0000002600,098375,028734,098405,056491,029172,097328,058129,030293,058337,030501
0000000041,0000002667,098108,028194,098136,057398,028632,097011,059028,029754,059230,029964
0000000042,0000002733,097826,027667,097853,058307,028105,096680,059929,029228,060124,029440
0000000043,0000002800,097529,027152,097555,059218,027590,096334,060832,028714,061021,028930
0000000044,0000002867,097202,026662,097227,060131,027100,095957,061737,028227,061919,028446
0000000045,0000002933,096861,026184,096885,061046,026623,095567,062643,027754,062818,027975
0000000046,0000003000,096505,025720,096529,061961,026159,095161,063549,027294,063718,027518
0000000047,0000003067,096121,025281,096144,062876,025721,094727,064455,026863,064617,027089
0000000048,0000003133,095723,024857,095744,063790,025297,094279,065360,026446,065516,026674
0000000049,0000003200,095311,024445,095331,064704,024886,093816,066264,026043,066414,026274
0000000050,0000003267,094871,024061,094891,065615,024502,093327,067166,025669,067309,025902
0000000051,0000003333,094419,023692,094437,066525,024133,092824,068065,025310,068202,025546
0000000052,0000003400,093953,023336,093970,067432,023778,092307,068962,024966,069093,025204
0000000053,0000003467,093460,023008,093476,068335,023451,091765,069854,024652,069979,024892
0000000054,0000003533,092955,022696,092970,069234,023139,091210,070742,024354,070861,024596
0000000055,0000003600,092438,022397,092452,070130,022842,090642,071628,024070,071740,024315
0000000056,0000003667,091896,022129,091908,071019,022574,090050,072505,023818,072612,024065
0000000057,0000003733,091342,021875,091353,071902,022321,089446,073377,023582,073479,023830
0000000058,0000003800,090776,021636,090785,072782,022083,088831,074245,023361,074341,023611
0000000059,0000003867,090186,021427,090195,073651,021875,088192,075103,023172,075193,023424
0000000060,0000003933,089586,021233,089593,074515,021683,087543,075955,022999,076039,023252
0000000061,0000004000,088975,021055,088981,075373,021505,086883,076801,022841,076880,023097
0000000062,0000004067,088342,020907,088346,076218,021359,086202,077634,022716,077708,022973
0000000063,0000004133,087699,020775,087702,077057,021228,085511,078460,022608,078529,022866
0000000064,0000004200,087046,020658,087047,077888,021112,084810,079279,022515,079343,022775
0000000065,0000004267,086373,020572,086373,078705,021028,084090,080083,022455,080142,022716
0000000066,0000004333,085691,020502,085690,079514,020959,083361,080879,022411,080933,022674
0000000067,0000004400,085000,020447,084997,080314,020906,082624,081667,022384,081716,022648
0000000068,0000004467,084291,020424,084286,081097,020884,081869,082437,022389,082482,022654
0000000069,0000004533,083573,020417,083568,081871,020878,081107,083198,022410,083238,022677
0000000070,0000004600,082848,020425,082840,082636,020888,080336,083949,022448,083986,022715
0000000071,0000004667,082107,020464,082098,083381,020929,079551,084681,022518,084714,022787
0000000072,0000004733,081358,020519,081348,084116,020985,078759,085403,022605,085431,022874
0000000073,0000004800,080603,020589,080591,084841,021058,077961,086115,022708,086139,022978
0000000074,0000004867,079834,020691,079820,085544,021161,077150,086804,022843,086825,023113
0000000075,0000004933,079058,020808,079043,086236,021280,076333,087483,022994,087500,023265
0000000076,0000005000,078277,020941,078260,086917,021415,075511,088150,023161,088163,023433
0000000077,0000005067,077484,021105,077466,087574,021580,074679,088793,023360,088804,023632
0000000078,0000005133,076687,021283,076667,088218,021761,073842,089424,023575,089432,023848
0000000079,0000005200,075884,021477,075863,088851,021957,073001,090043,023806,090048,024079
0000000080,0000005267,075072,021702,075049,089458,022183,072152,090637,024068,090639,024341
0000000081,0000005333,074257,021941,074232,090052,022425,071300,091217,024346,091216,024619
0000000082,0000005400,073437,022196,073411,090633,022681,070445,091785,024639,091781,024912
0000000083,0000005467,072611,022480,072583,091186,022967,069584,092325,024962,092319,025235
0000000084,0000005533,071782,022778,071753,091726,023268,068721,092851,025300,092843,025573
0000000085,0000005600,070951,023092,070920,092252,023583,067857,093364,025654,093354,025927
0000000086,0000005667,070115,023434,070083,092749,023927,066989,093848,026037,093836,026310
0000000087,0000005733,069278,023790,069244,093232,024286,066121,094317,026435,094303,026707
0000000088,0000005800,068439,024160,068403,093700,024658,065252,094772,026847,094756,027118
0000000089,0000005867,067598,024558,067561,094138,025059,064382,095196,027287,095180,027558
0000000090,0000005933,066757,024970,066718,094560,025473,063513,095606,027741,095588,028012
0000000091,0000006000,065915,025395,065875,094968,025900,062644,096000,028209,095982,028479
0000000092,0000006067,065074,025847,065033,095344,026354,061778,096363,028705,096344,028974
0000000093,0000006133,064234,026312,064191,095704,026821,060913,096711,029213,096691,029482
0000000094,0000006200,063395,026790,063350,096048,027301,060050,097043,029735,097022,030002
0000000095,0000006267,062558,027293,062512,096361,027807,059191,097342,030282,097322,030549
0000000096,0000006333,061724,027808,061676,096656,028325,058336,097626,030842,097605,031107
0000000097,0000006400,060891,028336,060842,096936,028855,057483,097893,031415,097872,031679
0000000098,0000006467,060064,028887,060013,097182,029408,056637,098128,032011,098107,032274
0000000099,0000006533,059240,029450,059188,097412,029974,055795,098346,032619,098325,032880
0000000100,0000006600,058419,030025,058366,097625,030551,054957,098547,033238,098527,033499
0000000101,0000006667,057606,030621,057551,097805,031150,054129,098715,033880,098696,034139
0000000102,0000006733,056797,031229,056741,097967,031759,053306,098866,034533,098848,034790
0000000103,0000006800,055993,031847,055935,098113,032380,052488,099000,035196,098983,035452
0000000104,0000006867,055198,032485,055139,098224,033021,051682,099100,035880,099084,036134
0000000105,0000006933,054409,033133,054349,098319,033671,050883,099184,036574,099169,036826
0000000106,0000007000,053625,033792,053564,098396,034332,050089,099250,037277,099237,037528
0000000107,0000007067,052854,034468,052791,098438,035011,049310,099282,037999,099271,038248
0000000108,0000007133,052089,035154,052025,098464,035699,048539,099298,038730,099288,038976
0000000109,0000007200,051331,035848,051265,098472,036396,047774,099296,039469,099288,039714
0000000110,0000007267,050587,036559,050520,098446,037109,047027,099260,040225,099254,040468
0000000111,0000007333,049851,037278,049783,098402,037830,046287,099207,040989,099204,041229
0000000112,0000007400,049122,038005,049053,098341,038559,045557,099136,041760,099136,041998
0000000113,0000007467,048410,038746,048340,098246,039303,044844,099032,042545,099034,042781
0000000114,0000007533,047706,039495,047635,098134,040054,044142,098911,043337,098916,043571
0000000115,0000007600,047012,040250,046940,098005,040811,043449,098773,044136,098781,044367
0000000116,0000007667,046335,041017,046262,097841,041581,042776,098601,044947,098613,045176
0000000117,0000007733,045669,041790,045595,097661,042356,042114,098413,045763,098428,045989
0000000118,0000007800,045012,042569,044937,097463,043137,041462,098208,046584,098226,046808
0000000119,0000007867,044375,043359,044299,097233,043929,040833,097970,047416,097991,047637
0000000120,0000007933,043749,044153,043672,096985,044725,040215,097715,048251,097740,048470
0000000121,0000008000,043134,044951,043056,096721,045526,039609,097444,049091,097473,049307
0000000122,0000008067,042540,045758,042461,096424,046334,039027,097141,049938,097174,050151
0000000123,0000008133,041958,046568,041879,096111,047146,038457,096821,050788,096859,050999
0000000124,0000008200,041388,047381,041307,095782,047962,037899,096486,051641,096528,051849
0000000125,0000008267,040841,048200,040760,095420,048783,037367,096119,052500,096165,052704
0000000126,0000008333,040307,049022,040225,095043,049607,036849,095737,053360,095787,053561
0000000127,0000008400,039784,049846,039702,094651,050432,036343,095339,054221,095394,054420
0000000128,0000008467,039287,050673,039204,094227,051262,035864,094911,055086,094971,055282
0000000129,0000008533,038803,051501,038720,093788,052092,035399,094467,055951,094532,056144
0000000130,0000008600,038332,052331,038248,093334,052923,034948,094009,056816,094079,057006
0000000131,0000008667,037888,053161,037803,092851,053756,034526,093522,057682,093597,057869
0000000132,0000008733,037457,053992,037372,092353,054588,034118,093021,058547,093101,058731
0000000133,0000008800,037040,054822,036954,091840,055420,033724,092505,059411,092591,059592
0000000134,0000008867,036650,055652,036564,091299,056251,033360,091962,060273,092053,060451
0000000135,0000008933,036275,056480,036189,090745,057081,033010,091405,061133,091502,061307
0000000136,0000009000,035914,057306,035827,090177,057909,032676,090834,061991,090937,062163
0000000137,0000009067,035582,058129,035495,089582,058734,032372,090238,062845,090346,063013
0000000138,0000009133,035264,058950,035177,088974,059556,032084,089629,063695,089743,063860
0000000139,0000009200,034962,059768,034874,088354,060376,031811,089007,064542,089127,064704
0000000140,0000009267,034689,060581,034601,087708,061190,031570,088361,065382,088487,065541
0000000141,0000009333,034431,061390,034343,087051,062000,031344,087703,066218,087835,066373
0000000142,0000009400,034188,062195,034100,086381,062806,031134,087033,067049,087172,067201
0000000143,0000009467,033976,062992,033888,085689,063605,030957,086341,067871,086486,068020
0000000144,0000009533,033779,063784,033691,084985,064398,030795,085638,068687,085789,068833
0000000145,0000009600,033598,064571,033510,084271,065187,030649,084925,069498,085082,069640
0000000146,0000009667,033448,065348,033360,083535,065965,030536,084190,070297,084354,070436
0000000147,0000009733,033313,066120,033225,082789,066737,030439,083446,071089,083616,071225
0000000148,0000009800,033194,066885,033106,082034,067503,030358,082693,071875,082869,072008
0000000149,0000009867,033107,067638,033019,081259,068257,030310,081920,072647,082104,072776
0000000150,0000009933,033035,068383,032948,080476,069004,030279,081140,073410,081329,073536
0000000151,0000010000,032979,069122,032892,079683,069743,030263,080350,074167,080546,074289
0000000152,0000010067,032955,069846,032868,078874,070468,030281,079544,074906,079747,075026
0000000153,0000010133,032947,070562,032860,078057,071185,030315,078731,075637,078941,075754
0000000154,0000010200,032954,071270,032868,077233,071894,030365,077910,076359,078127,076473
0000000155,0000010267,032994,071962,032908,076394,072586,030448,077076,077063,077299,077173
0000000156,0000010333,033049,072644,032964,075548,073269,030547,076235,077757,076465,077864
0000000157,0000010400,033120,073317,033035,074696,073943,030663,075387,078441,075624,078545
0000000158,0000010467,033222,073972,033138,073832,074598,030811,074529,079105,074772,079206
0000000159,0000010533,033340,074617,033257,072962,075243,030975,073665,079758,073915,079856
0000000160,0000010600,033474,075252,033392,072087,075878,031155,072795,080400,073053,080495
0000000161,0000010667,033640,075866,033557,071203,076493,031367,071917,081020,072181,081112
0000000162,0000010733,033820,076469,033739,070314,077096,031595,071035,081629,071306,081717
0000000163,0000010800,034016,077062,033936,069422,077689,031839,070149,082226,070427,082311
0000000164,0000010867,034243,077632,034163,068522,078260,032114,069257,082798,069541,082881
0000000165,0000010933,034485,078191,034406,067619,078819,032404,068361,083359,068652,083439
0000000166,0000011000,034743,078738,034664,066714,079366,032710,067464,083906,067761,083984
0000000167,0000011067,035030,079262,034952,065804,079889,033047,066562,084429,066866,084503
0000000168,0000011133,035332,079773,035255,064893,080400,033398,065659,084938,065970,085009
0000000169,0000011200,035649,080271,035573,063980,080898,033765,064754,085433,065072,085502
0000000170,0000011267,035995,080744,035920,063065,081371,034160,063848,085902,064172,085969
0000000171,0000011333,036355,081205,036281,062150,081831,034571,062942,086357,063273,086421
0000000172,0000011400,036730,081652,036657,061235,082278,034995,062036,086798,062373,086859
0000000173,0000011467,037133,082072,037061,060321,082698,035448,061131,087211,061475,087269
0000000174,0000011533,037549,082479,037479,059407,083104,035915,060227,087609,060577,087665
0000000175,0000011600,037980,082872,037910,058495,083497,036396,059325,087992,059681,088046
0000000176,0000011667,038437,083237,038368,057586,083861,036903,058426,088346,058788,088398
0000000177,0000011733,038907,083588,038840,056679,084212,037424,057530,088685,057898,088735
0000000178,0000011800,039391,083925,039325,055775,084548,037958,056636,089009,057011,089056
0000000179,0000011867,039900,084233,039835,054876,084855,038517,055748,089303,056129,089348
0000000180,0000011933,040422,084527,040358,053981,085148,039089,054864,089581,055251,089624
0000000181,0000012000,040956,084806,040894,053090,085426,039673,053984,089844,054377,089885
0000000182,0000012067,041514,085055,041453,052208,085674,040281,053113,090075,053511,090114
0000000183,0000012133,042084,085289,042024,051330,085907,040900,052247,090291,052651,090328
0000000184,0000012200,042666,085508,042607,050457,086125,041531,051386,090490,051795,090526
0000000185,0000012267,043270,085696,043213,049595,086312,042184,050536,090658,050951,090692
0000000186,0000012333,043885,085870,043829,048739,086485,042848,049692,090810,050112,090842
0000000187,0000012400,044511,086028,044456,047889,086641,043522,048854,090946,049280,090976
0000000188,0000012467,045157,086155,045104,047053,086767,044217,048030,091049,048461,091078
0000000189,0000012533,045814,086267,045762,046224,086878,044921,047214,091136,047650,091164
0000000190,0000012600,046480,086363,046430,045402,086972,045634,046405,091207,046845,091233
0000000191,0000012667,047165,086428,047116,044596,087036,046366,045612,091246,046057,091270
0000000192,0000012733,047859,086477,047812,043799,087084,047107,044827,091268,045277,091291
0000000193,0000012800,048563,086511,048517,043010,087116,047856,044051,091273,044505,091296
0000000194,0000012867,049283,086513,049238,042239,087117,048621,043293,091246,043752,091268
0000000195,0000012933,050011,086500,049968,041478,087102,049394,042545,091203,043008,091223
0000000196,0000013000,050747,086471,050706,040726,087071,050174,041806,091144,042273,091163
0000000197,0000013067,051498,086411,051458,039994,087010,050968,041088,091052,041559,091070
0000000198,0000013133,052256,086335,052217,039273,086932,051768,040380,090944,040855,090961
0000000199,0000013200,053020,086244,052984,038563,086839,052575,039683,090819,040162,090836
0000000200,0000013267,053798,086121,053763,037875,086715,053394,039008,090663,039491,090679
0000000201,0000013333,054581,085983,054547,037198,086575,054218,038345,090490,038831,090506
0000000202,0000013400,055370,085830,055338,036533,086420,055047,037694,090301,038183,090317
0000000203,0000013467,056169,085646,056139,035893,086234,055885,037067,090081,037559,090096
