DIgSILENT PowerFactory,20000410,2000
10,10A,00D
1,LC684-652A:Phase Voltage A/Terminal i,,,kV,0.00010000000,-5.345767,0.000000,15756,99998,1,1,P
2,LC684-652A:Phase Voltage C/Terminal i,,,kV,0.00010000000,-6.646667,0.000000,28079,99998,1,1,P
3,LC692-675:Phase Voltage A/Terminal i,,,kV,0.00010000000,-5.332404,0.000000,15513,99998,1,1,P
4,LC692-675:Phase Voltage B/Terminal i,,,kV,0.00010000000,-6.080398,0.000000,10702,99998,1,1,P
5,LC692-675:Phase Voltage C/Terminal i,,,kV,0.00010000000,-6.640663,0.000000,28177,99998,1,1,P
6,LOHL632-633:Phase Voltage A/Terminal i,,,kV,0.00010000000,-5.709479,0.000000,19901,99998,1,1,P
7,LOHL632-633:Phase Voltage B/Terminal i,,,kV,0.00010000000,-6.195597,0.000000,18930,99998,1,1,P
8,LOHL632-633:Phase Voltage C/Terminal i,,,kV,0.00010000000,-6.529200,0.000000,27567,99998,1,1,P
9,LOHL645-646:Phase Voltage B/Terminal i,,,kV,0.00010000000,-6.223318,0.000000,19472,99998,1,1,P
10,LOHL645-646:Phase Voltage C/Terminal i,,,kV,0.00010000000,-6.540106,0.000000,27813,99998,1,1,P
50
1
15000.000000,3001
11/11/2020,17:02:39.000000
11/11/2020,17:02:39.000000
ASCII
1.000000
0000000001,0000000000,079584,070910,079507,027811,070798,085115,029459,068761,029936,068812
0000000002,0000000067,080098,070085,080021,028214,069971,085611,029868,067899,030339,067952
0000000003,0000000133,080599,069259,080523,028633,069143,086094,030291,067035,030758,067092
0000000004,0000000200,081087,068431,081012,029066,068313,086564,030729,066170,031191,066230
0000000005,0000000267,081549,067601,081475,029530,067481,087005,031197,065304,031654,065367
0000000006,0000000333,081998,066770,081924,030009,066649,087433,031679,064439,032131,064505
0000000007,0000000400,082433,065940,082360,030502,065817,087846,032176,063574,032623,063643
0000000008,0000000467,082841,065110,082768,031024,064985,088230,032701,062710,033142,062782
0000000009,0000000533,083235,064280,083163,031560,064154,088599,033240,061848,033676,061923
0000000010,0000000600,083615,063452,083543,032110,063324,088953,033792,060987,034223,061065
0000000011,0000000667,083967,062626,083895,032687,062496,089277,034371,060130,034796,060212
0000000012,0000000733,084304,061803,084232,033277,061671,089586,034963,059276,035382,059361
0000000013,0000000800,084626,060981,084554,033881,060848,089879,035568,058425,035981,058513
0000000014,0000000867,084919,060165,084848,034510,060030,090142,036198,057580,036605,057671
0000000015,0000000933,085197,059352,085126,035151,059216,090388,036840,056739,037241,056833
0000000016,0000001000,085460,058542,085389,035804,058404,090619,037494,055902,037889,055999
0000000017,0000001067,085692,057739,085622,036482,057600,090819,038172,055073,038560,055174
0000000018,0000001133,085910,056941,085839,037170,056801,091002,038860,054250,039242,054354
0000000019,0000001200,086112,056147,086041,037870,056006,091169,039559,053432,039935,053539
0000000020,0000001267,086283,055363,086212,038592,055220,091304,040280,052625,040650,052735
0000000021,0000001333,086438,054584,086368,039324,054440,091423,041011,051824,041374,051938
0000000022,0000001400,086578,053811,086507,040066,053666,091525,041751,051029,042108,051146
0000000023,0000001467,086687,053049,086616,040828,052904,091595,042511,050248,042862,050368
0000000024,0000001533,086780,052295,086708,041599,052148,091649,043280,049474,043624,049598
0000000025,0000001600,086857,051547,086785,042380,051399,091686,044059,048708,044396,048834
0000000026,0000001667,086902,050812,086830,043178,050664,091690,044854,047957,045184,048087
0000000027,0000001733,086931,050086,086859,043984,049936,091678,045656,047214,045980,047348
0000000028,0000001800,086945,049367,086872,044799,049217,091649,046467,046480,046785,046617
0000000029,0000001867,086927,048664,086854,045628,048513,091588,047293,045764,047603,045904
0000000030,0000001933,086893,047970,086819,046465,047819,091511,048125,045057,048429,045200
0000000031,0000002000,086843,047285,086769,047309,047132,091417,048964,044360,049261,044506
0000000032,0000002067,086761,046617,086687,048165,046465,091290,049816,043682,050106,043831
0000000033,0000002133,086664,045959,086589,049027,045806,091148,050673,043015,050956,043167
0000000034,0000002200,086551,045311,086475,049895,045158,090989,051535,042358,051812,042514
0000000035,0000002267,086406,044683,086330,050774,044529,090798,052407,041723,052677,041882
0000000036,0000002333,086246,044065,086170,051656,043911,090591,053284,041100,053547,041261
0000000037,0000002400,086071,043458,085993,052544,043304,090368,054165,040487,054421,040651
0000000038,0000002467,085864,042873,085786,053439,042718,090114,055054,039898,055303,040065
0000000039,0000002533,085642,042299,085564,054338,042144,089844,055945,039322,056188,039492
0000000040,0000002600,085405,041736,085326,055239,041581,089559,056839,038757,057075,038930
0000000041,0000002667,085138,041196,085057,056146,041042,089243,057739,038218,057968,038393
0000000042,0000002733,084855,040669,084774,057055,040515,088911,058640,037691,058862,037870
0000000043,0000002800,084558,040154,084476,057966,040000,088565,059543,037178,059759,037359
0000000044,0000002867,084231,039664,084149,058880,039510,088189,060448,036691,060657,036875
0000000045,0000002933,083890,039186,083807,059794,039032,087798,061354,036218,061556,036404
0000000046,0000003000,083535,038722,083450,060709,038568,087392,062260,035758,062456,035947
0000000047,0000003067,083151,038284,083065,061624,038130,086958,063165,035327,063355,035518
0000000048,0000003133,082752,037859,082666,062539,037706,086510,064071,034910,064254,035104
0000000049,0000003200,082340,037447,082252,063453,037295,086048,064975,034507,065152,034703
0000000050,0000003267,081901,037064,081812,064364,036912,085558,065876,034133,066047,034332
0000000051,0000003333,081448,036694,081358,065273,036542,085055,066775,033774,066940,033975
0000000052,0000003400,080982,036338,080891,066181,036187,084538,067673,033430,067831,033633
0000000053,0000003467,080490,036011,080398,067083,035861,083996,068564,033116,068717,033322
0000000054,0000003533,079985,035698,079891,067983,035549,083441,069453,032817,069599,033025
0000000055,0000003600,079468,035400,079373,068879,035251,082873,070338,032534,070478,032744
0000000056,0000003667,078925,035131,078829,069767,034983,082281,071215,032282,071350,032494
0000000057,0000003733,078371,034877,078274,070651,034730,081677,072088,032045,072217,032259
0000000058,0000003800,077805,034638,077706,071531,034492,081062,072956,031825,073079,032040
0000000059,0000003867,077216,034429,077116,072400,034284,080423,073813,031635,073931,031853
0000000060,0000003933,076616,034235,076514,073264,034092,079774,074665,031462,074777,031681
0000000061,0000004000,076005,034057,075902,074122,033915,079114,075511,031305,075618,031526
0000000062,0000004067,075372,033909,075268,074967,033768,078433,076344,031180,076446,031403
0000000063,0000004133,074729,033777,074623,075806,033637,077742,077171,031071,077267,031295
0000000064,0000004200,074076,033660,073969,076637,033522,077041,077990,030979,078081,031204
0000000065,0000004267,073403,033574,073294,077454,033437,076321,078794,030919,078880,031146
0000000066,0000004333,072721,033504,072611,078262,033368,075592,079589,030875,079671,031103
0000000067,0000004400,072029,033450,071918,079063,033315,074855,080377,030847,080454,031077
0000000068,0000004467,071320,033426,071207,079846,033294,074100,081147,030853,081220,031083
0000000069,0000004533,070603,033419,070489,080620,033287,073338,081908,030874,081976,031106
0000000070,0000004600,069878,033427,069762,081385,033297,072567,082660,030912,082724,031144
0000000071,0000004667,069136,033466,069019,082130,033338,071782,083392,030982,083452,031216
0000000072,0000004733,068388,033521,068269,082865,033395,070991,084114,031069,084169,031303
0000000073,0000004800,067632,033592,067512,083590,033467,070192,084825,031171,084877,031407
0000000074,0000004867,066863,033693,066741,084293,033570,069381,085515,031307,085563,031543
0000000075,0000004933,066088,033810,065964,084985,033690,068565,086193,031458,086238,031694
0000000076,0000005000,065307,033943,065181,085665,033824,067742,086860,031625,086901,031862
0000000077,0000005067,064514,034107,064387,086322,033989,066910,087504,031824,087542,032062
0000000078,0000005133,063716,034286,063588,086967,034170,066073,088135,032039,088170,032277
0000000079,0000005200,062914,034480,062784,087600,034366,065232,088754,032270,088786,032508
0000000080,0000005267,062102,034704,061970,088207,034593,064383,089347,032532,089377,032770
0000000081,0000005333,061286,034943,061153,088801,034834,063531,089928,032809,089954,033048
0000000082,0000005400,060467,035198,060332,089381,035090,062676,090495,033102,090519,033341
0000000083,0000005467,059641,035482,059505,089935,035377,061815,091035,033426,091057,033664
0000000084,0000005533,058812,035780,058674,090475,035677,060953,091562,033764,091581,034003
0000000085,0000005600,057980,036094,057841,091001,035993,060088,092074,034118,092092,034356
0000000086,0000005667,057145,036436,057004,091498,036337,059220,092558,034501,092574,034739
0000000087,0000005733,056307,036792,056165,091981,036695,058352,093027,034898,093041,035136
0000000088,0000005800,055468,037162,055324,092448,037068,057483,093482,035310,093494,035547
0000000089,0000005867,054628,037560,054482,092886,037468,056613,093907,035751,093918,035987
0000000090,0000005933,053786,037972,053639,093309,037882,055744,094316,036205,094326,036441
0000000091,0000006000,052945,038397,052796,093716,038309,054876,094711,036673,094720,036909
0000000092,0000006067,052104,038849,051954,094092,038764,054009,095074,037169,095082,037403
0000000093,0000006133,051264,039314,051112,094453,039231,053144,095421,037677,095429,037911
0000000094,0000006200,050424,039792,050271,094797,039711,052281,095753,038199,095760,038432
0000000095,0000006267,049588,040295,049433,095109,040216,051423,096053,038746,096060,038978
0000000096,0000006333,048753,040810,048597,095405,040734,050567,096336,039306,096343,039537
0000000097,0000006400,047921,041338,047763,095685,041264,049714,096604,039878,096610,040108
0000000098,0000006467,047094,041889,046935,095931,041818,048868,096838,040475,096845,040703
0000000099,0000006533,046270,042452,046109,096161,042383,048026,097056,041083,097063,041310
0000000100,0000006600,045449,043027,045287,096374,042960,047189,097257,041702,097265,041928
0000000101,0000006667,044636,043623,044472,096554,043559,046360,097425,042344,097434,042568
0000000102,0000006733,043827,044231,043662,096716,044169,045537,097576,042997,097586,043219
0000000103,0000006800,043022,044849,042856,096862,044789,044719,097711,043660,097721,043881
0000000104,0000006867,042228,045487,042060,096973,045430,043913,097811,044344,097822,044563
0000000105,0000006933,041439,046136,041270,097067,046081,043114,097894,045038,097907,045255
0000000106,0000007000,040655,046794,040485,097144,046741,042321,097961,045741,097975,045957
0000000107,0000007067,039884,047470,039712,097187,047420,041541,097993,046463,098009,046677
0000000108,0000007133,039119,048156,038946,097212,048108,040770,098008,047194,098026,047406
0000000109,0000007200,038361,048850,038187,097221,048805,040006,098006,047933,098026,048143
0000000110,0000007267,037617,049561,037442,097194,049518,039258,097970,048689,097992,048897
0000000111,0000007333,036880,050280,036704,097151,050240,038519,097917,049452,097942,049658
0000000112,0000007400,036152,051007,035974,097090,050969,037788,097847,050224,097874,050427
0000000113,0000007467,035440,051749,035261,096995,051713,037076,097743,051009,097772,051210
0000000114,0000007533,034736,052497,034557,096883,052463,036373,097622,051801,097654,052000
0000000115,0000007600,034041,053252,033861,096753,053220,035680,097484,052600,097519,052796
0000000116,0000007667,033365,054019,033183,096590,053990,035007,097312,053410,097351,053605
0000000117,0000007733,032698,054793,032516,096409,054766,034345,097124,054227,097166,054418
0000000118,0000007800,032041,055572,031858,096212,055547,033694,096918,055048,096964,055237
0000000119,0000007867,031405,056361,031220,095981,056338,033064,096680,055879,096729,056066
0000000120,0000007933,030779,057155,030593,095734,057134,032447,096426,056715,096478,056899
0000000121,0000008000,030163,057953,029977,095470,057935,031840,096155,057555,096211,057736
0000000122,0000008067,029570,058760,029383,095173,058744,031258,095851,058402,095912,058580
0000000123,0000008133,028988,059570,028800,094860,059556,030688,095532,059252,095597,059428
0000000124,0000008200,028417,060383,028229,094530,060371,030131,095196,060105,095266,060278
0000000125,0000008267,027871,061202,027681,094169,061192,029599,094830,060963,094903,061133
0000000126,0000008333,027336,062024,027146,093792,062016,029080,094447,061823,094525,061991
0000000127,0000008400,026814,062848,026623,093399,062842,028574,094049,062685,094132,062850
0000000128,0000008467,026317,063675,026125,092976,063671,028095,093621,063549,093709,063711
0000000129,0000008533,025833,064503,025641,092537,064501,027631,093178,064414,093270,064573
0000000130,0000008600,025362,065333,025169,092083,065333,027180,092720,065280,092817,065435
0000000131,0000008667,024917,066164,024724,091599,066165,026757,092233,066146,092335,066298
0000000132,0000008733,024487,066994,024293,091101,066997,026349,091731,067011,091839,067160
0000000133,0000008800,024069,067825,023875,090589,067830,025955,091215,067875,091329,068021
0000000134,0000008867,023680,068654,023485,090048,068661,025591,090672,068737,090791,068880
0000000135,0000008933,023305,069482,023110,089494,069490,025242,090115,069597,090239,069737
0000000136,0000009000,022944,070308,022748,088926,070319,024907,089545,070455,089675,070592
0000000137,0000009067,022612,071132,022416,088331,071143,024604,088948,071308,089084,071442
0000000138,0000009133,022294,071952,022098,087723,071965,024315,088339,072159,088481,072289
0000000139,0000009200,021991,072771,021795,087102,072785,024043,087718,073006,087865,073133
0000000140,0000009267,021718,073583,021522,086457,073599,023801,087071,073846,087225,073970
0000000141,0000009333,021461,074392,021264,085799,074409,023575,086414,074682,086573,074802
0000000142,0000009400,021218,075197,021021,085130,075216,023366,085744,075513,085910,075630
0000000143,0000009467,021006,075994,020809,084437,076014,023188,085052,076335,085224,076449
0000000144,0000009533,020809,076786,020612,083734,076807,023026,084349,077151,084527,077262
0000000145,0000009600,020628,077573,020431,083019,077596,022880,083635,077962,083820,078070
0000000146,0000009667,020477,078350,020281,082284,078374,022767,082901,078761,083092,078865
0000000147,0000009733,020343,079122,020146,081538,079146,022670,082157,079553,082354,079654
0000000148,0000009800,020224,079887,020028,080782,079913,022589,081403,080339,081607,080437
0000000149,0000009867,020136,080640,019940,080008,080666,022541,080631,081110,080842,081205
0000000150,0000009933,020065,081385,019869,079224,081413,022510,079850,081874,080067,081966
0000000151,0000010000,020009,082124,019813,078432,082153,022494,079061,082630,079284,082718
0000000152,0000010067,019985,082848,019789,077623,082878,022512,078255,083370,078485,083455
0000000153,0000010133,019976,083564,019781,076806,083594,022546,077442,084101,077679,084183
0000000154,0000010200,019984,084272,019789,075981,084303,022596,076621,084823,076865,084902
0000000155,0000010267,020023,084964,019829,075142,084995,022679,075786,085527,076037,085602
0000000156,0000010333,020078,085646,019885,074297,085678,022779,074945,086221,075203,086293
0000000157,0000010400,020149,086319,019956,073445,086352,022894,074098,086905,074362,086974
0000000158,0000010467,020252,086974,020059,072580,087007,023042,073239,087569,073510,087635
0000000159,0000010533,020370,087619,020178,071711,087652,023206,072375,088222,072653,088285
0000000160,0000010600,020504,088254,020313,070836,088287,023386,071506,088864,071791,088924
0000000161,0000010667,020669,088868,020479,069951,088902,023598,070628,089484,070919,089541
0000000162,0000010733,020850,089471,020660,069063,089506,023826,069746,090093,070044,090147
0000000163,0000010800,021046,090064,020857,068170,090099,024070,068860,090689,069165,090741
0000000164,0000010867,021273,090635,021084,067271,090669,024345,067967,091262,068279,091310
0000000165,0000010933,021515,091193,021327,066368,091228,024636,067072,091822,067390,091868
0000000166,0000011000,021772,091741,021585,065463,091775,024942,066174,092370,066499,092413
0000000167,0000011067,022060,092264,021873,064553,092298,025278,065272,092892,065604,092932
0000000168,0000011133,022362,092775,022176,063642,092809,025629,064369,093401,064708,093439
0000000169,0000011200,022679,093273,022494,062729,093308,025996,063464,093897,063810,093932
0000000170,0000011267,023025,093747,022841,061814,093780,026392,062559,094366,062910,094398
0000000171,0000011333,023385,094207,023203,060899,094240,026802,061653,094821,062011,094850
0000000172,0000011400,023760,094654,023578,059984,094687,027227,060746,095262,061111,095288
0000000173,0000011467,024162,095074,023982,059069,095107,027680,059841,095674,060213,095698
0000000174,0000011533,024579,095481,024400,058156,095513,028146,058938,096072,059315,096094
0000000175,0000011600,025009,095874,024831,057243,095906,028627,058035,096456,058419,096475
0000000176,0000011667,025467,096239,025290,056334,096271,029135,057136,096810,057526,096827
0000000177,0000011733,025937,096591,025761,055428,096621,029655,056240,097149,056636,097164
0000000178,0000011800,026421,096927,026246,054523,096957,030189,055346,097473,055749,097486
0000000179,0000011867,026930,097236,026756,053625,097265,030749,054459,097767,054867,097777
0000000180,0000011933,027452,097529,027279,052730,097557,031320,053575,098045,053989,098053
0000000181,0000012000,027986,097808,027815,051839,097835,031904,052695,098307,053115,098314
0000000182,0000012067,028544,098057,028374,050956,098083,032512,051824,098539,052249,098543
0000000183,0000012133,029114,098291,028945,050079,098316,033132,050957,098754,051389,098757
0000000184,0000012200,029696,098510,029528,049206,098534,033763,050096,098954,050533,098955
0000000185,0000012267,030300,098698,030134,048344,098722,034416,049246,099122,049689,099121
0000000186,0000012333,030915,098872,030750,047488,098894,035079,048402,099274,048850,099271
0000000187,0000012400,031540,099030,031377,046638,099051,035753,047565,099409,048018,099405
0000000188,0000012467,032187,099157,032025,045802,099177,036448,046741,099513,047199,099507
0000000189,0000012533,032843,099269,032683,044973,099287,037152,045924,099600,046387,099593
0000000190,0000012600,033510,099365,033351,044151,099382,037865,045115,099671,045583,099662
0000000191,0000012667,034195,099430,034038,043345,099445,038597,044322,099709,044795,099699
0000000192,0000012733,034889,099479,034733,042548,099493,039338,043538,099731,044015,099720
0000000193,0000012800,035592,099513,035438,041759,099525,040087,042761,099737,043243,099725
0000000194,0000012867,036313,099515,036160,040988,099526,040852,042004,099710,042490,099697
0000000195,0000012933,037041,099502,036889,040226,099511,041625,041255,099667,041746,099653
0000000196,0000013000,037777,099473,037627,039475,099481,042405,040517,099608,041011,099592
0000000197,0000013067,038528,099413,038379,038743,099419,043199,039798,099516,040297,099499
0000000198,0000013133,039285,099337,039139,038022,099341,044000,039091,099407,039593,099390
0000000199,0000013200,040050,099246,039905,037312,099248,044806,038394,099283,038900,099265
0000000200,0000013267,040827,099123,040684,036623,099124,045625,037719,099126,038229,099108
0000000201,0000013333,041611,098985,041469,035947,098984,046449,037056,098954,037569,098935
0000000202,0000013400,042400,098832,042259,035282,098829,047278,036405,098765,036921,098746
0000000203,0000013467,043199,098648,043060,034641,098643,048116,035777,098545,036297,098525
