DIgSILENT PowerFactory,20000410,2000
10,10A,00D
1,LC684-652A:Phase Voltage A/Terminal i,,,kV,0.00010000000,-5.103824,0.000000,11265,99998,1,1,P
2,LC684-652A:Phase Voltage C/Terminal i,,,kV,0.00010000000,-6.225390,0.000000,20642,99998,1,1,P
3,LC692-675:Phase Voltage A/Terminal i,,,kV,0.00010000000,-5.097218,0.000000,11130,99998,1,1,P
4,LC692-675:Phase Voltage B/Terminal i,,,kV,0.00010000000,-6.025393,0.000000,8295,99998,1,1,P
5,LC692-675:Phase Voltage C/Terminal i,,,kV,0.00010000000,-6.220431,0.000000,20786,99998,1,1,P
6,LOHL632-633:Phase Voltage A/Terminal i,,,kV,0.00010000000,-5.143409,0.000000,11626,99998,1,1,P
7,LOHL632-633:Phase Voltage B/Terminal i,,,kV,0.00010000000,-6.220824,0.000000,16839,99998,1,1,P
8,LOHL632-633:Phase Voltage C/Terminal i,,,kV,0.00010000000,-6.102757,0.000000,21277,99998,1,1,P
9,LOHL645-646:Phase Voltage B/Terminal i,,,kV,0.00010000000,-6.249655,0.000000,17434,99998,1,1,P
10,LOHL645-646:Phase Voltage C/Terminal i,,,kV,0.00010000000,-6.111340,0.000000,21486,99998,1,1,P
50
1
15000.000000,3001
11/11/2020,17:39:23.000000
11/11/2020,17:39:23.000000
ASCII
1.000000
0000000001,0000000000,077164,066698,077155,027261,066596,079454,029712,064497,030199,064525
0000000002,0000000067,077678,065873,077669,027664,065769,079951,030120,063634,030603,063665
0000000003,0000000133,078179,065046,078171,028082,064940,080434,030543,062770,031021,062804
0000000004,0000000200,078667,064218,078660,028516,064111,080903,030981,061906,031455,061942
0000000005,0000000267,079130,063388,079123,028980,063279,081345,031449,061040,031917,061079
0000000006,0000000333,079579,062558,079572,029459,062447,081772,031932,060175,032395,060217
0000000007,0000000400,080014,061727,080008,029952,061614,082185,032428,059309,032886,059355
0000000008,0000000467,080422,060897,080416,030474,060782,082569,032953,058446,033406,058494
0000000009,0000000533,080816,060068,080811,031010,059951,082938,033492,057583,033939,057635
0000000010,0000000600,081196,059239,081191,031560,059121,083292,034045,056723,034486,056778
0000000011,0000000667,081547,058414,081543,032137,058294,083616,034624,055866,035059,055924
0000000012,0000000733,081884,057590,081880,032727,057469,083925,035216,055012,035646,055073
0000000013,0000000800,082207,056769,082203,033331,056646,084218,035821,054161,036245,054225
0000000014,0000000867,082499,055952,082496,033960,055828,084481,036451,053316,036869,053383
0000000015,0000000933,082777,055139,082774,034601,055013,084728,037093,052475,037505,052546
0000000016,0000001000,083040,054329,083037,035254,054202,084959,037747,051637,038153,051712
0000000017,0000001067,083273,053526,083270,035932,053398,085158,038424,050809,038824,050887
0000000018,0000001133,083490,052728,083487,036620,052598,085341,039112,049986,039506,050066
0000000019,0000001200,083692,051934,083689,037320,051803,085508,039811,049167,040199,049252
0000000020,0000001267,083864,051150,083860,038042,051018,085643,040532,048360,040913,048448
0000000021,0000001333,084019,050371,084016,038774,050238,085762,041263,047560,041637,047650
0000000022,0000001400,084159,049598,084156,039516,049464,085865,042004,046765,042372,046859
0000000023,0000001467,084267,048837,084264,040278,048701,085934,042764,045984,043125,046081
0000000024,0000001533,084360,048082,084357,041049,047946,085988,043533,045210,043888,045310
0000000025,0000001600,084437,047334,084433,041830,047196,086025,044311,044443,044659,044547
0000000026,0000001667,084482,046600,084478,042628,046461,086029,045106,043692,045447,043799
0000000027,0000001733,084512,045873,084507,043434,045734,086017,045909,042950,046244,043060
0000000028,0000001800,084525,045154,084521,044249,045014,085989,046720,042216,047048,042329
0000000029,0000001867,084507,044451,084502,045078,044311,085928,047545,041500,047867,041616
0000000030,0000001933,084473,043757,084468,045915,043616,085850,048377,040793,048692,040912
0000000031,0000002000,084423,043072,084417,046759,042930,085756,049217,040096,049525,040218
0000000032,0000002067,084342,042404,084335,047615,042262,085630,050068,039418,050369,039544
0000000033,0000002133,084244,041747,084237,048477,041604,085487,050925,038751,051219,038880
0000000034,0000002200,084131,041098,084124,049345,040955,085328,051787,038094,052075,038226
0000000035,0000002267,083987,040470,083979,050224,040327,085137,052660,037459,052941,037594
0000000036,0000002333,083827,039853,083818,051106,039709,084930,053536,036835,053810,036973
0000000037,0000002400,083651,039245,083642,051994,039101,084708,054417,036223,054685,036364
0000000038,0000002467,083445,038660,083434,052889,038516,084453,055306,035634,055566,035778
0000000039,0000002533,083223,038086,083212,053787,037942,084184,056197,035057,056451,035204
0000000040,0000002600,082986,037523,082974,054689,037379,083898,057092,034493,057339,034642
0000000041,0000002667,082718,036984,082706,055596,036839,083582,057991,033953,058231,034106
0000000042,0000002733,082436,036456,082422,056505,036312,083251,058892,033427,059126,033582
0000000043,0000002800,082139,035941,082124,057416,035797,082904,059795,032913,060022,033071
0000000044,0000002867,081812,035451,081797,058330,035307,082528,060700,032427,060920,032587
0000000045,0000002933,081471,034974,081455,059244,034830,082137,061606,031953,061820,032117
0000000046,0000003000,081115,034509,081098,060159,034366,081732,062512,031494,062719,031660
0000000047,0000003067,080731,034071,080713,061074,033928,081297,063418,031062,063618,031231
0000000048,0000003133,080333,033646,080314,061989,033504,080849,064323,030645,064517,030816
0000000049,0000003200,079921,033235,079901,062903,033093,080387,065227,030242,065415,030415
0000000050,0000003267,079482,032851,079460,063814,032709,079897,066128,029868,066310,030044
0000000051,0000003333,079029,032481,079006,064723,032340,079394,067028,029509,067203,029687
0000000052,0000003400,078563,032125,078539,065631,031985,078878,067925,029165,068094,029345
0000000053,0000003467,078071,031798,078046,066533,031658,078335,068817,028852,068980,029034
0000000054,0000003533,077566,031485,077540,067433,031346,077780,069705,028553,069862,028737
0000000055,0000003600,077048,031187,077021,068329,031049,077213,070590,028270,070742,028456
0000000056,0000003667,076506,030918,076477,069217,030781,076621,071468,028017,071613,028206
0000000057,0000003733,075952,030664,075922,070101,030528,076017,072340,027781,072480,027971
0000000058,0000003800,075386,030425,075355,070981,030290,075401,073208,027560,073342,027752
0000000059,0000003867,074797,030216,074764,071850,030082,074763,074066,027371,074194,027565
0000000060,0000003933,074196,030022,074163,072714,029890,074113,074918,027198,075041,027394
0000000061,0000004000,073585,029844,073550,073572,029712,073453,075764,027041,075881,027238
0000000062,0000004067,072952,029696,072916,074417,029566,072772,076597,026916,076709,027115
0000000063,0000004133,072309,029564,072271,075256,029435,072081,077423,026807,077530,027008
0000000064,0000004200,071656,029447,071617,076087,029319,071380,078242,026714,078344,026917
0000000065,0000004267,070983,029361,070942,076904,029235,070661,079046,026654,079143,026858
0000000066,0000004333,070301,029291,070259,077712,029166,069932,079842,026611,079934,026815
0000000067,0000004400,069610,029237,069566,078513,029113,069194,080629,026583,080717,026789
0000000068,0000004467,068901,029213,068856,079296,029091,068439,081399,026588,081483,026795
0000000069,0000004533,068184,029206,068137,080070,029085,067677,082160,026610,082240,026818
0000000070,0000004600,067458,029214,067410,080835,029095,066907,082912,026647,082987,026857
0000000071,0000004667,066717,029253,066667,081580,029136,066122,083644,026718,083715,026928
0000000072,0000004733,065969,029308,065917,082315,029192,065330,084366,026804,084433,027015
0000000073,0000004800,065213,029379,065160,083040,029265,064531,085077,026907,085140,027119
0000000074,0000004867,064444,029480,064389,083743,029368,063720,085767,027042,085826,027255
0000000075,0000004933,063669,029598,063613,084435,029487,062904,086445,027193,086501,027407
0000000076,0000005000,062887,029730,062830,085115,029622,062082,087112,027361,087165,027574
0000000077,0000005067,062095,029894,062035,085772,029787,061249,087756,027560,087805,027774
0000000078,0000005133,061297,030073,061236,086417,029968,060413,088387,027775,088433,027989
0000000079,0000005200,060494,030267,060432,087050,030164,059572,089006,028005,089049,028220
0000000080,0000005267,059683,030491,059619,087657,030390,058723,089600,028267,089640,028483
0000000081,0000005333,058867,030731,058801,088251,030632,057871,090180,028545,090218,028760
0000000082,0000005400,058047,030985,057980,088831,030888,057015,090747,028838,090782,029053
0000000083,0000005467,057221,031269,057153,089385,031174,056155,091288,029161,091320,029377
0000000084,0000005533,056393,031568,056322,089925,031475,055292,091814,029500,091845,029715
0000000085,0000005600,055561,031881,055489,090451,031790,054427,092326,029853,092355,030068
0000000086,0000005667,054725,032223,054652,090948,032135,053560,092810,030236,092837,030451
0000000087,0000005733,053888,032579,053813,091430,032493,052691,093280,030634,093305,030848
0000000088,0000005800,053049,032949,052972,091898,032865,051822,093734,031046,093758,031260
0000000089,0000005867,052208,033347,052130,092336,033266,050953,094159,031486,094181,031700
0000000090,0000005933,051367,033759,051287,092759,033680,050084,094569,031941,094590,032153
0000000091,0000006000,050526,034184,050444,093166,034107,049215,094963,032409,094983,032621
0000000092,0000006067,049684,034636,049602,093542,034561,048348,095326,032904,095345,033115
0000000093,0000006133,048844,035101,048760,093903,035028,047484,095674,033413,095692,033623
0000000094,0000006200,048005,035579,047919,094247,035508,046620,096005,033934,096024,034144
0000000095,0000006267,047168,036082,047081,094559,036014,045762,096305,034482,096323,034690
0000000096,0000006333,046334,036597,046245,094855,036532,044906,096589,035042,096606,035249
0000000097,0000006400,045502,037125,045411,095135,037062,044053,096856,035614,096874,035820
0000000098,0000006467,044674,037676,044583,095381,037615,043207,097090,036210,097108,036415
0000000099,0000006533,043850,038239,043757,095611,038181,042366,097308,036818,097327,037022
0000000100,0000006600,043030,038814,042935,095824,038758,041528,097510,037438,097528,037640
0000000101,0000006667,042216,039411,042120,096004,039357,040700,097678,038080,097697,038281
0000000102,0000006733,041407,040018,041310,096166,039966,039876,097829,038732,097849,038932
0000000103,0000006800,040603,040636,040504,096312,040587,039059,097963,039396,097984,039594
0000000104,0000006867,039808,041275,039708,096423,041228,038253,098063,040080,098086,040276
0000000105,0000006933,039019,041923,038918,096517,041878,037453,098147,040773,098170,040968
0000000106,0000007000,038236,042581,038133,096594,042539,036660,098213,041477,098238,041669
0000000107,0000007067,037464,043258,037360,096637,043218,035881,098245,042199,098272,042389
0000000108,0000007133,036699,043943,036594,096662,043906,035109,098260,042929,098289,043118
0000000109,0000007200,035941,044638,035835,096671,044603,034345,098258,043669,098289,043855
0000000110,0000007267,035197,045349,035090,096644,045316,033597,098222,044424,098256,044609
0000000111,0000007333,034461,046068,034352,096601,046037,032858,098169,045188,098205,045370
0000000112,0000007400,033732,046794,033623,096540,046766,032127,098099,045959,098137,046140
0000000113,0000007467,033020,047536,032909,096445,047510,031415,097995,046745,098036,046923
0000000114,0000007533,032317,048284,032205,096333,048261,030712,097874,047537,097918,047713
0000000115,0000007600,031622,049039,031509,096203,049018,030019,097736,048335,097783,048509
0000000116,0000007667,030946,049807,030832,096040,049788,029346,097564,049146,097614,049317
0000000117,0000007733,030279,050580,030164,095859,050563,028684,097376,049962,097429,050131
0000000118,0000007800,029622,051359,029506,095662,051344,028033,097171,050784,097227,050950
0000000119,0000007867,028985,052148,028868,095431,052136,027404,096933,051615,096993,051778
0000000120,0000007933,028359,052942,028241,095184,052932,026786,096678,052450,096742,052611
0000000121,0000008000,027744,053740,027625,094920,053733,026180,096407,053290,096475,053448
0000000122,0000008067,027150,054547,027031,094623,054541,025597,096104,054137,096175,054293
0000000123,0000008133,026569,055357,026448,094310,055353,025027,095784,054988,095860,055140
0000000124,0000008200,025998,056170,025877,093980,056169,024470,095449,055841,095529,055991
0000000125,0000008267,025451,056990,025329,093619,056990,023938,095082,056699,095166,056846
0000000126,0000008333,024917,057811,024794,093242,057814,023419,094699,057559,094789,057703
0000000127,0000008400,024395,058635,024271,092849,058639,022913,094302,058421,094395,058562
0000000128,0000008467,023898,059462,023774,092426,059469,022435,093873,059285,093972,059423
0000000129,0000008533,023414,060291,023289,091987,060299,021970,093430,060150,093534,060285
0000000130,0000008600,022942,061120,022817,091533,061130,021519,092972,061016,093081,061148
0000000131,0000008667,022498,061951,022372,091049,061963,021096,092485,061881,092599,062010
0000000132,0000008733,022067,062781,021941,090551,062795,020688,091983,062746,092102,062872
0000000133,0000008800,021650,063612,021523,090039,063627,020294,091468,063610,091592,063733
0000000134,0000008867,021261,064441,021133,089498,064458,019930,090924,064472,091054,064592
0000000135,0000008933,020885,065269,020758,088944,065288,019581,090368,065332,090503,065449
0000000136,0000009000,020524,066096,020397,088375,066116,019247,089797,066191,089938,066304
0000000137,0000009067,020192,066919,020064,087781,066941,018943,089201,067044,089347,067154
0000000138,0000009133,019875,067740,019746,087173,067763,018655,088592,067894,088744,068001
0000000139,0000009200,019572,068558,019444,086552,068583,018382,087970,068742,088128,068845
0000000140,0000009267,019299,069370,019170,085907,069397,018140,087324,069581,087488,069682
0000000141,0000009333,019041,070179,018912,085249,070207,017915,086666,070417,086836,070515
0000000142,0000009400,018798,070984,018670,084580,071013,017705,085996,071249,086173,071343
0000000143,0000009467,018586,071781,018457,083887,071812,017527,085304,072070,085487,072161
0000000144,0000009533,018389,072573,018260,083184,072605,017365,084601,072887,084790,072974
0000000145,0000009600,018208,073361,018079,082469,073394,017220,083887,073698,084083,073782
0000000146,0000009667,018058,074138,017929,081734,074172,017106,083153,074496,083355,074578
0000000147,0000009733,017923,074909,017794,080988,074944,017009,082409,075289,082618,075367
0000000148,0000009800,017804,075674,017676,080232,075710,016929,081655,076074,081870,076149
0000000149,0000009867,017717,076427,017588,079458,076464,016881,080883,076846,081105,076917
0000000150,0000009933,017645,077173,017517,078674,077211,016849,080102,077610,080331,077678
0000000151,0000010000,017589,077911,017461,077882,077950,016834,079313,078366,079548,078431
0000000152,0000010067,017565,078635,017438,077073,078675,016851,078507,079106,078749,079167
0000000153,0000010133,017557,079352,017430,076256,079392,016885,077694,079837,077942,079895
0000000154,0000010200,017565,080060,017438,075431,080101,016936,076873,080559,077128,080614
0000000155,0000010267,017604,080751,017477,074592,080793,017019,076039,081263,076300,081315
0000000156,0000010333,017659,081433,017533,073747,081476,017118,075198,081956,075466,082006
0000000157,0000010400,017730,082107,017604,072894,082150,017233,074350,082641,074626,082687
0000000158,0000010467,017833,082761,017707,072030,082805,017381,073491,083304,073774,083347
0000000159,0000010533,017951,083406,017826,071161,083450,017546,072627,083957,072916,083997
0000000160,0000010600,018085,084041,017961,070286,084085,017726,071758,084600,072054,084637
0000000161,0000010667,018250,084655,018127,069401,084700,017938,070880,085220,071183,085254
0000000162,0000010733,018431,085259,018308,068513,085303,018166,069998,085828,070307,085859
0000000163,0000010800,018627,085851,018505,067620,085896,018409,069112,086425,069428,086453
0000000164,0000010867,018854,086422,018733,066720,086467,018685,068219,086998,068542,087023
0000000165,0000010933,019096,086981,018975,065818,087026,018975,067324,087558,067654,087580
0000000166,0000011000,019353,087528,019233,064913,087573,019281,066426,088106,066763,088125
0000000167,0000011067,019640,088051,019522,064003,088096,019617,065524,088628,065868,088645
0000000168,0000011133,019942,088562,019825,063091,088607,019969,064621,089137,064971,089151
0000000169,0000011200,020259,089061,020142,062179,089105,020335,063717,089633,064073,089644
0000000170,0000011267,020605,089534,020489,061264,089578,020731,062811,090102,063174,090110
0000000171,0000011333,020966,089994,020851,060349,090038,021141,061905,090556,062274,090562
0000000172,0000011400,021340,090441,021226,059434,090485,021566,060999,090997,061375,091001
0000000173,0000011467,021743,090862,021630,058519,090905,022019,060094,091410,060476,091411
0000000174,0000011533,022160,091268,022048,057606,091311,022486,059190,091808,059579,091806
0000000175,0000011600,022590,091661,022479,056693,091704,022966,058287,092192,058682,092188
0000000176,0000011667,023047,092027,022938,055784,092068,023474,057389,092546,057790,092539
0000000177,0000011733,023518,092378,023409,054878,092419,023995,056492,092885,056900,092876
0000000178,0000011800,024001,092715,023894,053973,092755,024529,055599,093209,056012,093198
0000000179,0000011867,024511,093023,024405,053075,093062,025088,054711,093502,055130,093489
0000000180,0000011933,025032,093316,024928,052180,093355,025660,053827,093780,054253,093765
0000000181,0000012000,025566,093595,025463,051289,093633,026244,052947,094043,053378,094026
0000000182,0000012067,026125,093844,026022,050406,093881,026852,052076,094274,052513,094256
0000000183,0000012133,026695,094078,026594,049528,094114,027471,051210,094490,051652,094469
0000000184,0000012200,027276,094297,027177,048656,094332,028102,050348,094690,050797,094667
0000000185,0000012267,027880,094486,027782,047794,094519,028755,049498,094858,049952,094833
0000000186,0000012333,028495,094659,028398,046938,094692,029418,048655,095009,049114,094983
0000000187,0000012400,029121,094817,029025,046088,094848,030093,047817,095145,048281,095117
0000000188,0000012467,029767,094944,029673,045252,094974,030787,046993,095248,047462,095219
0000000189,0000012533,030424,095056,030331,044423,095085,031491,046177,095336,046651,095305
0000000190,0000012600,031090,095152,030999,043601,095179,032205,045368,095407,045847,095375
0000000191,0000012667,031775,095217,031686,042795,095243,032937,044574,095445,045058,095412
0000000192,0000012733,032470,095266,032381,041998,095291,033677,043790,095467,044278,095432
0000000193,0000012800,033173,095300,033086,041209,095323,034426,043014,095473,043507,095437
0000000194,0000012867,033893,095302,033808,040438,095324,035191,042256,095446,042753,095409
0000000195,0000012933,034621,095289,034537,039676,095309,035964,041508,095403,042009,095365
0000000196,0000013000,035357,095260,035275,038924,095279,036744,040769,095343,041275,095304
0000000197,0000013067,036108,095200,036027,038193,095217,037538,040051,095251,040560,095212
0000000198,0000013133,036866,095124,036787,037472,095139,038339,039343,095143,039856,095103
0000000199,0000013200,037631,095033,037553,036761,095046,039146,038646,095019,039163,094978
0000000200,0000013267,038408,094910,038332,036073,094922,039964,037971,094862,038492,094820
0000000201,0000013333,039191,094773,039117,035397,094782,040788,037308,094689,037832,094647
0000000202,0000013400,039980,094619,039907,034732,094627,041617,036657,094501,037184,094458
0000000203,0000013467,040780,094435,040708,034091,094441,042455,036030,094281,036560,094238
