DIgSILENT PowerFactory,20000410,2000
10,10A,00D
1,LC684-652A:Phase Voltage A/Terminal i,,,kV,0.00010000000,-6.056682,0.000000,21702,99998,1,1,P
2,LC684-652A:Phase Voltage C/Terminal i,,,kV,0.00010000000,-5.284661,0.000000,15642,99998,1,1,P
3,LC692-675:Phase Voltage A/Terminal i,,,kV,0.00010000000,-6.034921,0.000000,21337,99998,1,1,P
4,LC692-675:Phase Voltage B/Terminal i,,,kV,0.00010000000,-5.747874,0.000000,8305,99998,1,1,P
5,LC692-675:Phase Voltage C/Terminal i,,,kV,0.00010000000,-5.304246,0.000000,15905,99998,1,1,P
6,LOHL632-633:Phase Voltage A/Terminal i,,,kV,0.00010000000,-6.254684,0.000000,25834,99998,1,1,P
7,LOHL632-633:Phase Voltage B/Terminal i,,,kV,0.00010000000,-6.119238,0.000000,17760,99998,1,1,P
8,LOHL632-633:Phase Voltage C/Terminal i,,,kV,0.00010000000,-5.748019,0.000000,20887,99998,1,1,P
9,LOHL645-646:Phase Voltage B/Terminal i,,,kV,0.00010000000,-6.145546,0.000000,18310,99998,1,1,P
10,LOHL645-646:Phase Voltage C/Terminal i,,,kV,0.00010000000,-5.763058,0.000000,21150,99998,1,1,P
50
1
15000.000000,3001
11/11/2020,16:58:02.000000
11/11/2020,16:58:02.000000
ASCII
1.000000
0000000001,0000000000,086693,057290,086532,024486,057434,090567,028696,060950,029158,061042
0000000002,0000000067,087207,056465,087046,024889,056607,091063,029104,060087,029562,060182
0000000003,0000000133,087708,055639,087548,025307,055779,091546,029527,059223,029980,059321
0000000004,0000000200,088196,054811,088037,025741,054949,092016,029966,058358,030413,058459
0000000005,0000000267,088658,053981,088500,026205,054117,092457,030434,057493,030876,057597
0000000006,0000000333,089107,053150,088949,026684,053285,092885,030916,056627,031354,056734
0000000007,0000000400,089542,052320,089385,027177,052452,093298,031413,055762,031845,055872
0000000008,0000000467,089950,051490,089793,027699,051620,093682,031938,054898,032365,055012
0000000009,0000000533,090344,050660,090188,028235,050789,094051,032476,054036,032898,054153
0000000010,0000000600,090724,049832,090568,028785,049959,094405,033029,053175,033445,053295
0000000011,0000000667,091076,049006,090920,029362,049132,094729,033608,052319,034018,052441
0000000012,0000000733,091413,048183,091257,029952,048307,095038,034200,051465,034604,051591
0000000013,0000000800,091735,047361,091580,030556,047484,095331,034805,050613,035204,050742
0000000014,0000000867,092028,046545,091873,031184,046666,095594,035435,049768,035828,049901
0000000015,0000000933,092306,045732,092151,031826,045851,095840,036077,048927,036464,049063
0000000016,0000001000,092569,044922,092414,032479,045040,096071,036731,048090,037112,048229
0000000017,0000001067,092802,044119,092647,033156,044236,096271,037408,047262,037783,047404
0000000018,0000001133,093019,043321,092864,033845,043437,096454,038096,046438,038465,046584
0000000019,0000001200,093221,042527,093066,034545,042641,096621,038796,045620,039158,045769
0000000020,0000001267,093392,041743,093237,035267,041856,096756,039516,044813,039872,044965
0000000021,0000001333,093548,040964,093393,035999,041076,096875,040247,044012,040596,044167
0000000022,0000001400,093688,040191,093533,036741,040302,096977,040988,043218,041331,043376
0000000023,0000001467,093796,039429,093641,037503,039539,097047,041748,042436,042084,042598
0000000024,0000001533,093889,038675,093734,038274,038784,097101,042517,041662,042847,041827
0000000025,0000001600,093966,037926,093810,039055,038035,097138,043295,040896,043618,041064
0000000026,0000001667,094011,037192,093855,039853,037300,097142,044090,040145,044406,040316
0000000027,0000001733,094040,036466,093884,040659,036572,097130,044893,039403,045203,039577
0000000028,0000001800,094054,035747,093898,041474,035853,097102,045704,038669,046007,038846
0000000029,0000001867,094036,035044,093879,042303,035149,097040,046529,037952,046826,038133
0000000030,0000001933,094002,034350,093845,043140,034454,096963,047362,037246,047651,037430
0000000031,0000002000,093952,033665,093794,043983,033768,096869,048201,036548,048483,036735
0000000032,0000002067,093870,032997,093712,044840,033100,096742,049052,035871,049328,036061
0000000033,0000002133,093773,032339,093614,045702,032442,096600,049909,035203,050178,035397
0000000034,0000002200,093660,031691,093501,046570,031794,096441,050772,034547,051034,034743
0000000035,0000002267,093515,031063,093356,047448,031165,096250,051644,033912,051899,034111
0000000036,0000002333,093355,030445,093195,048331,030547,096043,052521,033288,052769,033490
0000000037,0000002400,093180,029838,093019,049219,029940,095821,053402,032676,053644,032881
0000000038,0000002467,092973,029253,092811,050114,029354,095566,054290,032087,054525,032295
0000000039,0000002533,092751,028678,092589,051012,028780,095296,055181,031510,055410,031721
0000000040,0000002600,092514,028116,092351,051914,028217,095011,056076,030945,056298,031159
0000000041,0000002667,092247,027576,092083,052821,027678,094695,056975,030406,057190,030623
0000000042,0000002733,091965,027049,091800,053730,027150,094363,057876,029880,058085,030099
0000000043,0000002800,091667,026534,091501,054641,026635,094017,058779,029366,058981,029588
0000000044,0000002867,091341,026044,091174,055555,026145,093641,059684,028879,059879,029104
0000000045,0000002933,090999,025566,090832,056469,025668,093250,060590,028406,060778,028634
0000000046,0000003000,090644,025102,090475,057384,025204,092844,061496,027946,061678,028177
0000000047,0000003067,090260,024664,090090,058299,024766,092410,062402,027515,062577,027748
0000000048,0000003133,089862,024239,089691,059214,024342,091962,063307,027098,063476,027333
0000000049,0000003200,089450,023827,089278,060127,023931,091500,064211,026695,064374,026933
0000000050,0000003267,089010,023443,088837,061039,023547,091010,065113,026321,065269,026561
0000000051,0000003333,088557,023074,088383,061948,023178,090507,066012,025962,066162,026205
0000000052,0000003400,088091,022718,087916,062856,022823,089990,066909,025618,067053,025863
0000000053,0000003467,087599,022391,087423,063758,022497,089448,067801,025304,067939,025551
0000000054,0000003533,087094,022078,086917,064657,022185,088893,068689,025006,068821,025255
0000000055,0000003600,086577,021779,086398,065554,021887,088325,069574,024722,069701,024973
0000000056,0000003667,086035,021511,085854,066442,021619,087733,070452,024470,070572,024723
0000000057,0000003733,085480,021257,085299,067326,021366,087129,071324,024234,071439,024489
0000000058,0000003800,084914,021018,084732,068205,021128,086514,072192,024013,072301,024270
0000000059,0000003867,084325,020809,084141,069075,020920,085875,073050,023824,073153,024082
0000000060,0000003933,083725,020615,083540,069938,020728,085226,073902,023650,074000,023911
0000000061,0000004000,083114,020437,082927,070796,020550,084566,074748,023493,074840,023755
0000000062,0000004067,082481,020289,082293,071642,020404,083885,075581,023368,075668,023632
0000000063,0000004133,081838,020157,081648,072480,020273,083194,076407,023260,076489,023525
0000000064,0000004200,081185,020040,080994,073312,020157,082493,077226,023167,077303,023434
0000000065,0000004267,080512,019954,080319,074129,020073,081773,078030,023107,078102,023375
0000000066,0000004333,079830,019884,079636,074937,020004,081045,078826,023063,078893,023333
0000000067,0000004400,079139,019829,078943,075738,019951,080307,079613,023036,079676,023306
0000000068,0000004467,078430,019806,078233,076521,019929,079552,080384,023041,080442,023313
0000000069,0000004533,077712,019799,077514,077295,019923,078790,081145,023062,081199,023335
0000000070,0000004600,076987,019807,076787,078059,019933,078019,081896,023100,081946,023374
0000000071,0000004667,076246,019846,076044,078805,019974,077234,082628,023170,082674,023445
0000000072,0000004733,075497,019901,075294,079540,020031,076443,083350,023257,083392,023533
0000000073,0000004800,074741,019971,074537,080265,020103,075644,084061,023360,084099,023636
0000000074,0000004867,073972,020073,073766,080968,020206,074833,084751,023495,084785,023772
0000000075,0000004933,073197,020190,072990,081660,020325,074017,085430,023646,085460,023924
0000000076,0000005000,072416,020323,072207,082340,020460,073194,086097,023813,086124,024092
0000000077,0000005067,071623,020487,071412,082997,020625,072362,086740,024012,086764,024291
0000000078,0000005133,070825,020665,070613,083642,020806,071525,087371,024227,087392,024507
0000000079,0000005200,070023,020860,069809,084274,021002,070684,087990,024458,088008,024738
0000000080,0000005267,069211,021084,068996,084881,021228,069835,088584,024720,088599,025000
0000000081,0000005333,068396,021323,068179,085475,021470,068983,089164,024998,089177,025277
0000000082,0000005400,067576,021578,067357,086056,021726,068128,089732,025291,089741,025570
0000000083,0000005467,066750,021862,066530,086610,022012,067267,090272,025614,090279,025894
0000000084,0000005533,065921,022160,065699,087150,022313,066405,090798,025952,090804,026232
0000000085,0000005600,065090,022474,064866,087676,022628,065540,091311,026306,091314,026586
0000000086,0000005667,064254,022816,064029,088173,022973,064672,091794,026689,091796,026968
0000000087,0000005733,063416,023172,063190,088655,023331,063804,092264,027086,092264,027365
0000000088,0000005800,062578,023542,062350,089123,023703,062935,092718,027499,092717,027777
0000000089,0000005867,061737,023940,061507,089561,024104,062065,093143,027939,093140,028217
0000000090,0000005933,060896,024352,060664,089984,024518,061196,093553,028393,093549,028671
0000000091,0000006000,060054,024777,059821,090391,024945,060328,093947,028861,093942,029138
0000000092,0000006067,059213,025229,058979,090767,025399,059461,094310,029357,094304,029633
0000000093,0000006133,058373,025694,058137,091127,025867,058596,094658,029865,094651,030140
0000000094,0000006200,057534,026172,057296,091472,026347,057733,094990,030387,094982,030661
0000000095,0000006267,056697,026675,056458,091784,026852,056875,095289,030934,095282,031207
0000000096,0000006333,055863,027190,055622,092080,027370,056019,095573,031494,095565,031766
0000000097,0000006400,055030,027718,054788,092359,027900,055166,095840,032066,095833,032337
0000000098,0000006467,054203,028269,053960,092606,028454,054320,096075,032663,096067,032932
0000000099,0000006533,053379,028832,053134,092836,029019,053478,096292,033271,096285,033539
0000000100,0000006600,052558,029407,052312,093049,029596,052641,096494,033890,096487,034157
0000000101,0000006667,051745,030003,051497,093228,030195,051812,096662,034532,096656,034798
0000000102,0000006733,050936,030611,050687,093391,030805,050989,096813,035185,096808,035449
0000000103,0000006800,050132,031229,049881,093536,031425,050171,096947,035848,096943,036111
0000000104,0000006867,049337,031867,049085,093648,032066,049365,097047,036532,097045,036793
0000000105,0000006933,048548,032516,048295,093742,032717,048566,097131,037226,097129,037485
0000000106,0000007000,047764,033174,047510,093819,033377,047773,097197,037929,097197,038186
0000000107,0000007067,046993,033850,046737,093862,034056,046993,097229,038651,097231,038906
0000000108,0000007133,046228,034536,045971,093887,034744,046222,097244,039382,097248,039635
0000000109,0000007200,045470,035230,045212,093895,035441,045458,097243,040121,097248,040373
0000000110,0000007267,044726,035941,044467,093869,036154,044710,097207,040877,097215,041126
0000000111,0000007333,043989,036660,043729,093826,036876,043971,097153,041641,097164,041888
0000000112,0000007400,043261,037387,043000,093765,037605,043240,097083,042412,097096,042657
0000000113,0000007467,042549,038129,042286,093670,038348,042528,096979,043197,096995,043440
0000000114,0000007533,041845,038877,041582,093557,039099,041825,096858,043989,096877,044230
0000000115,0000007600,041151,039632,040886,093428,039856,041132,096720,044788,096741,045026
0000000116,0000007667,040474,040399,040209,093264,040626,040459,096548,045599,096573,045834
0000000117,0000007733,039808,041173,039541,093084,041401,039797,096360,046415,096388,046648
0000000118,0000007800,039151,041951,038883,092887,042183,039146,096155,047236,096186,047467
0000000119,0000007867,038514,042741,038245,092656,042974,038516,095917,048068,095952,048296
0000000120,0000007933,037888,043535,037618,092409,043770,037899,095662,048903,095701,049128
0000000121,0000008000,037272,044333,037002,092144,044571,037292,095391,049743,095434,049966
0000000122,0000008067,036679,045140,036408,091848,045379,036710,095088,050590,095134,050810
0000000123,0000008133,036097,045950,035825,091534,046191,036140,094768,051440,094819,051657
0000000124,0000008200,035527,046763,035254,091205,047007,035583,094433,052293,094488,052508
0000000125,0000008267,034980,047582,034706,090844,047828,035051,094066,053152,094125,053363
0000000126,0000008333,034445,048404,034171,090467,048652,034532,093684,054012,093748,054220
0000000127,0000008400,033923,049228,033648,090074,049478,034026,093286,054873,093354,055079
0000000128,0000008467,033426,050055,033151,089650,050307,033547,092857,055738,092931,055940
0000000129,0000008533,032942,050883,032666,089212,051137,033083,092414,056603,092493,056802
0000000130,0000008600,032471,051713,032194,088758,051968,032632,091956,057468,092040,057665
0000000131,0000008667,032027,052543,031749,088274,052801,032209,091469,058334,091557,058527
0000000132,0000008733,031596,053374,031318,087776,053633,031801,090968,059199,091061,059389
0000000133,0000008800,031178,054205,030900,087264,054465,031407,090452,060063,090551,060251
0000000134,0000008867,030789,055034,030511,086723,055296,031043,089909,060925,090013,061109
0000000135,0000008933,030414,055862,030135,086168,056126,030694,089352,061785,089462,061966
0000000136,0000009000,030053,056688,029774,085600,056954,030359,088781,062643,088897,062821
0000000137,0000009067,029721,057512,029441,085005,057779,030056,088185,063497,088306,063671
0000000138,0000009133,029403,058332,029124,084398,058601,029768,087576,064347,087703,064519
0000000139,0000009200,029101,059151,028821,083777,059421,029495,086954,065194,087087,065363
0000000140,0000009267,028828,059963,028547,083132,060235,029253,086308,066034,086447,066199
0000000141,0000009333,028570,060772,028289,082474,061045,029028,085650,066870,085795,067032
0000000142,0000009400,028327,061577,028047,081805,061851,028818,084980,067701,085132,067860
0000000143,0000009467,028115,062374,027834,081112,062650,028640,084288,068523,084446,068678
0000000144,0000009533,027918,063166,027638,080409,063443,028478,083585,069339,083749,069491
0000000145,0000009600,027737,063953,027456,079694,064232,028332,082871,070150,083042,070299
0000000146,0000009667,027586,064730,027306,078958,065010,028219,082137,070949,082314,071095
0000000147,0000009733,027452,065502,027171,078213,065782,028122,081393,071741,081577,071884
0000000148,0000009800,027333,066267,027053,077457,066549,028041,080639,072527,080829,072666
0000000149,0000009867,027245,067020,026965,076683,067302,027993,079867,073299,080064,073435
0000000150,0000009933,027174,067765,026894,075899,068049,027962,079086,074062,079290,074195
0000000151,0000010000,027118,068504,026838,075107,068789,027947,078297,074819,078507,074948
0000000152,0000010067,027094,069228,026815,074298,069513,027964,077491,075558,077708,075685
0000000153,0000010133,027086,069944,026807,073481,070230,027998,076678,076289,076901,076412
0000000154,0000010200,027093,070652,026815,072656,070939,028048,075857,077011,076087,077131
0000000155,0000010267,027132,071344,026854,071817,071631,028131,075023,077715,075259,077832
0000000156,0000010333,027188,072026,026910,070972,072314,028231,074182,078409,074425,078523
0000000157,0000010400,027259,072699,026981,070119,072988,028346,073334,079093,073584,079204
0000000158,0000010467,027361,073354,027085,069255,073643,028494,072475,079757,072732,079865
0000000159,0000010533,027479,073999,027203,068386,074288,028658,071611,080410,071875,080514
0000000160,0000010600,027613,074634,027338,067511,074923,028838,070742,081052,071013,081154
0000000161,0000010667,027778,075248,027504,066626,075538,029051,069864,081672,070141,081771
0000000162,0000010733,027959,075851,027685,065738,076142,029278,068982,082281,069266,082376
0000000163,0000010800,028155,076444,027882,064845,076734,029522,068096,082878,068387,082970
0000000164,0000010867,028382,077014,028110,063945,077305,029797,067203,083450,067501,083540
0000000165,0000010933,028624,077573,028352,063043,077864,030088,066308,084011,066613,084097
0000000166,0000011000,028882,078120,028611,062137,078411,030394,065410,084558,065722,084642
0000000167,0000011067,029169,078644,028899,061228,078934,030730,064509,085081,064826,085162
0000000168,0000011133,029471,079155,029202,060316,079445,031081,063605,085590,063930,085668
0000000169,0000011200,029788,079653,029519,059403,079943,031448,062701,086085,063032,086161
0000000170,0000011267,030134,080126,029866,058489,080416,031844,061795,086554,062133,086627
0000000171,0000011333,030494,080587,030228,057574,080876,032254,060889,087009,061233,087079
0000000172,0000011400,030869,081034,030603,056658,081323,032679,059983,087450,060333,087518
0000000173,0000011467,031272,081454,031007,055744,081743,033132,059078,087862,059435,087928
0000000174,0000011533,031688,081861,031425,054831,082149,033598,058174,088261,058538,088324
0000000175,0000011600,032119,082254,031856,053918,082542,034079,057272,088644,057641,088705
0000000176,0000011667,032576,082619,032315,053009,082907,034587,056373,088998,056749,089057
0000000177,0000011733,033046,082971,032786,052102,083257,035107,055477,089337,055859,089393
0000000178,0000011800,033530,083307,033271,051198,083593,035641,054583,089661,054971,089715
0000000179,0000011867,034039,083615,033782,050300,083900,036201,053695,089955,054089,090007
0000000180,0000011933,034561,083909,034305,049405,084193,036772,052811,090233,053211,090283
0000000181,0000012000,035095,084188,034840,048514,084471,037356,051931,090496,052337,090543
0000000182,0000012067,035653,084437,035399,047631,084719,037964,051060,090727,051472,090773
0000000183,0000012133,036223,084671,035971,046753,084952,038584,050194,090943,050611,090986
0000000184,0000012200,036805,084890,036554,045880,085170,039215,049333,091142,049755,091184
0000000185,0000012267,037409,085078,037159,045018,085358,039868,048483,091310,048911,091350
0000000186,0000012333,038024,085252,037775,044163,085530,040531,047639,091462,048072,091501
0000000187,0000012400,038649,085410,038402,043313,085687,041205,046801,091598,047240,091635
0000000188,0000012467,039296,085537,039050,042477,085812,041900,045977,091701,046421,091737
0000000189,0000012533,039952,085649,039708,041648,085923,042604,045161,091788,045610,091822
0000000190,0000012600,040619,085745,040376,040826,086018,043318,044352,091859,044806,091892
0000000191,0000012667,041304,085810,041063,040020,086081,044049,043559,091898,044017,091929
0000000192,0000012733,041998,085859,041758,039222,086129,044790,042774,091920,043237,091950
0000000193,0000012800,042702,085893,042463,038433,086161,045539,041998,091925,042466,091954
0000000194,0000012867,043422,085895,043185,037662,086162,046304,041240,091898,041712,091926
0000000195,0000012933,044150,085882,043914,036901,086147,047077,040492,091855,040968,091882
0000000196,0000013000,044886,085853,044652,036149,086117,047857,039753,091796,040234,091822
0000000197,0000013067,045637,085793,045404,035418,086055,048651,039035,091704,039519,091729
0000000198,0000013133,046394,085717,046164,034697,085977,049452,038327,091596,038815,091620
0000000199,0000013200,047159,085626,046930,033986,085884,050259,037630,091471,038122,091495
0000000200,0000013267,047937,085503,047709,033298,085760,051077,036955,091315,037451,091338
0000000201,0000013333,048720,085365,048494,032622,085620,051901,036292,091142,036791,091164
0000000202,0000013400,049509,085212,049284,031957,085465,052730,035641,090953,036143,090975
0000000203,0000013467,050308,085028,050085,031316,085279,053568,035014,090733,035519,090755
