DIgSILENT PowerFactory,20000410,2000
10,10A,00D
1,LC684-652A:Phase Voltage A/Terminal i,,,kV,0.00010000000,-5.562199,0.000000,-2432,99998,1,1,P
2,LC684-652A:Phase Voltage C/Terminal i,,,kV,0.00010000000,-5.503374,0.000000,13682,99998,1,1,P
3,LC692-675:Phase Voltage A/Terminal i,,,kV,0.00010000000,-5.556776,0.000000,-2678,99998,1,1,P
4,LC692-675:Phase Voltage B/Terminal i,,,kV,0.00010000000,-6.020269,0.000000,10495,99998,1,1,P
5,LC692-675:Phase Voltage C/Terminal i,,,kV,0.00010000000,-5.529105,0.000000,14111,99998,1,1,P
6,LOHL632-633:Phase Voltage A/Terminal i,,,kV,0.00010000000,-5.832338,0.000000,8317,99998,1,1,P
7,LOHL632-633:Phase Voltage B/Terminal i,,,kV,0.00010000000,-6.254953,0.000000,17973,99998,1,1,P
8,LOHL632-633:Phase Voltage C/Terminal i,,,kV,0.00010000000,-5.805212,0.000000,18362,99998,1,1,P
9,LOHL645-646:Phase Voltage B/Terminal i,,,kV,0.00010000000,-6.283498,0.000000,18568,99998,1,1,P
10,LOHL645-646:Phase Voltage C/Terminal i,,,kV,0.00010000000,-5.815988,0.000000,18587,99998,1,1,P
50
1
15000.000000,3001
11/11/2020,18:16:58.000000
11/11/2020,18:16:58.000000
ASCII
1.000000
0000000001,0000000000,081748,059477,081750,027209,059683,086343,030053,061522,030538,061571
0000000002,0000000067,082262,058652,082265,027613,058856,086840,030461,060659,030941,060711
0000000003,0000000133,082763,057826,082767,028031,058027,087323,030884,059795,031360,059850
0000000004,0000000200,083251,056998,083256,028465,057197,087792,031323,058930,031793,058989
0000000005,0000000267,083714,056168,083718,028929,056365,088234,031791,058065,032256,058126
0000000006,0000000333,084162,055338,084168,029408,055533,088661,032273,057199,032733,057264
0000000007,0000000400,084598,054507,084603,029901,054701,089074,032770,056334,033225,056402
0000000008,0000000467,085006,053677,085012,030423,053869,089458,033295,055470,033744,055541
0000000009,0000000533,085400,052848,085406,030959,053038,089827,033833,054608,034277,054682
0000000010,0000000600,085779,052019,085787,031509,052208,090181,034386,053747,034824,053824
0000000011,0000000667,086131,051194,086138,032086,051381,090506,034965,052891,035398,052971
0000000012,0000000733,086468,050370,086476,032676,050556,090814,035557,052036,035984,052120
0000000013,0000000800,086790,049548,086798,033279,049733,091108,036162,051185,036583,051272
0000000014,0000000867,087083,048732,087091,033908,048915,091370,036792,050340,037207,050430
0000000015,0000000933,087361,047919,087370,034550,048100,091617,037434,049499,037843,049592
0000000016,0000001000,087624,047109,087633,035203,047289,091848,038088,048662,038491,048758
0000000017,0000001067,087857,046306,087865,035880,046485,092047,038765,047834,039162,047933
0000000018,0000001133,088074,045508,088083,036569,045685,092230,039453,047010,039844,047113
0000000019,0000001200,088276,044714,088285,037269,044890,092398,040153,046192,040537,046298
0000000020,0000001267,088447,043930,088456,037990,044105,092533,040873,045385,041251,045494
0000000021,0000001333,088603,043151,088611,038722,043325,092651,041604,044584,041976,044697
0000000022,0000001400,088743,042378,088751,039465,042550,092754,042345,043789,042710,043905
0000000023,0000001467,088851,041617,088860,040227,041788,092824,043105,043008,043464,043127
0000000024,0000001533,088944,040862,088952,040998,041032,092877,043874,042234,044226,042357
0000000025,0000001600,089021,040114,089029,041779,040283,092914,044652,041468,044998,041593
0000000026,0000001667,089066,039379,089074,042577,039548,092919,045447,040717,045786,040846
0000000027,0000001733,089096,038653,089103,043383,038821,092907,046250,039975,046582,040106
0000000028,0000001800,089109,037934,089116,044198,038101,092878,047061,039241,047386,039376
0000000029,0000001867,089091,037231,089098,045027,037398,092817,047886,038524,048205,038663
0000000030,0000001933,089057,036537,089063,045864,036703,092739,048719,037817,049031,037959
0000000031,0000002000,089007,035852,089013,046707,036017,092645,049558,037120,049863,037265
0000000032,0000002067,088925,035184,088931,047564,035349,092519,050409,036443,050708,036590
0000000033,0000002133,088828,034526,088833,048426,034691,092376,051266,035775,051558,035926
0000000034,0000002200,088715,033878,088719,049294,034042,092218,052129,035119,052413,035272
0000000035,0000002267,088571,033250,088574,050172,033414,092027,053001,034484,053279,034640
0000000036,0000002333,088410,032632,088413,051055,032796,091820,053878,033860,054149,034020
0000000037,0000002400,088235,032025,088237,051942,032188,091597,054759,033247,055023,033410
0000000038,0000002467,088028,031440,088030,052838,031603,091343,055647,032659,055905,032824
0000000039,0000002533,087807,030866,087807,053736,031028,091073,056539,032082,056789,032250
0000000040,0000002600,087569,030303,087569,054638,030466,090788,057433,031517,057677,031689
0000000041,0000002667,087302,029763,087301,055545,029926,090471,058332,030978,058570,031152
0000000042,0000002733,087020,029236,087018,056454,029399,090140,059233,030451,059464,030629
0000000043,0000002800,086723,028721,086720,057365,028884,089794,060136,029938,060360,030118
0000000044,0000002867,086396,028231,086392,058279,028394,089417,061041,029451,061259,029634
0000000045,0000002933,086055,027754,086050,059193,027917,089026,061947,028978,062158,029163
0000000046,0000003000,085699,027289,085694,060108,027453,088621,062853,028518,063058,028706
0000000047,0000003067,085315,026851,085308,061023,027015,088187,063759,028087,063957,028277
0000000048,0000003133,084917,026426,084909,061938,026590,087738,064664,027670,064856,027862
0000000049,0000003200,084505,026015,084496,062851,026179,087276,065568,027267,065753,027462
0000000050,0000003267,084065,025631,084056,063763,025796,086786,066470,026893,066649,027090
0000000051,0000003333,083613,025261,083602,064672,025427,086283,067369,026534,067542,026734
0000000052,0000003400,083147,024905,083135,065580,025072,085767,068266,026190,068433,026392
0000000053,0000003467,082654,024578,082641,066482,024745,085225,069158,025876,069318,026080
0000000054,0000003533,082149,024265,082135,067381,024433,084670,070047,025578,070201,025784
0000000055,0000003600,081632,023967,081616,068277,024136,084102,070932,025294,071080,025503
0000000056,0000003667,081090,023698,081073,069166,023868,083510,071809,025042,071951,025253
0000000057,0000003733,080536,023444,080518,070050,023615,082906,072681,024806,072818,025018
0000000058,0000003800,079970,023205,079950,070929,023377,082290,073549,024585,073681,024799
0000000059,0000003867,079380,022996,079360,071799,023169,081652,074407,024396,074533,024612
0000000060,0000003933,078780,022802,078758,072662,022976,081003,075259,024222,075379,024440
0000000061,0000004000,078169,022624,078145,073520,022799,080343,076105,024065,076220,024285
0000000062,0000004067,077536,022476,077511,074366,022652,079662,076938,023940,077048,024161
0000000063,0000004133,076893,022344,076867,075204,022521,078971,077764,023832,077869,024054
0000000064,0000004200,076240,022227,076212,076036,022406,078270,078583,023739,078683,023963
0000000065,0000004267,075567,022141,075538,076852,022322,077550,079387,023679,079482,023904
0000000066,0000004333,074885,022071,074855,077661,022253,076821,080183,023635,080273,023862
0000000067,0000004400,074194,022017,074162,078461,022200,076083,080971,023608,081056,023836
0000000068,0000004467,073485,021993,073451,079245,022178,075329,081741,023613,081822,023842
0000000069,0000004533,072767,021986,072732,080019,022172,074566,082502,023634,082578,023865
0000000070,0000004600,072042,021994,072005,080783,022182,073796,083253,023672,083326,023903
0000000071,0000004667,071301,022033,071263,081529,022223,073011,083985,023742,084053,023975
0000000072,0000004733,070552,022088,070513,082264,022279,072219,084707,023829,084771,024062
0000000073,0000004800,069797,022159,069756,082988,022351,071421,085419,023932,085479,024166
0000000074,0000004867,069028,022260,068985,083692,022455,070610,086108,024067,086165,024301
0000000075,0000004933,068252,022378,068208,084383,022574,069793,086787,024218,086840,024453
0000000076,0000005000,067471,022510,067425,085064,022708,068971,087454,024385,087503,024621
0000000077,0000005067,066678,022674,066631,085721,022874,068139,088097,024584,088143,024821
0000000078,0000005133,065881,022853,065832,086366,023055,067302,088728,024799,088772,025036
0000000079,0000005200,065078,023047,065027,086998,023251,066461,089347,025030,089388,025267
0000000080,0000005267,064266,023271,064214,087605,023477,065612,089941,025292,089978,025529
0000000081,0000005333,063451,023510,063397,088199,023718,064760,090521,025570,090556,025807
0000000082,0000005400,062631,023765,062576,088780,023975,063904,091089,025863,091121,026100
0000000083,0000005467,061805,024049,061748,089334,024261,063044,091629,026186,091659,026423
0000000084,0000005533,060976,024347,060918,089874,024562,062181,092155,026524,092183,026761
0000000085,0000005600,060145,024661,060085,090399,024877,061316,092668,026878,092693,027115
0000000086,0000005667,059309,025003,059247,090897,025221,060449,093152,027261,093176,027498
0000000087,0000005733,058472,025359,058409,091379,025580,059581,093621,027658,093643,027895
0000000088,0000005800,057633,025729,057568,091847,025952,058711,094076,028070,094096,028306
0000000089,0000005867,056792,026127,056726,092285,026352,057842,094500,028511,094520,028746
0000000090,0000005933,055951,026539,055883,092708,026766,056973,094910,028965,094928,029200
0000000091,0000006000,055109,026964,055040,093115,027194,056104,095304,029433,095321,029667
0000000092,0000006067,054268,027416,054197,093491,027648,055238,095668,029929,095684,030162
0000000093,0000006133,053428,027881,053356,093851,028115,054373,096015,030437,096031,030670
0000000094,0000006200,052589,028359,052515,094196,028595,053510,096347,030959,096362,031190
0000000095,0000006267,051752,028862,051677,094508,029101,052651,096646,031506,096661,031737
0000000096,0000006333,050918,029377,050841,094804,029618,051795,096930,032066,096945,032295
0000000097,0000006400,050085,029905,050007,095083,030148,050942,097197,032638,097212,032867
0000000098,0000006467,049258,030456,049178,095330,030702,050097,097432,033235,097447,033462
0000000099,0000006533,048434,031019,048353,095560,031267,049255,097650,033843,097665,034068
0000000100,0000006600,047613,031594,047531,095773,031844,048417,097851,034462,097867,034687
0000000101,0000006667,046800,032190,046716,095952,032443,047589,098019,035104,098035,035327
0000000102,0000006733,045991,032798,045906,096115,033053,046766,098170,035757,098187,035978
0000000103,0000006800,045187,033416,045100,096260,033674,045948,098304,036420,098323,036640
0000000104,0000006867,044392,034054,044304,096372,034314,045142,098405,037104,098424,037322
0000000105,0000006933,043603,034703,043514,096466,034965,044342,098488,037798,098509,038014
0000000106,0000007000,042819,035361,042729,096543,035626,043549,098554,038501,098577,038716
0000000107,0000007067,042048,036037,041956,096586,036305,042770,098586,039223,098611,039436
0000000108,0000007133,041283,036723,041190,096611,036993,041998,098602,039954,098628,040164
0000000109,0000007200,040525,037417,040430,096619,037689,041234,098600,040693,098628,040902
0000000110,0000007267,039781,038129,039685,096593,038403,040486,098564,041449,098594,041656
0000000111,0000007333,039045,038847,038948,096549,039124,039747,098511,042213,098543,042417
0000000112,0000007400,038316,039574,038218,096489,039853,039016,098440,042984,098476,043186
0000000113,0000007467,037604,040316,037505,096394,040597,038304,098336,043769,098374,043969
0000000114,0000007533,036900,041064,036800,096281,041347,037601,098215,044561,098256,044759
0000000115,0000007600,036206,041819,036104,096152,042105,036908,098077,045360,098121,045555
0000000116,0000007667,035529,042586,035427,095988,042875,036236,097906,046171,097952,046364
0000000117,0000007733,034863,043360,034759,095808,043650,035574,097717,046987,097767,047177
0000000118,0000007800,034206,044139,034101,095611,044431,034922,097512,047808,097566,047996
0000000119,0000007867,033569,044928,033464,095380,045223,034293,097274,048640,097331,048825
0000000120,0000007933,032943,045722,032837,095133,046019,033675,097019,049475,097080,049658
0000000121,0000008000,032328,046520,032221,094868,046819,033069,096748,050315,096813,050495
0000000122,0000008067,031734,047327,031626,094572,047628,032487,096445,051162,096514,051339
0000000123,0000008133,031152,048137,031044,094258,048440,031917,096125,052012,096198,052187
0000000124,0000008200,030582,048950,030472,093929,049256,031359,095790,052865,095867,053037
0000000125,0000008267,030035,049769,029925,093568,050077,030827,095423,053723,095505,053892
0000000126,0000008333,029501,050591,029390,093191,050900,030308,095041,054583,095127,054749
0000000127,0000008400,028978,051415,028867,092798,051726,029803,094643,055445,094734,055608
0000000128,0000008467,028481,052242,028369,092374,052555,029324,094215,056310,094310,056470
0000000129,0000008533,027997,053070,027884,091936,053386,028859,093771,057175,093872,057332
0000000130,0000008600,027526,053900,027413,091482,054217,028408,093313,058040,093419,058194
0000000131,0000008667,027082,054731,026968,090998,055049,027986,092826,058906,092937,059057
0000000132,0000008733,026651,055561,026537,090500,055882,027577,092325,059771,092441,059919
0000000133,0000008800,026234,056392,026119,089988,056714,027184,091809,060635,091930,060780
0000000134,0000008867,025844,057221,025729,089447,057545,026819,091266,061497,091393,061639
0000000135,0000008933,025469,058049,025353,088892,058375,026470,090709,062357,090841,062496
0000000136,0000009000,025108,058876,024992,088324,059203,026136,090138,063215,090277,063351
0000000137,0000009067,024776,059699,024660,087729,060028,025832,089542,064069,089686,064201
0000000138,0000009133,024458,060519,024342,087122,060850,025544,088933,064919,089083,065048
0000000139,0000009200,024156,061338,024039,086501,061670,025271,088311,065766,088467,065892
0000000140,0000009267,023883,062150,023766,085856,062483,025030,087665,066606,087827,066729
0000000141,0000009333,023625,062959,023508,085198,063294,024804,087007,067442,087175,067561
0000000142,0000009400,023382,063764,023265,084529,064100,024594,086337,068273,086511,068389
0000000143,0000009467,023170,064561,023053,083836,064898,024416,085645,069095,085825,069208
0000000144,0000009533,022973,065353,022856,083133,065692,024255,084942,069911,085129,070021
0000000145,0000009600,022792,066141,022675,082418,066480,024109,084229,070722,084421,070828
0000000146,0000009667,022642,066918,022525,081682,067259,023996,083494,071521,083694,071624
0000000147,0000009733,022507,067689,022390,080937,068031,023899,082750,072313,082956,072413
0000000148,0000009800,022388,068454,022271,080181,068797,023818,081997,073099,082209,073196
0000000149,0000009867,022301,069207,022184,079406,069551,023770,081224,073871,081443,073964
0000000150,0000009933,022229,069952,022113,078623,070297,023738,080444,074634,080669,074724
0000000151,0000010000,022173,070691,022057,077831,071037,023723,079654,075390,079886,075477
0000000152,0000010067,022149,071415,022033,077022,071762,023741,078848,076130,079087,076214
0000000153,0000010133,022141,072131,022025,076205,072479,023775,078035,076861,078281,076942
0000000154,0000010200,022148,072839,022033,075380,073188,023825,077214,077583,077467,077661
0000000155,0000010267,022188,073531,022073,074541,073880,023908,076380,078287,076639,078361
0000000156,0000010333,022243,074213,022129,073695,074562,024007,075539,078981,075805,079052
0000000157,0000010400,022314,074887,022200,072843,075236,024123,074691,079665,074964,079733
0000000158,0000010467,022416,075541,022303,071979,075891,024271,073833,080329,074112,080394
0000000159,0000010533,022535,076186,022422,071110,076537,024435,072969,080982,073255,081044
0000000160,0000010600,022668,076821,022556,070235,077172,024615,072099,081624,072392,081683
0000000161,0000010667,022834,077435,022722,069350,077786,024827,071221,082244,071521,082300
0000000162,0000010733,023014,078038,022904,068462,078390,025055,070339,082853,070646,082905
0000000163,0000010800,023211,078631,023101,067569,078983,025299,069453,083449,069766,083499
0000000164,0000010867,023437,079202,023328,066669,079553,025574,068561,084022,068881,084069
0000000165,0000010933,023679,079760,023571,065767,080112,025864,067665,084583,067992,084627
0000000166,0000011000,023937,080308,023829,064861,080660,026170,066768,085130,067101,085172
0000000167,0000011067,024224,080831,024117,063952,081183,026507,065866,085653,066206,085691
0000000168,0000011133,024526,081342,024420,063040,081694,026858,064963,086162,065309,086197
0000000169,0000011200,024843,081840,024738,062127,082192,027224,064058,086657,064412,086690
0000000170,0000011267,025189,082314,025085,061213,082665,027620,063152,087126,063512,087157
0000000171,0000011333,025549,082774,025446,060298,083125,028030,062246,087581,062613,087609
0000000172,0000011400,025924,083221,025822,059382,083572,028455,061340,088022,061713,088047
0000000173,0000011467,026327,083641,026226,058468,083992,028908,060435,088434,060814,088457
0000000174,0000011533,026743,084048,026643,057554,084398,029375,059531,088832,059917,088853
0000000175,0000011600,027174,084441,027075,056642,084790,029856,058629,089216,059021,089234
0000000176,0000011667,027631,084807,027533,055733,085155,030363,057730,089570,058128,089586
0000000177,0000011733,028102,085158,028005,054826,085506,030884,056834,089909,057238,089923
0000000178,0000011800,028585,085495,028490,053922,085842,031418,055940,090233,056350,090244
0000000179,0000011867,029094,085803,029000,053024,086149,031977,055052,090527,055469,090536
0000000180,0000011933,029616,086096,029523,052129,086442,032549,054169,090805,054591,090812
0000000181,0000012000,030150,086375,030058,051238,086719,033133,053289,091068,053717,091073
0000000182,0000012067,030708,086624,030618,050355,086968,033741,052417,091299,052851,091302
0000000183,0000012133,031278,086858,031189,049477,087201,034360,051551,091514,051991,091516
0000000184,0000012200,031860,087077,031772,048604,087419,034991,050690,091714,051135,091714
0000000185,0000012267,032464,087266,032378,047742,087606,035644,049840,091882,050290,091880
0000000186,0000012333,033079,087439,032994,046887,087778,036308,048996,092034,049452,092030
0000000187,0000012400,033705,087597,033621,046037,087935,036982,048158,092170,048620,092164
0000000188,0000012467,034351,087724,034269,045200,088061,037676,047335,092273,047801,092266
0000000189,0000012533,035008,087836,034927,044371,088171,038380,046518,092360,046989,092352
0000000190,0000012600,035674,087932,035595,043550,088266,039094,045709,092431,046185,092421
0000000191,0000012667,036359,087997,036281,042744,088330,039826,044916,092469,045397,092458
0000000192,0000012733,037053,088046,036977,041946,088378,040566,044131,092492,044617,092479
0000000193,0000012800,037757,088080,037682,041157,088410,041315,043355,092497,043845,092484
0000000194,0000012867,038477,088082,038403,040386,088411,042081,042597,092470,043092,092456
0000000195,0000012933,039205,088069,039133,039625,088396,042853,041849,092427,042348,092411
0000000196,0000013000,039941,088040,039871,038873,088365,043634,041110,092368,041613,092351
0000000197,0000013067,040692,087980,040623,038142,088303,044428,040392,092276,040899,092258
0000000198,0000013133,041450,087904,041382,037421,088226,045228,039684,092167,040195,092149
0000000199,0000013200,042214,087813,042149,036710,088133,046035,038987,092043,039502,092024
0000000200,0000013267,042992,087690,042927,036022,088008,046854,038313,091887,038830,091867
0000000201,0000013333,043775,087552,043712,035346,087869,047677,037649,091714,038171,091694
0000000202,0000013400,044564,087399,044503,034681,087714,048506,036998,091525,037523,091505
0000000203,0000013467,045363,087215,045304,034040,087528,049345,036371,091305,036899,091284
