DIgSILENT PowerFactory,20000410,2000
10,10A,00D
1,LC684-652A:Phase Voltage A/Terminal i,,,kV,0.00010000000,-6.099896,0.000000,22844,99998,1,1,P
2,LC684-652A:Phase Voltage C/Terminal i,,,kV,0.00010000000,-5.479836,0.000000,17698,99998,1,1,P
3,LC692-675:Phase Voltage A/Terminal i,,,kV,0.00010000000,-6.084147,0.000000,22550,99998,1,1,P
4,LC692-675:Phase Voltage B/Terminal i,,,kV,0.00010000000,-5.773928,0.000000,10211,99998,1,1,P
5,LC692-675:Phase Voltage C/Terminal i,,,kV,0.00010000000,-5.500788,0.000000,17961,99998,1,1,P
6,LOHL632-633:Phase Voltage A/Terminal i,,,kV,0.00010000000,-6.263901,0.000000,26245,99998,1,1,P
7,LOHL632-633:Phase Voltage B/Terminal i,,,kV,0.00010000000,-6.132240,0.000000,19001,99998,1,1,P
8,LOHL632-633:Phase Voltage C/Terminal i,,,kV,0.00010000000,-5.894988,0.000000,22288,99998,1,1,P
9,LOHL645-646:Phase Voltage B/Terminal i,,,kV,0.00010000000,-6.158487,0.000000,19541,99998,1,1,P
10,LOHL645-646:Phase Voltage C/Terminal i,,,kV,0.00010000000,-5.909831,0.000000,22552,99998,1,1,P
50
1
15000.000000,3001
11/11/2020,18:09:23.000000
11/11/2020,18:09:23.000000
ASCII
1.000000
0000000001,0000000000,087125,059242,087024,024746,059400,090659,028826,062419,029288,062510
0000000002,0000000067,087639,058417,087539,025149,058572,091156,029234,061557,029691,061650
0000000003,0000000133,088140,057590,088040,025568,057744,091639,029657,060693,030109,060789
0000000004,0000000200,088628,056762,088529,026002,056914,092108,030096,059828,030543,059927
0000000005,0000000267,089090,055932,088992,026466,056082,092550,030564,058962,031006,059064
0000000006,0000000333,089539,055102,089441,026944,055250,092977,031046,058097,031483,058202
0000000007,0000000400,089975,054272,089877,027437,054418,093390,031543,057232,031974,057340
0000000008,0000000467,090383,053441,090286,027959,053586,093774,032068,056368,032494,056479
0000000009,0000000533,090777,052612,090680,028495,052755,094143,032606,055506,033027,055620
0000000010,0000000600,091156,051784,091060,029045,051925,094497,033159,054645,033574,054763
0000000011,0000000667,091508,050958,091412,029622,051098,094821,033738,053788,034148,053909
0000000012,0000000733,091845,050135,091749,030213,050272,095130,034330,052934,034734,053058
0000000013,0000000800,092167,049313,092072,030816,049449,095423,034935,052083,035333,052210
0000000014,0000000867,092460,048497,092365,031445,048631,095686,035565,051238,035957,051368
0000000015,0000000933,092738,047683,092643,032086,047817,095933,036207,050397,036593,050531
0000000016,0000001000,093001,046873,092906,032740,047005,096164,036861,049560,037241,049697
0000000017,0000001067,093234,046071,093139,033417,046201,096363,037538,048731,037912,048871
0000000018,0000001133,093451,045273,093357,034105,045402,096546,038226,047908,038594,048051
0000000019,0000001200,093653,044479,093559,034805,044607,096713,038926,047090,039287,047236
0000000020,0000001267,093824,043694,093730,035527,043821,096848,039646,046283,040001,046433
0000000021,0000001333,093980,042916,093885,036259,043042,096967,040377,045482,040726,045635
0000000022,0000001400,094120,042143,094025,037001,042267,097069,041118,044687,041460,044844
0000000023,0000001467,094228,041381,094133,037763,041505,097139,041878,043906,042214,044066
0000000024,0000001533,094321,040626,094226,038535,040749,097193,042647,043132,042976,043295
0000000025,0000001600,094398,039878,094303,039315,040000,097230,043425,042366,043747,042532
0000000026,0000001667,094443,039144,094348,040113,039265,097234,044220,041615,044536,041784
0000000027,0000001733,094473,038418,094377,040920,038538,097222,045023,040872,045332,041045
0000000028,0000001800,094486,037699,094390,041734,037818,097194,045834,040138,046136,040314
0000000029,0000001867,094468,036996,094371,042564,037115,097132,046659,039422,046955,039601
0000000030,0000001933,094434,036302,094337,043400,036420,097055,047492,038715,047781,038897
0000000031,0000002000,094384,035616,094286,044244,035734,096961,048331,038018,048613,038203
0000000032,0000002067,094302,034949,094204,045100,035066,096835,049182,037340,049457,037529
0000000033,0000002133,094205,034291,094107,045963,034408,096692,050039,036673,050308,036865
0000000034,0000002200,094092,033643,093993,046831,033759,096533,050902,036016,051163,036211
0000000035,0000002267,093947,033015,093848,047709,033130,096342,051774,035381,052029,035579
0000000036,0000002333,093787,032397,093687,048592,032512,096135,052651,034758,052899,034958
0000000037,0000002400,093612,031790,093511,049479,031905,095913,053532,034145,053773,034349
0000000038,0000002467,093405,031204,093304,050374,031319,095658,054420,033556,054655,033763
0000000039,0000002533,093183,030630,093081,051273,030745,095389,055311,032980,055539,033189
0000000040,0000002600,092946,030067,092843,052175,030182,095103,056206,032415,056427,032627
0000000041,0000002667,092679,029528,092575,053082,029643,094787,057105,031876,057320,032091
0000000042,0000002733,092397,029001,092292,053991,029116,094456,058006,031349,058214,031567
0000000043,0000002800,092100,028486,091994,054902,028601,094109,058909,030836,059110,031056
0000000044,0000002867,091773,027996,091666,055815,028111,093733,059814,030349,060009,030572
0000000045,0000002933,091432,027518,091324,056730,027634,093342,060720,029876,060908,030101
0000000046,0000003000,091076,027054,090967,057645,027169,092937,061626,029416,061807,029644
0000000047,0000003067,090692,026615,090582,058560,026732,092502,062532,028985,062707,029216
0000000048,0000003133,090294,026190,090183,059474,026307,092054,063437,028567,063605,028801
0000000049,0000003200,089882,025779,089770,060388,025896,091592,064341,028164,064503,028400
0000000050,0000003267,089442,025395,089329,061299,025513,091102,065243,027791,065398,028029
0000000051,0000003333,088990,025025,088876,062209,025144,090599,066142,027432,066292,027672
0000000052,0000003400,088524,024670,088408,063116,024789,090083,067039,027088,067183,027330
0000000053,0000003467,088031,024342,087915,064019,024462,089540,067931,026774,068068,027019
0000000054,0000003533,087526,024030,087409,064918,024150,088985,068819,026475,068951,026722
0000000055,0000003600,087009,023731,086890,065814,023853,088418,069705,026192,069830,026441
0000000056,0000003667,086467,023462,086347,066702,023585,087825,070582,025940,070701,026191
0000000057,0000003733,085913,023208,085791,067586,023332,087222,071454,025703,071568,025956
0000000058,0000003800,085347,022969,085224,068466,023094,086606,072322,025482,072431,025737
0000000059,0000003867,084757,022761,084633,069335,022886,085968,073180,025293,073283,025550
0000000060,0000003933,084157,022567,084032,070199,022693,085318,074032,025120,074129,025379
0000000061,0000004000,083546,022388,083419,071057,022516,084658,074878,024963,074970,025223
0000000062,0000004067,082913,022241,082785,071902,022369,083977,075711,024838,075798,025100
0000000063,0000004133,082270,022108,082141,072741,022238,083286,076537,024729,076619,024993
0000000064,0000004200,081617,021992,081486,073572,022123,082585,077356,024637,077433,024901
0000000065,0000004267,080944,021906,080812,074389,022038,081865,078160,024577,078232,024843
0000000066,0000004333,080262,021836,080128,075198,021970,081137,078956,024533,079023,024800
0000000067,0000004400,079571,021781,079435,075998,021917,080399,079743,024505,079806,024774
0000000068,0000004467,078862,021758,078725,076781,021895,079644,080514,024510,080571,024780
0000000069,0000004533,078144,021750,078006,077555,021889,078882,081275,024532,081328,024803
0000000070,0000004600,077419,021758,077279,078320,021898,078112,082026,024570,082075,024842
0000000071,0000004667,076678,021798,076536,079065,021939,077327,082758,024640,082803,024913
0000000072,0000004733,075929,021853,075786,079800,021996,076535,083480,024727,083521,025000
0000000073,0000004800,075174,021923,075029,080525,022068,075736,084191,024829,084229,025104
0000000074,0000004867,074405,022025,074259,081228,022172,074925,084881,024964,084915,025240
0000000075,0000004933,073629,022142,073482,081920,022291,074109,085560,025116,085590,025392
0000000076,0000005000,072848,022275,072699,082601,022425,073287,086227,025283,086253,025559
0000000077,0000005067,072055,022438,071905,083258,022591,072454,086870,025482,086893,025759
0000000078,0000005133,071258,022617,071105,083902,022771,071618,087501,025697,087521,025974
0000000079,0000005200,070455,022811,070301,084535,022967,070776,088120,025928,088137,026205
0000000080,0000005267,069643,023036,069488,085142,023194,069928,088714,026190,088728,026468
0000000081,0000005333,068828,023275,068671,085736,023435,069075,089294,026467,089306,026745
0000000082,0000005400,068008,023529,067850,086317,023692,068220,089862,026760,089871,027038
0000000083,0000005467,067182,023813,067022,086870,023978,067359,090402,027084,090409,027362
0000000084,0000005533,066353,024112,066192,087410,024279,066497,090928,027422,090933,027700
0000000085,0000005600,065522,024425,065359,087936,024594,065632,091441,027776,091443,028053
0000000086,0000005667,064686,024767,064521,088433,024938,064765,091924,028159,091925,028436
0000000087,0000005733,063849,025124,063682,088916,025296,063896,092394,028556,092393,028833
0000000088,0000005800,063010,025494,062842,089384,025669,063027,092848,028968,092846,029245
0000000089,0000005867,062169,025892,061999,089822,026069,062158,093273,029409,093270,029685
0000000090,0000005933,061328,026304,061157,090244,026483,061289,093683,029863,093678,030138
0000000091,0000006000,060486,026729,060314,090652,026911,060420,094077,030331,094071,030606
0000000092,0000006067,059645,027181,059471,091028,027365,059553,094440,030826,094434,031100
0000000093,0000006133,058805,027646,058629,091388,027832,058689,094788,031335,094781,031608
0000000094,0000006200,057966,028123,057789,091732,028312,057825,095120,031857,095112,032129
0000000095,0000006267,057129,028626,056951,092044,028817,056967,095419,032404,095411,032675
0000000096,0000006333,056295,029142,056115,092340,029335,056111,095703,032964,095695,033234
0000000097,0000006400,055462,029669,055281,092620,029865,055258,095970,033536,095962,033805
0000000098,0000006467,054635,030221,054452,092866,030419,054412,096205,034133,096197,034400
0000000099,0000006533,053811,030784,053627,093096,030984,053570,096423,034740,096415,035007
0000000100,0000006600,052990,031358,052804,093309,031561,052733,096624,035360,096617,035625
0000000101,0000006667,052177,031955,051990,093489,032160,051904,096792,036002,096785,036266
0000000102,0000006733,051368,032562,051180,093651,032770,051081,096943,036655,096937,036917
0000000103,0000006800,050564,033180,050374,093797,033390,050264,097077,037318,097072,037578
0000000104,0000006867,049769,033819,049578,093908,034031,049458,097177,038002,097174,038261
0000000105,0000006933,048980,034467,048787,094003,034682,048658,097261,038696,097259,038953
0000000106,0000007000,048196,035125,048002,094080,035342,047865,097327,039399,097327,039654
0000000107,0000007067,047425,035802,047230,094122,036022,047086,097359,040121,097361,040374
0000000108,0000007133,046660,036488,046464,094148,036709,046314,097375,040851,097378,041103
0000000109,0000007200,045902,037182,045704,094156,037406,045550,097373,041591,097378,041840
0000000110,0000007267,045158,037893,044959,094130,038120,044802,097337,042347,097344,042594
0000000111,0000007333,044422,038612,044222,094086,038841,044063,097283,043110,097293,043355
0000000112,0000007400,043693,039339,043492,094025,039570,043332,097213,043882,097226,044124
0000000113,0000007467,042981,040080,042779,093930,040314,042620,097109,044667,097124,044908
0000000114,0000007533,042277,040828,042074,093818,041064,041917,096988,045459,097006,045697
0000000115,0000007600,041583,041583,041378,093688,041822,041224,096850,046258,096871,046494
0000000116,0000007667,040906,042351,040701,093525,042591,040551,096678,047068,096702,047302
0000000117,0000007733,040240,043124,040033,093345,043367,039889,096490,047884,096517,048116
0000000118,0000007800,039583,043903,039375,093147,044148,039238,096285,048706,096316,048935
0000000119,0000007867,038946,044692,038738,092917,044939,038608,096047,049537,096081,049763
0000000120,0000007933,038320,045486,038111,092669,045736,037991,095792,050373,095830,050596
0000000121,0000008000,037705,046285,037494,092405,046536,037385,095521,051213,095563,051433
0000000122,0000008067,037111,047091,036900,092108,047345,036802,095218,052060,095264,052278
0000000123,0000008133,036529,047901,036317,091795,048157,036232,094898,052910,094948,053125
0000000124,0000008200,035959,048715,035746,091466,048972,035675,094563,053763,094617,053975
0000000125,0000008267,035412,049534,035199,091104,049794,035143,094196,054621,094255,054831
0000000126,0000008333,034878,050356,034663,090727,050617,034624,093814,055481,093877,055688
0000000127,0000008400,034355,051179,034140,090335,051443,034118,093416,056343,093484,056547
0000000128,0000008467,033858,052007,033643,089911,052272,033640,092987,057207,093060,057408
0000000129,0000008533,033374,052835,033158,089472,053103,033175,092544,058072,092622,058270
0000000130,0000008600,032903,053665,032687,089018,053934,032724,092086,058938,092169,059133
0000000131,0000008667,032459,054495,032242,088535,054766,032301,091599,059803,091687,059995
0000000132,0000008733,032028,055326,031810,088037,055599,031893,091098,060668,091191,060857
0000000133,0000008800,031611,056156,031393,087524,056431,031499,090582,061533,090680,061718
0000000134,0000008867,031221,056985,031003,086983,057262,031135,090039,062395,090142,062577
0000000135,0000008933,030846,057813,030627,086429,058091,030786,089482,063255,089591,063434
0000000136,0000009000,030485,058640,030266,085861,058920,030452,088911,064113,089026,064289
0000000137,0000009067,030153,059463,029933,085266,059744,030148,088315,064966,088436,065139
0000000138,0000009133,029835,060284,029616,084658,060567,029860,087706,065817,087833,065986
0000000139,0000009200,029533,061102,029313,084038,061386,029587,087084,066664,087217,066830
0000000140,0000009267,029260,061915,029040,083392,062200,029345,086438,067504,086577,067667
0000000141,0000009333,029002,062723,028782,082735,063010,029120,085780,068339,085925,068499
0000000142,0000009400,028759,063529,028539,082065,063817,028910,085110,069171,085261,069328
0000000143,0000009467,028547,064325,028327,081373,064615,028732,084418,069993,084575,070146
0000000144,0000009533,028350,065118,028130,080669,065409,028570,083715,070809,083879,070959
0000000145,0000009600,028169,065905,027948,079955,066197,028425,083002,071620,083171,071767
0000000146,0000009667,028019,066682,027798,079219,066975,028311,082267,072419,082444,072562
0000000147,0000009733,027884,067453,027664,078473,067748,028214,081523,073211,081706,073351
0000000148,0000009800,027765,068219,027545,077718,068514,028134,080770,073997,080959,074134
0000000149,0000009867,027678,068971,027458,076943,069268,028086,079997,074768,080193,074902
0000000150,0000009933,027606,069717,027386,076160,070014,028054,079217,075532,079419,075663
0000000151,0000010000,027550,070456,027331,075367,070754,028039,078427,076288,078636,076416
0000000152,0000010067,027526,071180,027307,074558,071479,028056,077621,077028,077837,077152
0000000153,0000010133,027518,071896,027299,073741,072196,028090,076808,077759,077031,077880
0000000154,0000010200,027525,072604,027307,072917,072904,028141,075987,078481,076217,078599
0000000155,0000010267,027565,073295,027347,072078,073596,028224,075153,079185,075389,079300
0000000156,0000010333,027620,073978,027402,071232,074279,028323,074312,079879,074554,079990
0000000157,0000010400,027691,074651,027474,070380,074953,028438,073464,080563,073714,080672
0000000158,0000010467,027793,075306,027577,069516,075608,028586,072605,081227,072862,081332
0000000159,0000010533,027911,075951,027696,068646,076253,028750,071741,081880,072005,081982
0000000160,0000010600,028045,076585,027830,067771,076889,028931,070872,082522,071142,082621
0000000161,0000010667,028211,077200,027996,066887,077503,029143,069994,083142,070271,083239
0000000162,0000010733,028391,077803,028177,065998,078107,029371,069112,083750,069396,083844
0000000163,0000010800,028587,078396,028374,065105,078700,029614,068226,084347,068516,084438
0000000164,0000010867,028814,078966,028602,064206,079270,029889,067333,084920,067631,085008
0000000165,0000010933,029056,079525,028845,063303,079829,030180,066438,085480,066742,085565
0000000166,0000011000,029314,080072,029103,062398,080376,030486,065540,086028,065851,086110
0000000167,0000011067,029601,080595,029391,061488,080900,030822,064639,086550,064956,086630
0000000168,0000011133,029903,081106,029694,060577,081410,031174,063735,087059,064059,087136
0000000169,0000011200,030220,081605,030012,059664,081909,031540,062831,087555,063161,087629
0000000170,0000011267,030566,082078,030359,058749,082382,031936,061925,088024,062262,088095
0000000171,0000011333,030926,082538,030720,057834,082842,032346,061019,088479,061363,088547
0000000172,0000011400,031301,082986,031096,056919,083288,032771,060113,088920,060463,088986
0000000173,0000011467,031704,083406,031499,056004,083708,033224,059208,089332,059564,089396
0000000174,0000011533,032120,083813,031917,055091,084115,033691,058304,089730,058667,089791
0000000175,0000011600,032551,084206,032349,054179,084507,034171,057402,090114,057771,090173
0000000176,0000011667,033008,084571,032807,053270,084872,034679,056503,090468,056878,090524
0000000177,0000011733,033478,084922,033279,052363,085222,035200,055607,090807,055988,090861
0000000178,0000011800,033962,085259,033763,051459,085559,035733,054713,091131,055100,091183
0000000179,0000011867,034471,085567,034274,050560,085866,036293,053825,091425,054219,091474
0000000180,0000011933,034993,085861,034797,049665,086158,036864,052941,091703,053341,091750
0000000181,0000012000,035527,086139,035332,048774,086436,037449,052061,091965,052467,092011
0000000182,0000012067,036085,086388,035892,047892,086684,038056,051190,092197,051601,092240
0000000183,0000012133,036655,086622,036463,047014,086917,038676,050324,092412,050741,092454
0000000184,0000012200,037237,086841,037046,046141,087135,039307,049463,092612,049885,092652
0000000185,0000012267,037841,087030,037651,045279,087323,039960,048613,092780,049040,092818
0000000186,0000012333,038456,087203,038268,044423,087495,040623,047769,092932,048202,092968
0000000187,0000012400,039082,087361,038895,043573,087652,041298,046931,093067,047370,093102
0000000188,0000012467,039728,087489,039543,042737,087778,041992,046107,093171,046551,093204
0000000189,0000012533,040385,087600,040200,041908,087888,042696,045291,093258,045739,093290
0000000190,0000012600,041051,087696,040868,041086,087983,043410,044482,093329,044935,093360
0000000191,0000012667,041736,087761,041555,040280,088047,044142,043689,093367,044147,093397
0000000192,0000012733,042430,087811,042251,039483,088094,044882,042904,093389,043367,093417
0000000193,0000012800,043134,087844,042955,038694,088127,045631,042128,093395,042595,093422
0000000194,0000012867,043854,087847,043677,037923,088127,046396,041370,093368,041841,093394
0000000195,0000012933,044582,087834,044407,037162,088113,047169,040622,093325,041097,093350
0000000196,0000013000,045318,087805,045144,036410,088082,047949,039883,093265,040363,093289
0000000197,0000013067,046069,087744,045897,035678,088020,048743,039165,093173,039649,093197
0000000198,0000013133,046827,087669,046656,034957,087943,049544,038457,093065,038945,093088
0000000199,0000013200,047591,087577,047422,034247,087850,050351,037760,092941,038252,092962
0000000200,0000013267,048369,087455,048201,033559,087725,051169,037085,092784,037580,092805
0000000201,0000013333,049152,087317,048986,032882,087586,051993,036422,092612,036921,092632
0000000202,0000013400,049941,087164,049777,032217,087430,052822,035771,092423,036273,092443
0000000203,0000013467,050740,086980,050578,031577,087245,053660,035144,092203,035649,092222
