DIgSILENT PowerFactory,20000410,2000
10,10A,00D
1,LC684-652A:Phase Voltage A/Terminal i,,,kV,0.00010000000,-6.115651,0.000000,23368,99998,1,1,P
2,LC684-652A:Phase Voltage C/Terminal i,,,kV,0.00010000000,-5.580143,0.000000,18944,99998,1,1,P
3,LC692-675:Phase Voltage A/Terminal i,,,kV,0.00010000000,-6.097675,0.000000,23073,99998,1,1,P
4,LC692-675:Phase Voltage B/Terminal i,,,kV,0.00010000000,-5.803493,0.000000,11309,99998,1,1,P
5,LC692-675:Phase Voltage C/Terminal i,,,kV,0.00010000000,-5.596946,0.000000,19161,99998,1,1,P
6,LOHL632-633:Phase Voltage A/Terminal i,,,kV,0.00010000000,-6.277515,0.000000,26461,99998,1,1,P
7,LOHL632-633:Phase Voltage B/Terminal i,,,kV,0.00010000000,-6.146193,0.000000,19625,99998,1,1,P
8,LOHL632-633:Phase Voltage C/Terminal i,,,kV,0.00010000000,-5.958500,0.000000,23032,99998,1,1,P
9,LOHL645-646:Phase Voltage B/Terminal i,,,kV,0.00010000000,-6.172435,0.000000,20162,99998,1,1,P
10,LOHL645-646:Phase Voltage C/Terminal i,,,kV,0.00010000000,-5.973273,0.000000,23295,99998,1,1,P
50
1
15000.000000,3001
11/11/2020,18:10:01.000000
11/11/2020,18:10:01.000000
ASCII
1.000000
0000000001,0000000000,087283,060245,087159,025042,060361,090795,028965,063054,029427,063144
0000000002,0000000067,087796,059420,087674,025445,059534,091292,029374,062192,029831,062284
0000000003,0000000133,088298,058593,088176,025863,058706,091775,029797,061328,030249,061423
0000000004,0000000200,088786,057765,088665,026297,057876,092244,030235,060463,030682,060562
0000000005,0000000267,089248,056936,089127,026761,057044,092686,030703,059597,031145,059699
0000000006,0000000333,089697,056105,089577,027240,056212,093113,031185,058732,031622,058836
0000000007,0000000400,090132,055275,090012,027733,055379,093526,031682,057867,032114,057974
0000000008,0000000467,090540,054445,090421,028255,054547,093910,032207,057003,032634,057114
0000000009,0000000533,090934,053615,090815,028791,053716,094279,032746,056141,033167,056255
0000000010,0000000600,091314,052787,091196,029341,052886,094633,033298,055280,033714,055397
0000000011,0000000667,091666,051961,091547,029918,052059,094957,033877,054423,034287,054544
0000000012,0000000733,092002,051138,091885,030508,051234,095266,034469,053569,034873,053693
0000000013,0000000800,092325,050316,092207,031112,050411,095560,035074,052718,035472,052845
0000000014,0000000867,092618,049500,092500,031741,049593,095822,035704,051873,036096,052003
0000000015,0000000933,092896,048686,092779,032382,048778,096069,036346,051032,036732,051165
0000000016,0000001000,093159,047876,093042,033035,047967,096300,037000,050195,037380,050331
0000000017,0000001067,093391,047074,093274,033713,047163,096499,037677,049366,038051,049506
0000000018,0000001133,093609,046276,093492,034401,046363,096682,038366,048543,038733,048686
0000000019,0000001200,093811,045482,093694,035101,045568,096849,039065,047725,039427,047871
0000000020,0000001267,093982,044698,093865,035823,044783,096984,039786,046918,040141,047067
0000000021,0000001333,094137,043919,094020,036555,044003,097103,040517,046117,040865,046269
0000000022,0000001400,094277,043146,094160,037297,043229,097206,041257,045322,041600,045478
0000000023,0000001467,094386,042384,094269,038059,042466,097275,042017,044541,042353,044700
0000000024,0000001533,094478,041629,094361,038830,041711,097329,042786,043767,043115,043929
0000000025,0000001600,094555,040881,094438,039611,040962,097366,043564,043001,043887,043166
0000000026,0000001667,094601,040147,094483,040409,040227,097370,044359,042250,044675,042419
0000000027,0000001733,094630,039421,094512,041215,039499,097358,045162,041507,045472,041679
0000000028,0000001800,094644,038702,094525,042030,038780,097330,045973,040773,046276,040948
0000000029,0000001867,094626,037999,094507,042859,038076,097269,046799,040057,047095,040235
0000000030,0000001933,094591,037305,094472,043696,037381,097191,047631,039350,047920,039532
0000000031,0000002000,094542,036619,094422,044540,036695,097097,048470,038653,048752,038837
0000000032,0000002067,094460,035952,094340,045396,036027,096971,049322,037975,049597,038163
0000000033,0000002133,094363,035294,094242,046258,035369,096828,050179,037308,050447,037499
0000000034,0000002200,094250,034646,094128,047126,034721,096669,051041,036651,051303,036845
0000000035,0000002267,094105,034018,093983,048005,034092,096478,051913,036016,052168,036213
0000000036,0000002333,093945,033400,093822,048887,033474,096272,052790,035393,053038,035593
0000000037,0000002400,093769,032793,093646,049775,032867,096049,053671,034780,053912,034983
0000000038,0000002467,093563,032207,093439,050670,032281,095795,054560,034191,054794,034397
0000000039,0000002533,093341,031633,093216,051568,031707,095525,055451,033615,055679,033823
0000000040,0000002600,093104,031071,092978,052470,031144,095239,056345,033050,056566,033262
0000000041,0000002667,092837,030531,092710,053377,030605,094923,057245,032511,057459,032725
0000000042,0000002733,092554,030004,092427,054286,030077,094592,058146,031984,058353,032201
0000000043,0000002800,092257,029489,092129,055197,029562,094245,059049,031471,059250,031691
0000000044,0000002867,091930,028999,091801,056111,029072,093869,059954,030984,060148,031206
0000000045,0000002933,091589,028521,091459,057025,028595,093478,060859,030511,061047,030736
0000000046,0000003000,091234,028057,091103,057940,028131,093073,061766,030051,061947,030279
0000000047,0000003067,090849,027618,090717,058855,027693,092638,062671,029620,062846,029850
0000000048,0000003133,090451,027194,090318,059770,027269,092190,063576,029203,063745,029435
0000000049,0000003200,090039,026782,089905,060684,026858,091728,064481,028800,064643,029035
0000000050,0000003267,089600,026398,089465,061595,026474,091238,065382,028426,065538,028663
0000000051,0000003333,089147,026028,089011,062504,026105,090735,066281,028067,066431,028307
0000000052,0000003400,088681,025673,088544,063412,025750,090219,067179,027723,067322,027965
0000000053,0000003467,088189,025345,088050,064314,025424,089676,068070,027409,068208,027653
0000000054,0000003533,087684,025033,087544,065214,025112,089121,068959,027110,069090,027357
0000000055,0000003600,087166,024734,087025,066110,024814,088554,069844,026827,069970,027076
0000000056,0000003667,086624,024465,086482,066998,024546,087962,070721,026575,070841,026825
0000000057,0000003733,086070,024212,085927,067882,024293,087358,071594,026338,071708,026591
0000000058,0000003800,085504,023973,085359,068762,024055,086742,072462,026118,072570,026372
0000000059,0000003867,084915,023764,084769,069631,023847,086104,073319,025928,073422,026185
0000000060,0000003933,084315,023570,084167,070495,023655,085455,074171,025755,074268,026013
0000000061,0000004000,083703,023392,083554,071353,023477,084794,075017,025598,075109,025858
0000000062,0000004067,083071,023244,082920,072198,023331,084113,075850,025473,075937,025734
0000000063,0000004133,082428,023112,082276,073037,023200,083422,076676,025364,076758,025627
0000000064,0000004200,081774,022995,081621,073868,023084,082721,077496,025272,077572,025536
0000000065,0000004267,081102,022909,080947,074685,023000,082002,078300,025212,078371,025477
0000000066,0000004333,080420,022839,080264,075493,022931,081273,079095,025168,079162,025435
0000000067,0000004400,079728,022784,079571,076294,022878,080535,079883,025140,079945,025409
0000000068,0000004467,079019,022761,078860,077077,022856,079781,080653,025146,080711,025415
0000000069,0000004533,078302,022753,078141,077851,022850,079018,081414,025167,081467,025437
0000000070,0000004600,077576,022761,077414,078616,022860,078248,082166,025205,082215,025476
0000000071,0000004667,076835,022801,076672,079361,022901,077463,082898,025275,082943,025547
0000000072,0000004733,076087,022856,075922,080096,022958,076671,083620,025362,083661,025635
0000000073,0000004800,075331,022926,075165,080821,023030,075872,084331,025464,084368,025738
0000000074,0000004867,074562,023028,074394,081524,023133,075062,085021,025600,085054,025874
0000000075,0000004933,073787,023145,073617,082216,023252,074245,085699,025751,085729,026026
0000000076,0000005000,073005,023278,072834,082896,023387,073423,086366,025918,086393,026194
0000000077,0000005067,072213,023441,072040,083553,023552,072591,087010,026117,087033,026393
0000000078,0000005133,071415,023620,071241,084198,023733,071754,087641,026332,087661,026609
0000000079,0000005200,070612,023814,070436,084831,023929,070913,088260,026563,088277,026840
0000000080,0000005267,069801,024039,069623,085438,024155,070064,088853,026825,088868,027102
0000000081,0000005333,068985,024278,068806,086032,024397,069212,089434,027102,089445,027380
0000000082,0000005400,068166,024533,067985,086612,024653,068356,090001,027395,090010,027673
0000000083,0000005467,067340,024817,067157,087166,024939,067496,090541,027719,090548,027996
0000000084,0000005533,066511,025115,066327,087706,025240,066633,091068,028057,091072,028334
0000000085,0000005600,065679,025428,065494,088232,025555,065768,091580,028411,091583,028688
0000000086,0000005667,064844,025770,064656,088729,025900,064901,092064,028794,092065,029070
0000000087,0000005733,064006,026127,063818,089211,026258,064032,092533,029191,092533,029468
0000000088,0000005800,063167,026497,062977,089679,026630,063163,092988,029603,092986,029879
0000000089,0000005867,062326,026895,062135,090117,027031,062294,093413,030044,093409,030319
0000000090,0000005933,061485,027307,061292,090540,027445,061425,093822,030498,093818,030773
0000000091,0000006000,060644,027732,060449,090947,027872,060556,094217,030966,094211,031240
0000000092,0000006067,059803,028184,059606,091323,028326,059690,094580,031462,094573,031735
0000000093,0000006133,058963,028649,058765,091684,028794,058825,094927,031970,094920,032242
0000000094,0000006200,058123,029126,057924,092028,029274,057962,095259,032492,095251,032763
0000000095,0000006267,057287,029630,057086,092340,029779,057103,095559,033039,095551,033310
0000000096,0000006333,056452,030145,056250,092636,030297,056247,095842,033599,095834,033868
0000000097,0000006400,055620,030673,055416,092916,030827,055394,096110,034171,096101,034440
0000000098,0000006467,054793,031224,054587,093162,031381,054548,096344,034768,096336,035035
0000000099,0000006533,053969,031787,053762,093392,031946,053707,096562,035376,096554,035641
0000000100,0000006600,053148,032361,052940,093605,032523,052869,096763,035995,096756,036260
0000000101,0000006667,052335,032958,052125,093785,033122,052041,096931,036637,096925,036900
0000000102,0000006733,051526,033565,051315,093947,033732,051218,097082,037290,097077,037551
0000000103,0000006800,050721,034184,050509,094093,034352,050400,097217,037953,097212,038213
0000000104,0000006867,049927,034822,049713,094204,034993,049594,097317,038637,097314,038895
0000000105,0000006933,049138,035470,048923,094298,035644,048794,097400,039331,097398,039587
0000000106,0000007000,048354,036128,048138,094375,036304,048001,097467,040034,097466,040289
0000000107,0000007067,047582,036805,047365,094418,036983,047222,097499,040756,097500,041009
0000000108,0000007133,046818,037491,046599,094443,037671,046450,097514,041487,097517,041737
0000000109,0000007200,046059,038185,045839,094452,038368,045686,097512,042226,097517,042475
0000000110,0000007267,045315,038896,045094,094425,039081,044938,097476,042982,097483,043228
0000000111,0000007333,044579,039615,044357,094382,039803,044199,097423,043745,097433,043990
0000000112,0000007400,043851,040342,043627,094321,040532,043468,097353,044517,097365,044759
0000000113,0000007467,043138,041083,042914,094226,041275,042756,097249,045302,097264,045542
0000000114,0000007533,042435,041832,042209,094114,042026,042053,097128,046094,097145,046332
0000000115,0000007600,041740,042587,041513,093984,042783,041360,096990,046893,097010,047128
0000000116,0000007667,041064,043354,040836,093821,043553,040688,096818,047703,096842,047936
0000000117,0000007733,040397,044127,040168,093640,044328,040025,096630,048520,096657,048750
0000000118,0000007800,039740,044906,039510,093443,045110,039374,096424,049341,096455,049569
0000000119,0000007867,039104,045696,038873,093212,045901,038745,096186,050172,096220,050398
0000000120,0000007933,038478,046489,038246,092965,046697,038127,095932,051008,095970,051231
0000000121,0000008000,037862,047288,037630,092701,047498,037521,095661,051848,095702,052068
0000000122,0000008067,037269,048094,037035,092404,048306,036938,095357,052695,095403,052912
0000000123,0000008133,036687,048904,036453,092091,049118,036368,095038,053545,095088,053759
0000000124,0000008200,036116,049718,035881,091761,049934,035811,094702,054398,094757,054610
0000000125,0000008267,035570,050537,035334,091400,050755,035279,094336,055256,094394,055465
0000000126,0000008333,035035,051359,034799,091023,051579,034760,093953,056116,094016,056322
0000000127,0000008400,034513,052183,034276,090630,052405,034254,093555,056978,093623,057181
0000000128,0000008467,034016,053010,033778,090207,053234,033776,093127,057842,093200,058043
0000000129,0000008533,033532,053838,033293,089768,054064,033311,092684,058707,092761,058904
0000000130,0000008600,033061,054668,032822,089314,054895,032860,092226,059573,092308,059767
0000000131,0000008667,032616,055498,032377,088830,055728,032437,091739,060439,091826,060630
0000000132,0000008733,032185,056329,031946,088332,056560,032029,091237,061304,091330,061491
0000000133,0000008800,031768,057159,031528,087820,057392,031635,090721,062168,090820,062353
0000000134,0000008867,031379,057989,031138,087279,058223,031271,090178,063030,090282,063211
0000000135,0000008933,031004,058817,030762,086725,059053,030922,089621,063890,089731,064068
0000000136,0000009000,030643,059643,030401,086156,059881,030588,089051,064748,089166,064923
0000000137,0000009067,030310,060466,030069,085562,060706,030284,088454,065601,088575,065774
0000000138,0000009133,029993,061287,029751,084954,061528,029996,087845,066452,087972,066621
0000000139,0000009200,029690,062105,029448,084333,062348,029723,087224,067299,087356,067465
0000000140,0000009267,029417,062918,029175,083688,063162,029482,086577,068139,086716,068301
0000000141,0000009333,029159,063726,028917,083030,063972,029256,085920,068975,086064,069134
0000000142,0000009400,028917,064532,028674,082361,064778,029046,085250,069806,085401,069962
0000000143,0000009467,028705,065329,028462,081668,065577,028868,084558,070628,084715,070781
0000000144,0000009533,028508,066121,028265,080965,066370,028706,083855,071444,084018,071594
0000000145,0000009600,028326,066908,028084,080250,067159,028561,083141,072255,083311,072401
0000000146,0000009667,028176,067685,027934,079515,067937,028447,082407,073054,082583,073197
0000000147,0000009733,028041,068456,027799,078769,068709,028350,081663,073846,081845,073986
0000000148,0000009800,027923,069222,027680,078013,069476,028270,080909,074632,081098,074768
0000000149,0000009867,027835,069974,027593,077239,070229,028222,080137,075403,080333,075537
0000000150,0000009933,027763,070720,027522,076455,070976,028190,079356,076167,079558,076297
0000000151,0000010000,027708,071459,027466,075663,071716,028175,078567,076923,078776,077050
0000000152,0000010067,027683,072183,027442,074854,072440,028192,077761,077663,077977,077787
0000000153,0000010133,027675,072899,027434,074037,073157,028226,076948,078394,077170,078514
0000000154,0000010200,027683,073607,027442,073212,073866,028277,076127,079116,076356,079233
0000000155,0000010267,027722,074298,027482,072373,074558,028360,075292,079820,075528,079934
0000000156,0000010333,027777,074981,027538,071528,075241,028459,074451,080514,074694,080625
0000000157,0000010400,027848,075654,027609,070675,075915,028575,073604,081198,073853,081306
0000000158,0000010467,027951,076309,027712,069811,076570,028723,072745,081862,073001,081967
0000000159,0000010533,028069,076954,027831,068942,077215,028887,071881,082515,072144,082617
0000000160,0000010600,028203,077588,027965,068067,077850,029067,071012,083157,071282,083256
0000000161,0000010667,028368,078203,028131,067182,078465,029279,070134,083777,070410,083873
0000000162,0000010733,028549,078806,028313,066294,079069,029507,069251,084386,069535,084478
0000000163,0000010800,028745,079399,028510,065401,079661,029751,068366,084982,068656,085072
0000000164,0000010867,028972,079969,028737,064501,080232,030026,067473,085555,067770,085642
0000000165,0000010933,029214,080528,028980,063599,080791,030316,066578,086115,066882,086199
0000000166,0000011000,029471,081075,029238,062694,081338,030622,065680,086663,065990,086744
0000000167,0000011067,029758,081599,029526,061784,081861,030958,064778,087185,065095,087264
0000000168,0000011133,030061,082110,029829,060872,082372,031310,063875,087694,064199,087770
0000000169,0000011200,030377,082608,030147,059960,082870,031676,062970,088190,063301,088263
0000000170,0000011267,030723,083081,030494,059045,083343,032072,062064,088659,062401,088729
0000000171,0000011333,031084,083541,030855,058130,083803,032482,061158,089114,061502,089182
0000000172,0000011400,031458,083989,031231,057215,084250,032907,060252,089555,060602,089620
0000000173,0000011467,031861,084409,031635,056300,084670,033360,059347,089967,059704,090030
0000000174,0000011533,032278,084816,032052,055387,085076,033827,058444,090365,058806,090426
0000000175,0000011600,032708,085209,032484,054474,085469,034307,057541,090749,057910,090807
0000000176,0000011667,033166,085574,032942,053565,085834,034815,056642,091103,057018,091159
0000000177,0000011733,033636,085925,033414,052659,086184,035336,055746,091442,056127,091496
0000000178,0000011800,034120,086262,033899,051754,086520,035870,054852,091766,055240,091817
0000000179,0000011867,034629,086570,034409,050856,086827,036429,053965,092060,054358,092109
0000000180,0000011933,035151,086864,034932,049961,087120,037001,053081,092338,053480,092385
0000000181,0000012000,035685,087142,035467,049070,087398,037585,052201,092600,052606,092645
0000000182,0000012067,036243,087392,036027,048187,087646,038193,051330,092832,051741,092875
0000000183,0000012133,036813,087626,036598,047309,087879,038812,050463,093047,050880,093089
0000000184,0000012200,037394,087845,037181,046437,088097,039443,049602,093247,050024,093286
0000000185,0000012267,037998,088033,037787,045575,088285,040096,048752,093415,049180,093453
0000000186,0000012333,038613,088207,038403,044719,088457,040760,047908,093567,048341,093603
0000000187,0000012400,039239,088365,039030,043869,088614,041434,047071,093702,047509,093737
0000000188,0000012467,039886,088492,039678,043033,088739,042128,046247,093806,046690,093839
0000000189,0000012533,040542,088603,040336,042204,088850,042832,045430,093893,045879,093924
0000000190,0000012600,041208,088700,041004,041382,088945,043546,044621,093964,045074,093994
0000000191,0000012667,041894,088765,041690,040576,089008,044278,043828,094002,044286,094031
0000000192,0000012733,042588,088814,042386,039779,089056,045018,043043,094024,043506,094052
0000000193,0000012800,043291,088848,043091,038990,089088,045767,042267,094030,042735,094056
0000000194,0000012867,044011,088850,043812,038219,089089,046532,041510,094003,041981,094028
0000000195,0000012933,044739,088837,044542,037457,089074,047305,040761,093960,041237,093984
0000000196,0000013000,045475,088808,045280,036705,089044,048085,040023,093901,040502,093924
0000000197,0000013067,046226,088748,046032,035974,088982,048879,039304,093809,039788,093831
0000000198,0000013133,046984,088672,046791,035253,088904,049680,038597,093700,039084,093722
0000000199,0000013200,047749,088580,047558,034542,088811,050487,037900,093576,038391,093597
0000000200,0000013267,048526,088458,048336,033854,088687,051305,037225,093419,037720,093440
0000000201,0000013333,049309,088320,049121,033178,088547,052129,036562,093247,037060,093267
0000000202,0000013400,050098,088167,049912,032513,088392,052958,035910,093058,036412,093078
0000000203,0000013467,050898,087983,050713,031872,088206,053797,035283,092838,035788,092857
