DIgSILENT PowerFactory,20000410,2000
10,10A,00D
1,LC684-652A:Phase Voltage A/Terminal i,,,kV,0.00010000000,-6.047887,0.000000,21078,99998,1,1,P
2,LC684-652A:Phase Voltage C/Terminal i,,,kV,0.00010000000,-5.325290,0.000000,17339,99998,1,1,P
3,LC692-675:Phase Voltage A/Terminal i,,,kV,0.00010000000,-6.105034,0.000000,22173,99998,1,1,P
4,LC692-675:Phase Voltage B/Terminal i,,,kV,0.00010000000,-5.851718,0.000000,10039,99998,1,1,P
5,LC692-675:Phase Voltage C/Terminal i,,,kV,0.00010000000,-5.370307,0.000000,17852,99998,1,1,P
6,LOHL632-633:Phase Voltage A/Terminal i,,,kV,0.00010000000,-6.316975,0.000000,26447,99998,1,1,P
7,LOHL632-633:Phase Voltage B/Terminal i,,,kV,0.00010000000,-6.156068,0.000000,18388,99998,1,1,P
8,LOHL632-633:Phase Voltage C/Terminal i,,,kV,0.00010000000,-5.756926,0.000000,21934,99998,1,1,P
9,LOHL645-646:Phase Voltage B/Terminal i,,,kV,0.00010000000,-6.182441,0.000000,18944,99998,1,1,P
10,LOHL645-646:Phase Voltage C/Terminal i,,,kV,0.00010000000,-5.771768,0.000000,22191,99998,1,1,P
50
1
15000.000000,3001
11/11/2020,18:42:08.000000
11/11/2020,18:42:08.000000
ASCII
1.000000
0000000001,0000000000,086605,057697,087233,025524,058095,091190,029064,061039,029527,061129
0000000002,0000000067,087119,056872,087748,025927,057268,091686,029472,060176,029931,060269
0000000003,0000000133,087620,056045,088249,026346,056439,092169,029896,059312,030349,059408
0000000004,0000000200,088108,055217,088738,026780,055609,092639,030334,058447,030782,058546
0000000005,0000000267,088570,054387,089201,027244,054777,093080,030802,057582,031245,057684
0000000006,0000000333,089019,053557,089650,027722,053945,093508,031284,056716,031722,056821
0000000007,0000000400,089454,052726,090086,028215,053113,093921,031781,055851,032214,055959
0000000008,0000000467,089863,051896,090495,028737,052281,094304,032306,054987,032734,055099
0000000009,0000000533,090257,051067,090889,029273,051450,094674,032845,054125,033267,054240
0000000010,0000000600,090636,050238,091269,029823,050620,095028,033397,053264,033814,053382
0000000011,0000000667,090988,049413,091621,030400,049793,095352,033976,052408,034387,052529
0000000012,0000000733,091325,048589,091958,030991,048968,095661,034568,051554,034973,051678
0000000013,0000000800,091647,047768,092281,031594,048145,095954,035173,050702,035573,050829
0000000014,0000000867,091940,046951,092574,032223,047327,096217,035803,049857,036197,049988
0000000015,0000000933,092218,046138,092852,032864,046512,096463,036445,049016,036833,049150
0000000016,0000001000,092481,045328,093115,033518,045701,096694,037099,048179,037480,048316
0000000017,0000001067,092714,044525,093348,034195,044897,096894,037776,047351,038151,047491
0000000018,0000001133,092931,043727,093565,034883,044097,097077,038465,046527,038834,046671
0000000019,0000001200,093133,042933,093767,035583,043302,097244,039164,045709,039527,045856
0000000020,0000001267,093304,042149,093939,036305,042517,097379,039885,044902,040241,045052
0000000021,0000001333,093460,041370,094094,037037,041737,097498,040615,044101,040965,044254
0000000022,0000001400,093599,040597,094234,037779,040962,097600,041356,043307,041700,043463
0000000023,0000001467,093708,039836,094342,038541,040200,097670,042116,042525,042453,042685
0000000024,0000001533,093801,039081,094435,039313,039444,097724,042885,041752,043216,041914
0000000025,0000001600,093878,038333,094511,040093,038695,097761,043663,040985,043987,041151
0000000026,0000001667,093923,037599,094556,040891,037960,097765,044458,040234,044775,040404
0000000027,0000001733,093953,036872,094586,041698,037233,097753,045261,039492,045572,039664
0000000028,0000001800,093966,036153,094599,042512,036513,097724,046072,038758,046376,038933
0000000029,0000001867,093948,035450,094580,043342,035810,097663,046898,038041,047195,038220
0000000030,0000001933,093914,034756,094546,044178,035115,097586,047730,037335,048020,037517
0000000031,0000002000,093864,034071,094495,045022,034429,097492,048569,036637,048852,036822
0000000032,0000002067,093782,033403,094413,045878,033761,097365,049420,035960,049697,036148
0000000033,0000002133,093685,032746,094315,046740,033103,097223,050277,035293,050547,035484
0000000034,0000002200,093572,032097,094202,047608,032454,097064,051140,034636,051403,034830
0000000035,0000002267,093427,031469,094057,048487,031826,096873,052012,034001,052268,034198
0000000036,0000002333,093267,030852,093896,049370,031208,096666,052889,033377,053138,033577
0000000037,0000002400,093092,030244,093720,050257,030600,096443,053770,032765,054013,032968
0000000038,0000002467,092885,029659,093512,051152,030015,096189,054658,032176,054894,032382
0000000039,0000002533,092663,029085,093290,052051,029440,095919,055550,031599,055779,031808
0000000040,0000002600,092426,028522,093052,052952,028878,095634,056444,031034,056667,031247
0000000041,0000002667,092159,027983,092784,053860,028338,095318,057343,030495,057559,030710
0000000042,0000002733,091877,027455,092501,054769,027811,094986,058245,029969,058454,030186
0000000043,0000002800,091579,026940,092202,055679,027296,094640,059147,029455,059350,029675
0000000044,0000002867,091253,026450,091875,056593,026806,094264,060053,028968,060248,029191
0000000045,0000002933,090912,025973,091533,057507,026329,093873,060958,028495,061147,028721
0000000046,0000003000,090556,025508,091176,058422,025865,093467,061864,028036,062047,028264
0000000047,0000003067,090172,025070,090791,059338,025427,093033,062770,027604,062946,027835
0000000048,0000003133,089774,024645,090392,060252,025002,092585,063675,027187,063845,027420
0000000049,0000003200,089362,024234,089979,061166,024591,092123,064580,026784,064743,027020
0000000050,0000003267,088922,023850,089538,062077,024208,091633,065481,026410,065638,026648
0000000051,0000003333,088470,023480,089084,062987,023839,091130,066380,026051,066531,026292
0000000052,0000003400,088003,023124,088617,063894,023484,090613,067277,025707,067422,025950
0000000053,0000003467,087511,022797,088124,064797,023157,090071,068169,025393,068308,025638
0000000054,0000003533,087006,022484,087618,065696,022845,089516,069058,025095,069190,025342
0000000055,0000003600,086489,022186,087099,066592,022548,088948,069943,024811,070070,025060
0000000056,0000003667,085947,021917,086556,067480,022280,088356,070820,024559,070941,024810
0000000057,0000003733,085393,021663,086000,068364,022027,087752,071693,024323,071808,024576
0000000058,0000003800,084826,021424,085433,069244,021789,087137,072561,024102,072670,024357
0000000059,0000003867,084237,021215,084842,070113,021581,086498,073418,023913,073522,024169
0000000060,0000003933,083637,021021,084241,070977,021388,085849,074270,023740,074369,023998
0000000061,0000004000,083026,020843,083628,071835,021211,085189,075116,023582,075209,023843
0000000062,0000004067,082393,020695,082994,072680,021065,084508,075949,023457,076037,023719
0000000063,0000004133,081750,020563,082349,073519,020934,083817,076775,023349,076858,023612
0000000064,0000004200,081097,020446,081695,074350,020818,083116,077594,023256,077672,023521
0000000065,0000004267,080424,020360,081021,075167,020734,082396,078398,023196,078471,023462
0000000066,0000004333,079742,020290,080337,075976,020665,081667,079194,023152,079262,023420
0000000067,0000004400,079051,020236,079644,076776,020612,080930,079982,023125,080045,023393
0000000068,0000004467,078342,020212,078934,077559,020590,080175,080752,023130,080811,023400
0000000069,0000004533,077624,020205,078215,078333,020584,079413,081513,023151,081568,023422
0000000070,0000004600,076899,020213,077488,079098,020594,078642,082265,023189,082315,023461
0000000071,0000004667,076158,020252,076745,079843,020635,077857,082997,023259,083043,023532
0000000072,0000004733,075409,020307,075995,080578,020691,077066,083718,023346,083761,023620
0000000073,0000004800,074654,020378,075238,081303,020763,076267,084430,023449,084468,023723
0000000074,0000004867,073884,020479,074468,082006,020867,075456,085119,023584,085154,023859
0000000075,0000004933,073109,020597,073691,082698,020986,074640,085798,023735,085829,024011
0000000076,0000005000,072328,020729,072908,083379,021121,073817,086465,023902,086493,024179
0000000077,0000005067,071535,020893,072114,084036,021286,072985,087108,024101,087133,024378
0000000078,0000005133,070737,021072,071314,084680,021467,072148,087740,024316,087761,024594
0000000079,0000005200,069935,021266,070510,085313,021663,071307,088359,024547,088377,024825
0000000080,0000005267,069123,021490,069697,085920,021889,070458,088952,024809,088968,025087
0000000081,0000005333,068308,021730,068880,086514,022130,069606,089533,025087,089546,025365
0000000082,0000005400,067488,021984,068059,087095,022387,068751,090100,025380,090110,025658
0000000083,0000005467,066662,022268,067231,087648,022673,067890,090640,025703,090648,025981
0000000084,0000005533,065833,022567,066401,088188,022974,067028,091166,026042,091172,026319
0000000085,0000005600,065002,022880,065567,088714,023289,066163,091679,026395,091683,026673
0000000086,0000005667,064166,023222,064730,089211,023633,065295,092163,026778,092165,027055
0000000087,0000005733,063328,023578,063891,089694,023992,064427,092632,027176,092633,027452
0000000088,0000005800,062490,023948,063051,090162,024364,063558,093087,027588,093086,027864
0000000089,0000005867,061649,024346,062208,090600,024764,062688,093512,028028,093509,028304
0000000090,0000005933,060808,024758,061366,091022,025178,061819,093921,028482,093918,028758
0000000091,0000006000,059966,025183,060523,091429,025606,060951,094315,028951,094311,029225
0000000092,0000006067,059125,025635,059680,091806,026060,060084,094679,029446,094673,029720
0000000093,0000006133,058285,026100,058838,092166,026527,059219,095026,029954,095020,030227
0000000094,0000006200,057446,026578,057997,092510,027007,058356,095358,030476,095351,030748
0000000095,0000006267,056609,027081,057159,092822,027513,057497,095658,031023,095651,031295
0000000096,0000006333,055775,027596,056323,093118,028030,056642,095941,031583,095934,031853
0000000097,0000006400,054942,028124,055490,093398,028560,055789,096208,032156,096201,032424
0000000098,0000006467,054115,028675,054661,093644,029114,054943,096443,032752,096436,033020
0000000099,0000006533,053291,029238,053835,093874,029680,054101,096661,033360,096654,033626
0000000100,0000006600,052470,029813,053013,094087,030256,053263,096862,033980,096856,034244
0000000101,0000006667,051657,030410,052199,094267,030855,052435,097030,034621,097025,034885
0000000102,0000006733,050848,031017,051388,094429,031465,051612,097181,035274,097177,035536
0000000103,0000006800,050044,031635,050583,094575,032086,050794,097315,035937,097312,036198
0000000104,0000006867,049249,032273,049787,094686,032726,049988,097416,036621,097414,036880
0000000105,0000006933,048460,032922,048996,094780,033377,049189,097499,037315,097498,037572
0000000106,0000007000,047676,033580,048211,094858,034038,048395,097565,038018,097566,038274
0000000107,0000007067,046905,034257,047439,094900,034717,047616,097598,038740,097600,038993
0000000108,0000007133,046140,034942,046672,094926,035405,046845,097613,039471,097617,039722
0000000109,0000007200,045382,035637,045913,094934,036101,046081,097611,040210,097617,040460
0000000110,0000007267,044638,036348,045168,094907,036815,045333,097575,040966,097584,041213
0000000111,0000007333,043902,037067,044430,094864,037536,044593,097522,041730,097533,041975
0000000112,0000007400,043173,037793,043701,094803,038265,043863,097452,042501,097465,042744
0000000113,0000007467,042461,038535,042987,094708,039009,043151,097347,043286,097364,043527
0000000114,0000007533,041757,039283,042283,094596,039759,042448,097226,044078,097245,044317
0000000115,0000007600,041063,040038,041587,094466,040517,041755,097088,044877,097110,045113
0000000116,0000007667,040386,040806,040910,094303,041287,041082,096917,045688,096942,045921
0000000117,0000007733,039720,041579,040242,094123,042062,040420,096728,046504,096757,046735
0000000118,0000007800,039063,042358,039584,093925,042843,039768,096523,047325,096555,047554
0000000119,0000007867,038426,043147,038946,093694,043635,039139,096285,048157,096321,048383
0000000120,0000007933,037800,043941,038319,093447,044431,038521,096030,048992,096070,049215
0000000121,0000008000,037184,044739,037703,093183,045231,037915,095759,049832,095802,050053
0000000122,0000008067,036591,045546,037109,092886,046040,037333,095456,050679,095503,050897
0000000123,0000008133,036009,046356,036526,092573,046852,036763,095137,051529,095188,051744
0000000124,0000008200,035439,047169,035955,092244,047668,036205,094801,052382,094857,052595
0000000125,0000008267,034892,047989,035407,091882,048489,035674,094434,053241,094494,053450
0000000126,0000008333,034357,048810,034872,091505,049312,035155,094052,054101,094116,054307
0000000127,0000008400,033835,049634,034349,091112,050138,034649,093654,054962,093723,055166
0000000128,0000008467,033338,050461,033852,090689,050967,034170,093226,055827,093300,056027
0000000129,0000008533,032854,051290,033367,090250,051798,033706,092783,056692,092862,056889
0000000130,0000008600,032383,052119,032895,089796,052629,033255,092325,057557,092408,057752
0000000131,0000008667,031939,052950,032450,089313,053462,032832,091837,058423,091926,058614
0000000132,0000008733,031508,053780,032019,088815,054294,032424,091336,059288,091430,059476
0000000133,0000008800,031091,054611,031601,088302,055126,032030,090820,060152,090920,060338
0000000134,0000008867,030701,055440,031212,087761,055957,031666,090277,061014,090382,061196
0000000135,0000008933,030326,056268,030836,087207,056787,031317,089720,061874,089831,062053
0000000136,0000009000,029965,057095,030475,086639,057615,030982,089150,062732,089266,062908
0000000137,0000009067,029633,057918,030142,086044,058440,030679,088553,063586,088675,063759
0000000138,0000009133,029315,058739,029825,085436,059262,030390,087944,064436,088072,064606
0000000139,0000009200,029013,059557,029522,084816,060082,030118,087322,065283,087456,065450
0000000140,0000009267,028740,060369,029249,084170,060895,029876,086676,066123,086816,066286
0000000141,0000009333,028482,061178,028991,083513,061706,029650,086018,066959,086164,067119
0000000142,0000009400,028239,061983,028748,082843,062512,029441,085349,067790,085501,067947
0000000143,0000009467,028027,062780,028535,082151,063310,029263,084656,068612,084815,068765
0000000144,0000009533,027830,063572,028339,081447,064104,029101,083954,069428,084118,069579
0000000145,0000009600,027649,064360,028157,080732,064892,028955,083240,070239,083411,070386
0000000146,0000009667,027498,065137,028007,079997,065671,028842,082506,071038,082683,071182
0000000147,0000009733,027364,065908,027873,079251,066443,028745,081762,071830,081946,071971
0000000148,0000009800,027245,066673,027754,078496,067209,028664,081008,072616,081198,072753
0000000149,0000009867,027157,067426,027667,077721,067963,028616,080236,073388,080433,073522
0000000150,0000009933,027086,068172,027595,076938,068709,028585,079455,074151,079659,074282
0000000151,0000010000,027030,068910,027540,076145,069449,028569,078665,074908,078876,075035
0000000152,0000010067,027006,069634,027516,075336,070174,028587,077860,075647,078077,075772
0000000153,0000010133,026998,070351,027508,074519,070891,028621,077046,076378,077270,076499
0000000154,0000010200,027005,071059,027516,073695,071600,028671,076226,077100,076456,077218
0000000155,0000010267,027044,071750,027555,072856,072292,028754,075391,077804,075628,077919
0000000156,0000010333,027100,072432,027611,072010,072975,028854,074550,078498,074794,078610
0000000157,0000010400,027171,073106,027683,071158,073648,028969,073703,079182,073953,079291
0000000158,0000010467,027273,073760,027786,070294,074304,029117,072844,079846,073101,079952
0000000159,0000010533,027391,074405,027904,069424,074949,029281,071980,080499,072244,080602
0000000160,0000010600,027525,075040,028039,068549,075584,029461,071111,081141,071382,081241
0000000161,0000010667,027691,075654,028205,067665,076198,029673,070232,081761,070510,081858
0000000162,0000010733,027871,076258,028386,066776,076802,029901,069350,082370,069635,082463
0000000163,0000010800,028067,076850,028583,065883,077395,030145,068464,082967,068756,083057
0000000164,0000010867,028294,077421,028811,064984,077966,030420,067572,083539,067870,083627
0000000165,0000010933,028536,077980,029054,064081,078524,030711,066677,084100,066982,084184
0000000166,0000011000,028794,078527,029312,063176,079072,031017,065779,084647,066091,084729
0000000167,0000011067,029081,079050,029600,062266,079595,031353,064877,085170,065195,085249
0000000168,0000011133,029383,079561,029903,061355,080106,031704,063974,085679,064299,085755
0000000169,0000011200,029700,080060,030221,060442,080604,032071,063069,086175,063401,086248
0000000170,0000011267,030046,080533,030567,059527,081077,032466,062163,086643,062502,086714
0000000171,0000011333,030406,080993,030929,058612,081537,032877,061257,087098,061602,087167
0000000172,0000011400,030781,081440,031305,057697,081984,033301,060351,087539,060702,087605
0000000173,0000011467,031184,081861,031708,056782,082404,033754,059446,087952,059804,088015
0000000174,0000011533,031600,082267,032126,055869,082810,034221,058542,088350,058906,088411
0000000175,0000011600,032031,082660,032557,054957,083202,034702,057640,088733,058010,088792
0000000176,0000011667,032488,083026,033016,054048,083567,035210,056741,089087,057118,089144
0000000177,0000011733,032958,083377,033488,053141,083918,035730,055845,089426,056228,089480
0000000178,0000011800,033442,083714,033972,052237,084254,036264,054951,089750,055340,089802
0000000179,0000011867,033951,084022,034483,051338,084561,036824,054063,090044,054458,090094
0000000180,0000011933,034473,084315,035006,050443,084854,037395,053180,090322,053580,090370
0000000181,0000012000,035007,084594,035541,049552,085131,037979,052300,090585,052706,090630
0000000182,0000012067,035565,084843,036101,048670,085380,038587,051428,090816,051841,090860
0000000183,0000012133,036135,085077,036672,047792,085613,039207,050562,091032,050980,091073
0000000184,0000012200,036717,085296,037255,046919,085831,039838,049701,091231,050124,091271
0000000185,0000012267,037321,085485,037860,046057,086018,040491,048851,091399,049280,091438
0000000186,0000012333,037936,085658,038476,045201,086190,041154,048007,091551,048441,091588
0000000187,0000012400,038561,085816,039104,044351,086347,041828,047170,091687,047609,091722
0000000188,0000012467,039208,085943,039751,043515,086473,042523,046346,091790,046790,091824
0000000189,0000012533,039864,086055,040409,042686,086583,043227,045529,091877,045979,091909
0000000190,0000012600,040531,086151,041077,041864,086678,043940,044720,091948,045175,091979
0000000191,0000012667,041216,086216,041764,041058,086742,044672,043927,091987,044386,092016
0000000192,0000012733,041910,086265,042460,040261,086790,045413,043142,092009,043606,092037
0000000193,0000012800,042614,086299,043164,039472,086822,046162,042366,092014,042835,092041
0000000194,0000012867,043334,086301,043886,038701,086823,046927,041608,091988,042081,092013
0000000195,0000012933,044062,086288,044616,037940,086808,047700,040860,091944,041337,091969
0000000196,0000013000,044798,086259,045353,037188,086777,048480,040121,091885,040603,091909
0000000197,0000013067,045549,086199,046106,036456,086715,049274,039403,091793,039888,091816
0000000198,0000013133,046307,086123,046865,035735,086638,050075,038695,091685,039184,091707
0000000199,0000013200,047071,086032,047631,035025,086545,050881,037998,091560,038491,091582
0000000200,0000013267,047849,085909,048410,034337,086421,051700,037324,091404,037820,091425
0000000201,0000013333,048632,085772,049195,033660,086281,052524,036661,091231,037160,091252
0000000202,0000013400,049421,085618,049985,032995,086126,053353,036009,091043,036512,091062
0000000203,0000013467,050220,085434,050786,032355,085940,054191,035382,090822,035888,090842
