DIgSILENT PowerFactory,20000410,2000
10,10A,00D
1,LC684-652A:Phase Voltage A/Terminal i,,,kV,0.00010000000,-6.113866,0.000000,23645,99998,1,1,P
2,LC684-652A:Phase Voltage C/Terminal i,,,kV,0.00010000000,-5.358438,0.000000,16056,99998,1,1,P
3,LC692-675:Phase Voltage A/Terminal i,,,kV,0.00010000000,-6.103548,0.000000,23432,99998,1,1,P
4,LC692-675:Phase Voltage B/Terminal i,,,kV,0.00010000000,-5.829667,0.000000,9647,99998,1,1,P
5,LC692-675:Phase Voltage C/Terminal i,,,kV,0.00010000000,-5.380535,0.000000,16350,99998,1,1,P
6,LOHL632-633:Phase Voltage A/Terminal i,,,kV,0.00010000000,-6.042310,0.000000,21035,99998,1,1,P
7,LOHL632-633:Phase Voltage B/Terminal i,,,kV,0.00010000000,-5.938513,0.000000,16214,99998,1,1,P
8,LOHL632-633:Phase Voltage C/Terminal i,,,kV,0.00010000000,-5.826971,0.000000,21267,99998,1,1,P
9,LOHL645-646:Phase Voltage B/Terminal i,,,kV,0.00010000000,-5.964542,0.000000,16759,99998,1,1,P
10,LOHL645-646:Phase Voltage C/Terminal i,,,kV,0.00010000000,-5.842198,0.000000,21536,99998,1,1,P
50
1
15000.000000,3001
11/11/2020,17:40:56.000000
11/11/2020,17:40:56.000000
ASCII
1.000000
0000000001,0000000000,087265,058028,087218,025303,058197,088443,026889,061739,027348,061833
0000000002,0000000067,087779,057203,087733,025707,057370,088940,027297,060876,027752,060973
0000000003,0000000133,088280,056376,088234,026125,056541,089423,027720,060013,028170,060113
0000000004,0000000200,088768,055548,088723,026559,055712,089892,028158,059148,028603,059251
0000000005,0000000267,089230,054718,089186,027023,054880,090334,028626,058282,029066,058388
0000000006,0000000333,089679,053888,089635,027502,054048,090761,029109,057417,029543,057526
0000000007,0000000400,090114,053058,090071,027995,053215,091174,029605,056552,030035,056664
0000000008,0000000467,090522,052227,090480,028517,052383,091558,030130,055688,030555,055803
0000000009,0000000533,090916,051398,090874,029053,051552,091927,030669,054826,031088,054944
0000000010,0000000600,091296,050570,091254,029603,050722,092281,031221,053965,031635,054086
0000000011,0000000667,091648,049744,091606,030180,049895,092605,031801,053108,032208,053233
0000000012,0000000733,091985,048921,091943,030770,049070,092914,032393,052254,032794,052382
0000000013,0000000800,092307,048099,092266,031373,048247,093207,032998,051403,033394,051534
0000000014,0000000867,092600,047283,092559,032002,047429,093470,033628,050558,034018,050692
0000000015,0000000933,092878,046469,092837,032644,046614,093717,034269,049717,034654,049854
0000000016,0000001000,093141,045659,093100,033297,045803,093948,034923,048880,035301,049020
0000000017,0000001067,093373,044857,093333,033974,044999,094147,035601,048051,035972,048195
0000000018,0000001133,093591,044059,093551,034663,044199,094330,036289,047228,036655,047375
0000000019,0000001200,093793,043265,093753,035363,043404,094497,036988,046410,037348,046560
0000000020,0000001267,093964,042480,093924,036084,042619,094632,037709,045603,038062,045756
0000000021,0000001333,094119,041702,094079,036816,041839,094751,038440,044802,038786,044959
0000000022,0000001400,094259,040929,094219,037559,041065,094854,039181,044007,039521,044167
0000000023,0000001467,094368,040167,094327,038321,040302,094923,039941,043226,040274,043389
0000000024,0000001533,094461,039412,094420,039092,039547,094977,040710,042452,041037,042619
0000000025,0000001600,094538,038664,094497,039873,038797,095014,041488,041685,041808,041855
0000000026,0000001667,094583,037930,094542,040671,038062,095018,042283,040935,042596,041108
0000000027,0000001733,094612,037204,094571,041477,037335,095006,043086,040192,043393,040369
0000000028,0000001800,094626,036485,094584,042291,036616,094978,043897,039458,044197,039638
0000000029,0000001867,094608,035782,094565,043121,035912,094917,044722,038742,045016,038925
0000000030,0000001933,094574,035088,094531,043958,035217,094839,045554,038035,045841,038221
0000000031,0000002000,094524,034402,094480,044801,034531,094745,046393,037338,046673,037527
0000000032,0000002067,094442,033735,094398,045658,033863,094619,047245,036660,047518,036852
0000000033,0000002133,094345,033077,094301,046520,033205,094476,048102,035993,048368,036188
0000000034,0000002200,094232,032429,094187,047388,032556,094317,048964,035336,049224,035534
0000000035,0000002267,094087,031801,094042,048266,031928,094126,049837,034701,050089,034902
0000000036,0000002333,093927,031183,093881,049149,031310,093920,050713,034077,050959,034282
0000000037,0000002400,093752,030576,093705,050036,030702,093697,051594,033465,051834,033672
0000000038,0000002467,093545,029990,093498,050932,030117,093442,052483,032876,052715,033086
0000000039,0000002533,093323,029416,093275,051830,029543,093173,053374,032299,053600,032513
0000000040,0000002600,093086,028854,093037,052732,028980,092887,054269,031735,054488,031951
0000000041,0000002667,092819,028314,092769,053639,028440,092571,055168,031196,055380,031414
0000000042,0000002733,092536,027787,092486,054548,027913,092240,056069,030669,056275,030891
0000000043,0000002800,092239,027272,092188,055459,027398,091893,056972,030156,057171,030380
0000000044,0000002867,091912,026782,091860,056373,026908,091517,057877,029669,058069,029896
0000000045,0000002933,091571,026304,091518,057287,026431,091126,058783,029196,058968,029425
0000000046,0000003000,091216,025840,091161,058202,025967,090721,059689,028736,059868,028968
0000000047,0000003067,090832,025401,090776,059117,025529,090286,060595,028305,060767,028539
0000000048,0000003133,090433,024976,090377,060032,025105,089838,061500,027887,061666,028124
0000000049,0000003200,090021,024565,089964,060945,024694,089376,062404,027484,062564,027724
0000000050,0000003267,089582,024181,089523,061857,024310,088886,063305,027111,063459,027353
0000000051,0000003333,089129,023811,089070,062766,023941,088383,064205,026752,064352,026996
0000000052,0000003400,088663,023456,088602,063674,023586,087867,065102,026408,065243,026654
0000000053,0000003467,088171,023128,088109,064576,023259,087324,065994,026094,066129,026342
0000000054,0000003533,087666,022816,087603,065475,022947,086769,066882,025795,067011,026046
0000000055,0000003600,087149,022517,087084,066371,022650,086202,067767,025512,067891,025765
0000000056,0000003667,086606,022248,086541,067260,022382,085610,068644,025260,068762,025515
0000000057,0000003733,086052,021994,085985,068144,022129,085006,069517,025023,069629,025280
0000000058,0000003800,085486,021755,085418,069023,021891,084390,070385,024802,070491,025061
0000000059,0000003867,084897,021547,084827,069893,021683,083752,071243,024613,071343,024874
0000000060,0000003933,084297,021353,084226,070756,021491,083102,072094,024440,072190,024702
0000000061,0000004000,083686,021175,083613,071614,021313,082442,072940,024283,073030,024547
0000000062,0000004067,083053,021027,082979,072460,021167,081761,073774,024158,073858,024424
0000000063,0000004133,082410,020894,082335,073298,021036,081070,074600,024049,074679,024316
0000000064,0000004200,081757,020778,081680,074130,020920,080369,075419,023957,075493,024225
0000000065,0000004267,081084,020692,081006,074946,020836,079650,076223,023896,076292,024166
0000000066,0000004333,080402,020622,080322,075755,020767,078921,077019,023853,077083,024124
0000000067,0000004400,079710,020567,079629,076555,020714,078183,077806,023825,077866,024098
0000000068,0000004467,079001,020544,078919,077339,020692,077428,078576,023830,078632,024104
0000000069,0000004533,078284,020536,078200,078113,020686,076666,079337,023852,079389,024127
0000000070,0000004600,077559,020544,077473,078877,020696,075896,080089,023890,080136,024165
0000000071,0000004667,076817,020584,076730,079623,020737,075111,080821,023960,080864,024237
0000000072,0000004733,076069,020639,075980,080358,020793,074319,081543,024046,081582,024324
0000000073,0000004800,075313,020709,075223,081082,020866,073520,082254,024149,082289,024428
0000000074,0000004867,074544,020811,074453,081786,020969,072709,082944,024284,082975,024563
0000000075,0000004933,073769,020928,073676,082477,021088,071893,083622,024436,083650,024715
0000000076,0000005000,072988,021061,072893,083158,021223,071071,084289,024603,084314,024883
0000000077,0000005067,072195,021224,072099,083815,021388,070238,084933,024802,084954,025083
0000000078,0000005133,071397,021403,071299,084460,021569,069402,085564,025017,085582,025298
0000000079,0000005200,070595,021597,070495,085092,021765,068561,086183,025248,086198,025529
0000000080,0000005267,069783,021822,069682,085699,021991,067712,086777,025510,086789,025791
0000000081,0000005333,068967,022061,068865,086293,022233,066860,087357,025787,087367,026069
0000000082,0000005400,068148,022315,068044,086874,022489,066004,087924,026080,087931,026362
0000000083,0000005467,067322,022600,067216,087428,022775,065144,088465,026404,088469,026685
0000000084,0000005533,066493,022898,066386,087968,023076,064281,088991,026742,088994,027024
0000000085,0000005600,065661,023211,065553,088493,023391,063416,089503,027095,089504,027377
0000000086,0000005667,064826,023553,064715,088991,023736,062549,089987,027478,089986,027760
0000000087,0000005733,063988,023910,063876,089473,024094,061680,090457,027876,090454,028157
0000000088,0000005800,063149,024280,063036,089941,024466,060811,090911,028288,090907,028568
0000000089,0000005867,062309,024678,062193,090379,024867,059942,091336,028728,091330,029008
0000000090,0000005933,061467,025090,061351,090802,025281,059073,091746,029183,091739,029462
0000000091,0000006000,060626,025515,060508,091209,025708,058204,092140,029651,092132,029929
0000000092,0000006067,059785,025967,059665,091585,026162,057338,092503,030146,092494,030424
0000000093,0000006133,058945,026432,058823,091945,026629,056473,092851,030655,092841,030932
0000000094,0000006200,058105,026909,057983,092290,027110,055609,093182,031177,093172,031453
0000000095,0000006267,057269,027412,057145,092602,027615,054751,093482,031724,093472,031999
0000000096,0000006333,056434,027928,056309,092898,028133,053895,093766,032284,093755,032558
0000000097,0000006400,055602,028455,055475,093177,028663,053042,094033,032856,094022,033129
0000000098,0000006467,054775,029007,054646,093424,029216,052196,094267,033452,094257,033724
0000000099,0000006533,053951,029570,053821,093654,029782,051355,094485,034060,094475,034331
0000000100,0000006600,053130,030144,052998,093867,030359,050517,094687,034680,094677,034949
0000000101,0000006667,052317,030741,052184,094046,030958,049689,094854,035322,094846,035589
0000000102,0000006733,051508,031348,051374,094209,031567,048865,095006,035975,094998,036240
0000000103,0000006800,050703,031966,050568,094354,032188,048048,095140,036638,095133,036902
0000000104,0000006867,049909,032605,049772,094466,032829,047242,095240,037322,095235,037584
0000000105,0000006933,049120,033253,048981,094560,033479,046442,095323,038015,095319,038276
0000000106,0000007000,048336,033911,048196,094637,034140,045649,095390,038719,095387,038978
0000000107,0000007067,047565,034588,047424,094680,034819,044870,095422,039441,095421,039698
0000000108,0000007133,046800,035274,046658,094705,035507,044098,095437,040171,095438,040427
0000000109,0000007200,046042,035968,045898,094713,036204,043334,095435,040911,095438,041164
0000000110,0000007267,045298,036679,045153,094687,036917,042586,095399,041667,095405,041918
0000000111,0000007333,044561,037398,044416,094643,037638,041847,095346,042430,095354,042679
0000000112,0000007400,043833,038125,043686,094583,038368,041116,095276,043201,095286,043448
0000000113,0000007467,043121,038866,042973,094488,039111,040404,095172,043987,095185,044231
0000000114,0000007533,042417,039615,042268,094375,039862,039701,095051,044779,095066,045021
0000000115,0000007600,041722,040370,041572,094246,040619,039008,094913,045578,094931,045817
0000000116,0000007667,041046,041137,040895,094082,041389,038335,094741,046388,094763,046626
0000000117,0000007733,040379,041910,040227,093902,042164,037673,094553,047204,094578,047439
0000000118,0000007800,039722,042689,039569,093705,042945,037022,094348,048026,094376,048258
0000000119,0000007867,039086,043479,038932,093474,043737,036393,094109,048857,094142,049087
0000000120,0000007933,038460,044272,038305,093226,044533,035775,093855,049693,093891,049920
0000000121,0000008000,037844,045071,037688,092962,045334,035169,093584,050532,093624,050757
0000000122,0000008067,037251,045877,037094,092665,046142,034586,093280,051379,093324,051601
0000000123,0000008133,036669,046687,036511,092352,046954,034016,092961,052230,093009,052449
0000000124,0000008200,036098,047501,035940,092023,047770,033459,092626,053083,092678,053299
0000000125,0000008267,035552,048320,035393,091662,048591,032927,092259,053941,092315,054154
0000000126,0000008333,035017,049142,034857,091285,049415,032408,091876,054801,091937,055012
0000000127,0000008400,034495,049965,034334,090892,050240,031902,091478,055663,091544,055870
0000000128,0000008467,033998,050793,033837,090468,051070,031424,091050,056527,091121,056732
0000000129,0000008533,033514,051621,033352,090030,051900,030959,090607,057392,090683,057594
0000000130,0000008600,033043,052451,032881,089576,052731,030508,090149,058258,090229,058456
0000000131,0000008667,032598,053281,032436,089092,053564,030085,089662,059123,089747,059319
0000000132,0000008733,032168,054112,032004,088594,054396,029677,089160,059988,089251,060181
0000000133,0000008800,031750,054942,031587,088082,055228,029283,088645,060853,088741,061042
0000000134,0000008867,031361,055771,031197,087541,056059,028919,088101,061714,088203,061901
0000000135,0000008933,030986,056599,030821,086986,056889,028570,087544,062575,087652,062758
0000000136,0000009000,030625,057426,030460,086418,057717,028236,086974,063433,087087,063613
0000000137,0000009067,030293,058249,030127,085823,058542,027932,086378,064286,086496,064463
0000000138,0000009133,029975,059070,029810,085216,059364,027644,085769,065136,085893,065310
0000000139,0000009200,029672,059888,029507,084595,060184,027371,085147,065984,085277,066154
0000000140,0000009267,029399,060701,029234,083950,060998,027129,084501,066824,084637,066991
0000000141,0000009333,029142,061509,028976,083292,061808,026904,083843,067659,083985,067823
0000000142,0000009400,028899,062315,028733,082623,062614,026694,083173,068491,083322,068651
0000000143,0000009467,028687,063111,028521,081930,063413,026516,082481,069312,082636,069470
0000000144,0000009533,028490,063904,028324,081227,064206,026354,081778,070129,081939,070283
0000000145,0000009600,028308,064691,028142,080512,064995,026209,081064,070940,081232,071090
0000000146,0000009667,028158,065468,027992,079776,065773,026095,080330,071739,080504,071886
0000000147,0000009733,028024,066239,027858,079031,066545,025998,079586,072531,079767,072675
0000000148,0000009800,027905,067005,027739,078275,067311,025918,078832,073317,079019,073458
0000000149,0000009867,027817,067757,027652,077500,068065,025870,078060,074088,078254,074226
0000000150,0000009933,027746,068503,027580,076717,068812,025838,077279,074852,077480,074987
0000000151,0000010000,027690,069242,027525,075925,069551,025823,076490,075608,076697,075739
0000000152,0000010067,027666,069966,027501,075116,070276,025840,075684,076348,075898,076476
0000000153,0000010133,027657,070682,027493,074299,070993,025874,074871,077079,075091,077204
0000000154,0000010200,027665,071390,027501,073474,071702,025925,074050,077801,074277,077923
0000000155,0000010267,027704,072081,027541,072635,072394,026008,073215,078505,073449,078623
0000000156,0000010333,027759,072764,027596,071789,073077,026107,072374,079199,072615,079314
0000000157,0000010400,027830,073437,027668,070937,073751,026222,071527,079883,071774,079995
0000000158,0000010467,027933,074092,027771,070073,074406,026370,070668,080547,070922,080656
0000000159,0000010533,028051,074737,027890,069203,075051,026535,069804,081200,070065,081306
0000000160,0000010600,028185,075371,028024,068329,075686,026715,068935,081842,069203,081945
0000000161,0000010667,028350,075986,028190,067444,076301,026927,068057,082462,068331,082562
0000000162,0000010733,028531,076589,028371,066556,076904,027155,067175,083070,067456,083168
0000000163,0000010800,028727,077182,028568,065663,077497,027398,066289,083667,066577,083761
0000000164,0000010867,028954,077752,028796,064763,078068,027674,065396,084240,065691,084331
0000000165,0000010933,029196,078311,029039,063861,078627,027964,064501,084800,064803,084889
0000000166,0000011000,029453,078858,029297,062955,079174,028270,063603,085348,063912,085434
0000000167,0000011067,029741,079382,029585,062046,079697,028606,062701,085870,063016,085953
0000000168,0000011133,030043,079892,029888,061134,080208,028958,061798,086379,062120,086459
0000000169,0000011200,030360,080391,030206,060221,080706,029324,060894,086875,061222,086953
0000000170,0000011267,030706,080864,030553,059307,081179,029720,059988,087344,060323,087419
0000000171,0000011333,031066,081324,030914,058392,081639,030130,059082,087799,059423,087871
0000000172,0000011400,031441,081772,031290,057476,082086,030555,058176,088239,058523,088309
0000000173,0000011467,031843,082192,031694,056562,082506,031008,057271,088652,057625,088719
0000000174,0000011533,032260,082599,032111,055648,082912,031475,056367,089050,056727,089115
0000000175,0000011600,032690,082992,032543,054736,083305,031955,055464,089434,055831,089496
0000000176,0000011667,033148,083357,033001,053827,083669,032463,054566,089788,054939,089848
0000000177,0000011733,033618,083708,033473,052920,084020,032984,053669,090127,054049,090185
0000000178,0000011800,034102,084045,033957,052016,084356,033518,052775,090451,053161,090507
0000000179,0000011867,034611,084353,034468,051118,084663,034077,051888,090744,052279,090798
0000000180,0000011933,035133,084647,034991,050223,084956,034649,051004,091022,051401,091074
0000000181,0000012000,035667,084925,035526,049332,085234,035233,050124,091285,050527,091335
0000000182,0000012067,036225,085174,036086,048449,085482,035841,049253,091516,049662,091564
0000000183,0000012133,036795,085408,036657,047571,085715,036460,048387,091732,048801,091778
0000000184,0000012200,037377,085627,037240,046698,085933,037091,047525,091932,047945,091976
0000000185,0000012267,037981,085816,037845,045836,086120,037744,046675,092100,047101,092142
0000000186,0000012333,038596,085989,038462,044980,086293,038407,045832,092251,046262,092292
0000000187,0000012400,039221,086148,039089,044131,086449,039082,044994,092387,045430,092426
0000000188,0000012467,039868,086275,039737,043294,086575,039776,044170,092491,044611,092528
0000000189,0000012533,040524,086386,040394,042465,086686,040480,043354,092578,043800,092614
0000000190,0000012600,041191,086482,041062,041644,086780,041194,042544,092649,042996,092683
0000000191,0000012667,041876,086547,041749,040838,086844,041926,041751,092687,042207,092720
0000000192,0000012733,042570,086597,042445,040040,086892,042666,040967,092709,041427,092741
0000000193,0000012800,043273,086630,043149,039251,086924,043415,040191,092715,040656,092746
0000000194,0000012867,043994,086633,043871,038480,086925,044180,039433,092688,039902,092718
0000000195,0000012933,044722,086620,044601,037719,086910,044953,038684,092645,039158,092673
0000000196,0000013000,045458,086591,045338,036967,086880,045733,037946,092585,038424,092613
0000000197,0000013067,046209,086531,046091,036236,086818,046527,037227,092493,037709,092520
0000000198,0000013133,046966,086455,046850,035515,086740,047328,036520,092385,037005,092411
0000000199,0000013200,047731,086363,047616,034804,086647,048135,035823,092261,036312,092286
0000000200,0000013267,048508,086241,048395,034116,086523,048953,035148,092104,035641,092129
0000000201,0000013333,049292,086103,049180,033440,086383,049777,034485,091932,034981,091956
0000000202,0000013400,050081,085950,049971,032775,086228,050606,033834,091743,034333,091767
0000000203,0000013467,050880,085766,050772,032134,086042,051444,033206,091523,033709,091546
