DIgSILENT PowerFactory,20000410,2000
10,10A,00D
1,LC684-652A:Phase Voltage A/Terminal i,,,kV,0.00010000000,-6.013279,0.000000,21038,99998,1,1,P
2,LC684-652A:Phase Voltage C/Terminal i,,,kV,0.00010000000,-5.263504,0.000000,15061,99998,1,1,P
3,LC692-675:Phase Voltage A/Terminal i,,,kV,0.00010000000,-6.015740,0.000000,21044,99998,1,1,P
4,LC692-675:Phase Voltage B/Terminal i,,,kV,0.00010000000,-5.713687,0.000000,7789,99998,1,1,P
5,LC692-675:Phase Voltage C/Terminal i,,,kV,0.00010000000,-5.284500,0.000000,15345,99998,1,1,P
6,LOHL632-633:Phase Voltage A/Terminal i,,,kV,0.00010000000,-6.236748,0.000000,25606,99998,1,1,P
7,LOHL632-633:Phase Voltage B/Terminal i,,,kV,0.00010000000,-6.104455,0.000000,17552,99998,1,1,P
8,LOHL632-633:Phase Voltage C/Terminal i,,,kV,0.00010000000,-5.747185,0.000000,20625,99998,1,1,P
9,LOHL645-646:Phase Voltage B/Terminal i,,,kV,0.00010000000,-6.130825,0.000000,18103,99998,1,1,P
10,LOHL645-646:Phase Voltage C/Terminal i,,,kV,0.00010000000,-5.762245,0.000000,20889,99998,1,1,P
50
1
15000.000000,3001
11/11/2020,16:57:09.000000
11/11/2020,16:57:09.000000
ASCII
1.000000
0000000001,0000000000,086259,057079,086340,024144,057236,090387,028548,060941,029011,061034
0000000002,0000000067,086773,056254,086855,024547,056410,090884,028956,060079,029414,060174
0000000003,0000000133,087274,055427,087356,024965,055581,091367,029379,059215,029833,059313
0000000004,0000000200,087762,054599,087845,025399,054751,091837,029818,058350,030266,058451
0000000005,0000000267,088224,053769,088308,025863,053919,092278,030286,057484,030729,057589
0000000006,0000000333,088673,052939,088757,026342,053087,092705,030768,056619,031206,056726
0000000007,0000000400,089109,052108,089193,026835,052255,093118,031265,055754,031698,055864
0000000008,0000000467,089516,051278,089602,027357,051423,093502,031790,054890,032217,055004
0000000009,0000000533,089910,050449,089996,027893,050592,093871,032328,054028,032751,054144
0000000010,0000000600,090290,049620,090376,028443,049762,094226,032881,053167,033298,053287
0000000011,0000000667,090642,048795,090728,029020,048935,094550,033460,052310,033871,052433
0000000012,0000000733,090979,047971,091065,029610,048110,094858,034052,051456,034457,051582
0000000013,0000000800,091301,047150,091388,030214,047286,095152,034657,050605,035056,050734
0000000014,0000000867,091594,046333,091681,030843,046469,095414,035287,049760,035680,049893
0000000015,0000000933,091872,045520,091959,031484,045654,095661,035929,048919,036316,049055
0000000016,0000001000,092135,044710,092222,032137,044842,095892,036583,048082,036964,048221
0000000017,0000001067,092368,043908,092455,032814,044039,096091,037260,047253,037635,047396
0000000018,0000001133,092585,043109,092672,033503,043239,096275,037948,046430,038317,046576
0000000019,0000001200,092787,042315,092875,034203,042444,096442,038648,045612,039011,045761
0000000020,0000001267,092958,041531,093046,034925,041659,096577,039368,044805,039725,044957
0000000021,0000001333,093114,040752,093201,035657,040879,096695,040099,044004,040449,044159
0000000022,0000001400,093254,039979,093341,036399,040104,096798,040840,043209,041183,043368
0000000023,0000001467,093362,039218,093449,037161,039342,096868,041600,042428,041937,042590
0000000024,0000001533,093455,038463,093542,037932,038586,096921,042369,041654,042699,041819
0000000025,0000001600,093532,037715,093619,038713,037837,096958,043147,040888,043471,041056
0000000026,0000001667,093577,036981,093664,039511,037102,096963,043942,040137,044259,040308
0000000027,0000001733,093606,036254,093693,040317,036375,096951,044745,039394,045055,039569
0000000028,0000001800,093620,035535,093706,041132,035655,096922,045556,038660,045860,038838
0000000029,0000001867,093602,034833,093687,041961,034952,096861,046381,037944,046678,038125
0000000030,0000001933,093568,034138,093653,042798,034257,096783,047214,037237,047504,037421
0000000031,0000002000,093518,033453,093602,043642,033571,096689,048053,036540,048336,036727
0000000032,0000002067,093436,032786,093520,044498,032903,096563,048904,035862,049181,036053
0000000033,0000002133,093339,032128,093422,045360,032245,096420,049761,035195,050031,035389
0000000034,0000002200,093226,031479,093309,046228,031596,096262,050624,034538,050887,034735
0000000035,0000002267,093081,030851,093164,047106,030968,096071,051496,033903,051752,034103
0000000036,0000002333,092921,030234,093003,047989,030350,095864,052373,033280,052622,033482
0000000037,0000002400,092746,029626,092827,048877,029742,095641,053254,032667,053496,032873
0000000038,0000002467,092539,029041,092620,049772,029157,095387,054142,032078,054378,032287
0000000039,0000002533,092317,028467,092397,050670,028582,095117,055034,031502,055263,031713
0000000040,0000002600,092080,027904,092159,051572,028019,094832,055928,030937,056150,031151
0000000041,0000002667,091813,027365,091891,052479,027480,094515,056827,030398,057043,030615
0000000042,0000002733,091531,026838,091608,053388,026953,094184,057728,029871,057937,030091
0000000043,0000002800,091233,026322,091310,054299,026438,093838,058631,029358,058834,029580
0000000044,0000002867,090907,025832,090982,055213,025948,093461,059536,028871,059732,029096
0000000045,0000002933,090565,025355,090640,056127,025471,093070,060442,028398,060631,028626
0000000046,0000003000,090210,024890,090283,057042,025006,092665,061348,027938,061531,028169
0000000047,0000003067,089826,024452,089898,057957,024569,092231,062254,027507,062430,027740
0000000048,0000003133,089428,024027,089499,058872,024144,091782,063159,027089,063329,027325
0000000049,0000003200,089016,023616,089086,059786,023733,091320,064063,026687,064227,026924
0000000050,0000003267,088576,023232,088645,060697,023350,090831,064965,026313,065122,026553
0000000051,0000003333,088123,022862,088191,061606,022981,090327,065864,025954,066015,026196
0000000052,0000003400,087657,022506,087724,062514,022626,089811,066761,025610,066906,025855
0000000053,0000003467,087165,022179,087231,063416,022299,089269,067653,025296,067792,025543
0000000054,0000003533,086660,021866,086725,064316,021987,088714,068542,024997,068674,025246
0000000055,0000003600,086143,021568,086206,065212,021690,088146,069427,024714,069553,024965
0000000056,0000003667,085601,021299,085663,066100,021422,087554,070304,024462,070425,024715
0000000057,0000003733,085046,021045,085107,066984,021169,086950,071176,024225,071292,024480
0000000058,0000003800,084480,020806,084540,067864,020931,086334,072044,024004,072154,024262
0000000059,0000003867,083891,020597,083949,068733,020723,085696,072902,023815,073006,024074
0000000060,0000003933,083291,020404,083348,069597,020530,085047,073754,023642,073852,023903
0000000061,0000004000,082680,020225,082735,070455,020353,084387,074600,023485,074693,023747
0000000062,0000004067,082047,020077,082101,071300,020206,083706,075433,023360,075521,023624
0000000063,0000004133,081404,019945,081457,072138,020075,083015,076259,023251,076342,023517
0000000064,0000004200,080751,019828,080802,072970,019960,082314,077078,023159,077156,023426
0000000065,0000004267,080078,019743,080128,073787,019876,081594,077882,023099,077955,023367
0000000066,0000004333,079396,019672,079444,074595,019807,080865,078678,023055,078746,023324
0000000067,0000004400,078705,019618,078751,075396,019754,080127,079466,023027,079529,023298
0000000068,0000004467,077996,019595,078041,076179,019732,079373,080236,023032,080295,023305
0000000069,0000004533,077278,019587,077322,076953,019726,078610,080997,023054,081051,023327
0000000070,0000004600,076553,019595,076595,077718,019735,077840,081748,023092,081799,023366
0000000071,0000004667,075812,019634,075852,078463,019776,077055,082480,023162,082527,023437
0000000072,0000004733,075063,019689,075102,079198,019833,076263,083202,023249,083244,023525
0000000073,0000004800,074307,019760,074345,079923,019905,075465,083914,023351,083952,023628
0000000074,0000004867,073538,019862,073575,080626,020009,074654,084603,023486,084638,023764
0000000075,0000004933,072763,019979,072798,081318,020128,073837,085282,023638,085313,023916
0000000076,0000005000,071982,020112,072015,081998,020262,073015,085949,023805,085977,024083
0000000077,0000005067,071189,020275,071221,082655,020428,072183,086592,024004,086617,024283
0000000078,0000005133,070391,020454,070421,083300,020609,071346,087223,024219,087245,024498
0000000079,0000005200,069589,020648,069617,083932,020805,070505,087842,024450,087861,024729
0000000080,0000005267,068777,020872,068804,084540,021031,069656,088436,024712,088452,024992
0000000081,0000005333,067962,021112,067987,085133,021272,068804,089016,024989,089029,025269
0000000082,0000005400,067142,021366,067166,085714,021529,067949,089584,025282,089594,025562
0000000083,0000005467,066316,021650,066338,086268,021815,067088,090124,025606,090132,025886
0000000084,0000005533,065487,021949,065508,086808,022116,066225,090650,025944,090656,026224
0000000085,0000005600,064656,022262,064674,087334,022431,065361,091163,026298,091167,026577
0000000086,0000005667,063820,022604,063837,087831,022775,064493,091647,026681,091649,026960
0000000087,0000005733,062982,022960,062998,088313,023134,063625,092116,027078,092116,027357
0000000088,0000005800,062144,023330,062158,088781,023506,062756,092571,027490,092570,027769
0000000089,0000005867,061303,023729,061315,089219,023906,061886,092995,027931,092993,028209
0000000090,0000005933,060462,024140,060473,089642,024320,061017,093405,028385,093401,028662
0000000091,0000006000,059620,024565,059630,090049,024748,060148,093799,028853,093795,029130
0000000092,0000006067,058779,025017,058787,090425,025202,059282,094163,029348,094157,029624
0000000093,0000006133,057939,025482,057945,090785,025669,058417,094510,029857,094504,030132
0000000094,0000006200,057099,025960,057104,091130,026149,057554,094842,030379,094835,030653
0000000095,0000006267,056263,026463,056266,091442,026655,056695,095141,030926,095135,031199
0000000096,0000006333,055429,026978,055431,091738,027172,055839,095425,031486,095418,031758
0000000097,0000006400,054596,027506,054597,092017,027702,054987,095692,032058,095685,032329
0000000098,0000006467,053769,028058,053768,092264,028256,054141,095927,032655,095920,032924
0000000099,0000006533,052945,028621,052943,092494,028821,053299,096145,033262,096138,033531
0000000100,0000006600,052124,029195,052120,092707,029398,052461,096346,033882,096340,034149
0000000101,0000006667,051311,029792,051306,092886,029997,051633,096514,034524,096509,034790
0000000102,0000006733,050502,030399,050495,093049,030607,050810,096665,035177,096661,035441
0000000103,0000006800,049698,031017,049690,093194,031228,049992,096799,035840,096796,036103
0000000104,0000006867,048903,031656,048894,093306,031868,049186,096899,036524,096897,036785
0000000105,0000006933,048114,032304,048103,093400,032519,048386,096983,037218,096982,037477
0000000106,0000007000,047330,032962,047318,093477,033180,047593,097049,037921,097050,038178
0000000107,0000007067,046559,033639,046546,093520,033859,046814,097081,038643,097084,038898
0000000108,0000007133,045794,034324,045779,093545,034547,046042,097097,039373,097101,039627
0000000109,0000007200,045036,035019,045020,093553,035243,045278,097095,040113,097101,040364
0000000110,0000007267,044292,035730,044275,093527,035957,044530,097059,040869,097067,041118
0000000111,0000007333,043555,036449,043537,093484,036678,043791,097006,041632,097017,041880
0000000112,0000007400,042827,037176,042808,093423,037407,043061,096935,042403,096949,042649
0000000113,0000007467,042115,037917,042094,093328,038151,042348,096831,043189,096848,043432
0000000114,0000007533,041411,038665,041390,093215,038901,041646,096710,043981,096729,044222
0000000115,0000007600,040717,039420,040694,093086,039659,040953,096572,044780,096594,045018
0000000116,0000007667,040040,040188,040017,092923,040428,040280,096401,045590,096426,045826
0000000117,0000007733,039374,040961,039349,092742,041204,039618,096212,046406,096241,046640
0000000118,0000007800,038717,041740,038691,092545,041985,038966,096007,047228,096039,047459
0000000119,0000007867,038080,042529,038054,092314,042777,038337,095769,048059,095804,048287
0000000120,0000007933,037454,043323,037427,092067,043573,037719,095514,048895,095554,049120
0000000121,0000008000,036838,044122,036810,091803,044373,037113,095243,049735,095286,049957
0000000122,0000008067,036245,044928,036216,091506,045182,036531,094940,050582,094987,050802
0000000123,0000008133,035663,045738,035633,091193,045994,035961,094620,051432,094672,051649
0000000124,0000008200,035093,046552,035062,090863,046810,035403,094285,052285,094341,052500
0000000125,0000008267,034546,047371,034515,090502,047631,034871,093918,053143,093978,053355
0000000126,0000008333,034011,048192,033979,090125,048454,034352,093536,054003,093600,054212
0000000127,0000008400,033489,049016,033456,089732,049280,033847,093138,054865,093207,055071
0000000128,0000008467,032992,049843,032959,089309,050109,033368,092710,055729,092784,055932
0000000129,0000008533,032508,050672,032474,088870,050940,032903,092266,056594,092345,056794
0000000130,0000008600,032037,051501,032002,088416,051771,032452,091808,057460,091892,057657
0000000131,0000008667,031593,052332,031558,087932,052603,032030,091321,058325,091410,058519
0000000132,0000008733,031162,053162,031126,087434,053436,031621,090820,059190,090914,059381
0000000133,0000008800,030744,053993,030708,086922,054268,031228,090304,060055,090404,060242
0000000134,0000008867,030355,054822,030319,086381,055099,030864,089761,060917,089866,061101
0000000135,0000008933,029980,055650,029943,085827,055929,030514,089204,061777,089315,061958
0000000136,0000009000,029619,056477,029582,085258,056757,030180,088633,062635,088750,062813
0000000137,0000009067,029287,057300,029249,084664,057582,029876,088037,063488,088159,063663
0000000138,0000009133,028969,058121,028932,084056,058404,029588,087428,064339,087556,064510
0000000139,0000009200,028667,058939,028629,083435,059224,029315,086806,065186,086940,065354
0000000140,0000009267,028394,059751,028356,082790,060037,029074,086160,066026,086300,066191
0000000141,0000009333,028136,060560,028098,082132,060847,028848,085502,066861,085648,067024
0000000142,0000009400,027893,061365,027855,081463,061654,028638,084832,067693,084985,067852
0000000143,0000009467,027681,062162,027643,080770,062452,028460,084140,068515,084299,068670
0000000144,0000009533,027484,062954,027446,080067,063246,028299,083437,069331,083602,069483
0000000145,0000009600,027303,063742,027264,079352,064034,028153,082724,070142,082895,070291
0000000146,0000009667,027152,064519,027114,078616,064812,028040,081989,070941,082167,071087
0000000147,0000009733,027018,065290,026980,077871,065585,027943,081245,071733,081429,071876
0000000148,0000009800,026899,066055,026861,077115,066351,027862,080492,072519,080682,072658
0000000149,0000009867,026811,066808,026774,076341,067105,027814,079719,073290,079917,073426
0000000150,0000009933,026740,067554,026702,075557,067851,027782,078939,074054,079142,074187
0000000151,0000010000,026684,068293,026647,074765,068591,027767,078149,074810,078360,074940
0000000152,0000010067,026660,069017,026623,073956,069316,027785,077343,075550,077561,075676
0000000153,0000010133,026651,069733,026615,073139,070033,027819,076530,076281,076754,076404
0000000154,0000010200,026659,070441,026623,072314,070742,027869,075709,077003,075940,077123
0000000155,0000010267,026698,071132,026663,071475,071433,027952,074875,077707,075112,077824
0000000156,0000010333,026754,071814,026718,070630,072116,028051,074034,078401,074278,078515
0000000157,0000010400,026825,072488,026790,069777,072790,028167,073186,079085,073437,079196
0000000158,0000010467,026927,073142,026893,068913,073445,028315,072328,079749,072585,079856
0000000159,0000010533,027045,073787,027012,068044,074091,028479,071464,080402,071728,080506
0000000160,0000010600,027179,074422,027146,067169,074726,028659,070594,081044,070866,081146
0000000161,0000010667,027344,075036,027312,066284,075340,028871,069716,081664,069994,081763
0000000162,0000010733,027525,075640,027493,065396,075944,029099,068834,082272,069119,082368
0000000163,0000010800,027721,076233,027690,064503,076537,029343,067948,082869,068240,082962
0000000164,0000010867,027948,076803,027918,063603,077107,029618,067056,083442,067354,083532
0000000165,0000010933,028190,077362,028161,062701,077666,029908,066160,084002,066465,084089
0000000166,0000011000,028448,077909,028419,061796,078214,030214,065263,084550,065574,084634
0000000167,0000011067,028735,078432,028707,060886,078737,030551,064361,085072,064679,085154
0000000168,0000011133,029037,078943,029010,059974,079247,030902,063458,085581,063783,085660
0000000169,0000011200,029354,079442,029328,059062,079746,031268,062553,086077,062885,086153
0000000170,0000011267,029700,079915,029675,058147,080219,031664,061647,086546,061985,086619
0000000171,0000011333,030060,080375,030036,057232,080679,032075,060741,087001,061086,087071
0000000172,0000011400,030435,080822,030412,056317,081125,032499,059835,087442,060186,087510
0000000173,0000011467,030838,081243,030815,055402,081545,032952,058930,087854,059288,087920
0000000174,0000011533,031254,081649,031233,054489,081952,033419,058026,088252,058390,088315
0000000175,0000011600,031685,082043,031665,053576,082344,033900,057124,088636,057494,088697
0000000176,0000011667,032142,082408,032123,052667,082709,034407,056225,088990,056602,089048
0000000177,0000011733,032612,082759,032595,051761,083059,034928,055329,089329,055711,089385
0000000178,0000011800,033096,083096,033079,050856,083396,035462,054435,089653,054824,089707
0000000179,0000011867,033605,083404,033590,049958,083703,036021,053547,089947,053942,089998
0000000180,0000011933,034127,083697,034113,049063,083996,036593,052664,090225,053064,090275
0000000181,0000012000,034661,083976,034648,048172,084273,037177,051784,090487,052190,090535
0000000182,0000012067,035219,084225,035208,047289,084522,037785,050912,090719,051324,090765
0000000183,0000012133,035789,084459,035779,046411,084755,038404,050046,090934,050464,090978
0000000184,0000012200,036371,084678,036362,045538,084973,039035,049185,091134,049608,091176
0000000185,0000012267,036975,084867,036967,044677,085160,039688,048335,091302,048764,091342
0000000186,0000012333,037590,085040,037583,043821,085332,040352,047491,091454,047925,091492
0000000187,0000012400,038215,085198,038211,042971,085489,041026,046653,091589,047093,091627
0000000188,0000012467,038862,085325,038859,042135,085615,041720,045830,091693,046274,091728
0000000189,0000012533,039518,085437,039516,041306,085725,042425,045013,091780,045463,091814
0000000190,0000012600,040185,085533,040184,040484,085820,043138,044204,091851,044658,091884
0000000191,0000012667,040870,085598,040871,039678,085884,043870,043411,091889,043870,091921
0000000192,0000012733,041564,085647,041567,038881,085932,044611,042626,091911,043090,091942
0000000193,0000012800,042267,085681,042271,038092,085964,045360,041850,091917,042318,091946
0000000194,0000012867,042988,085684,042993,037321,085965,046125,041092,091890,041565,091918
0000000195,0000012933,043716,085670,043723,036559,085950,046897,040344,091847,040821,091874
0000000196,0000013000,044452,085641,044460,035807,085919,047678,039605,091787,040086,091813
0000000197,0000013067,045203,085581,045213,035076,085857,048472,038887,091695,039372,091721
0000000198,0000013133,045960,085505,045972,034355,085780,049272,038179,091587,038668,091612
0000000199,0000013200,046725,085414,046738,033644,085687,050079,037482,091463,037975,091487
0000000200,0000013267,047503,085292,047517,032956,085562,050898,036808,091306,037304,091329
0000000201,0000013333,048286,085154,048302,032280,085423,051722,036144,091134,036644,091156
0000000202,0000013400,049075,085000,049092,031615,085268,052551,035493,090945,035996,090967
0000000203,0000013467,049874,084816,049893,030974,085082,053389,034866,090725,035372,090747
