DIgSILENT PowerFactory,20000410,2000
10,10A,00D
1,LC684-652A:Phase Voltage A/Terminal i,,,kV,0.00010000000,-5.160777,0.000000,9509,99998,1,1,P
2,LC684-652A:Phase Voltage C/Terminal i,,,kV,0.00010000000,-4.282880,0.000000,-4535,99998,1,1,P
3,LC692-675:Phase Voltage A/Terminal i,,,kV,0.00010000000,-5.154876,0.000000,9494,99998,1,1,P
4,LC692-675:Phase Voltage B/Terminal i,,,kV,0.00010000000,-6.145609,0.000000,2134,99998,1,1,P
5,LC692-675:Phase Voltage C/Terminal i,,,kV,0.00010000000,-4.325902,0.000000,-3850,99998,1,1,P
6,LOHL632-633:Phase Voltage A/Terminal i,,,kV,0.00010000000,-5.678494,0.000000,17862,99998,1,1,P
7,LOHL632-633:Phase Voltage B/Terminal i,,,kV,0.00010000000,-6.308823,0.000000,14197,99998,1,1,P
8,LOHL632-633:Phase Voltage C/Terminal i,,,kV,0.00010000000,-5.379879,0.000000,10617,99998,1,1,P
9,LOHL645-646:Phase Voltage B/Terminal i,,,kV,0.00010000000,-6.337112,0.000000,14784,99998,1,1,P
10,LOHL645-646:Phase Voltage C/Terminal i,,,kV,0.00010000000,-5.392940,0.000000,10873,99998,1,1,P
50
1
15000.000000,3001
11/11/2020,17:05:39.000000
11/11/2020,17:05:39.000000
ASCII
1.000000
0000000001,0000000000,077734,047272,077732,028463,047651,084805,030592,057268,031074,057341
0000000002,0000000067,078248,046447,078246,028866,046824,085301,031000,056405,031477,056481
0000000003,0000000133,078749,045621,078748,029285,045995,085785,031423,055542,031896,055620
0000000004,0000000200,079237,044793,079237,029719,045165,086254,031861,054677,032329,054758
0000000005,0000000267,079699,043963,079699,030182,044333,086695,032329,053811,032792,053896
0000000006,0000000333,080148,043133,080149,030661,043501,087123,032812,052946,033269,053033
0000000007,0000000400,080583,042302,080585,031154,042669,087536,033308,052080,033761,052171
0000000008,0000000467,080991,041472,080993,031676,041837,087920,033833,051217,034280,051310
0000000009,0000000533,081385,040643,081387,032212,041006,088289,034372,050355,034814,050451
0000000010,0000000600,081765,039814,081768,032762,040176,088643,034925,049494,035360,049594
0000000011,0000000667,082117,038989,082119,033339,039349,088967,035504,048637,035934,048740
0000000012,0000000733,082454,038165,082457,033929,038524,089276,036096,047783,036520,047889
0000000013,0000000800,082776,037343,082779,034533,037700,089569,036701,046932,037119,047041
0000000014,0000000867,083069,036527,083072,035162,036883,089832,037331,046087,037743,046199
0000000015,0000000933,083347,035714,083350,035803,036068,090078,037973,045246,038379,045362
0000000016,0000001000,083610,034904,083614,036457,035256,090310,038627,044409,039027,044528
0000000017,0000001067,083843,034101,083846,037134,034453,090509,039304,043580,039698,043703
0000000018,0000001133,084060,033303,084064,037822,033653,090692,039992,042757,040380,042883
0000000019,0000001200,084262,032509,084266,038522,032858,090859,040691,041939,041073,042067
0000000020,0000001267,084433,031725,084437,039244,032073,090994,041412,041132,041788,041264
0000000021,0000001333,084589,030946,084592,039976,031293,091113,042143,040331,042512,040466
0000000022,0000001400,084728,030173,084732,040718,030518,091215,042884,039536,043246,039675
0000000023,0000001467,084837,029412,084841,041480,029756,091285,043644,038755,044000,038897
0000000024,0000001533,084930,028657,084933,042252,029000,091339,044413,037981,044762,038126
0000000025,0000001600,085007,027909,085010,043032,028251,091376,045191,037215,045534,037363
0000000026,0000001667,085052,027175,085055,043830,027516,091380,045986,036464,046322,036615
0000000027,0000001733,085081,026448,085084,044637,026789,091368,046789,035721,047118,035876
0000000028,0000001800,085095,025729,085097,045451,026069,091340,047600,034987,047922,035145
0000000029,0000001867,085077,025026,085079,046281,025366,091278,048425,034271,048741,034432
0000000030,0000001933,085043,024332,085044,047117,024671,091201,049257,033564,049567,033728
0000000031,0000002000,084993,023647,084994,047961,023985,091107,050097,032867,050399,033034
0000000032,0000002067,084911,022979,084912,048817,023317,090981,050948,032189,051244,032360
0000000033,0000002133,084814,022322,084814,049679,022659,090838,051805,031522,052094,031696
0000000034,0000002200,084701,021673,084700,050547,022010,090679,052667,030865,052950,031042
0000000035,0000002267,084556,021045,084555,051426,021382,090488,053540,030230,053815,030410
0000000036,0000002333,084396,020427,084394,052309,020764,090281,054416,029607,054685,029789
0000000037,0000002400,084221,019820,084218,053196,020156,090059,055297,028994,055559,029180
0000000038,0000002467,084014,019235,084011,054091,019571,089804,056186,028405,056441,028594
0000000039,0000002533,083792,018661,083788,054990,018996,089534,057077,027829,057325,028020
0000000040,0000002600,083555,018098,083550,055891,018433,089249,057972,027264,058213,027458
0000000041,0000002667,083288,017559,083282,056798,017894,088933,058871,026725,059106,026922
0000000042,0000002733,083006,017031,082999,057707,017367,088602,059772,026198,060000,026398
0000000043,0000002800,082708,016516,082701,058618,016852,088255,060675,025685,060896,025887
0000000044,0000002867,082382,016026,082373,059532,016362,087879,061580,025198,061795,025403
0000000045,0000002933,082040,015549,082031,060446,015885,087488,062486,024725,062694,024933
0000000046,0000003000,081685,015084,081675,061361,015421,087082,063392,024265,063594,024476
0000000047,0000003067,081301,014646,081289,062276,014983,086648,064298,023834,064493,024047
0000000048,0000003133,080903,014221,080890,063191,014558,086200,065203,023416,065392,023632
0000000049,0000003200,080491,013810,080477,064105,014147,085738,066107,023013,066290,023231
0000000050,0000003267,080051,013426,080037,065016,013764,085248,067008,022640,067185,022860
0000000051,0000003333,079598,013056,079583,065926,013395,084745,067908,022281,068078,022503
0000000052,0000003400,079132,012700,079116,066833,013040,084228,068805,021937,068969,022162
0000000053,0000003467,078640,012373,078622,067736,012713,083686,069697,021623,069855,021850
0000000054,0000003533,078135,012060,078116,068635,012401,083131,070585,021324,070737,021553
0000000055,0000003600,077618,011762,077597,069531,012104,082563,071470,021041,071616,021272
0000000056,0000003667,077076,011493,077054,070419,011836,081971,072348,020789,072488,021022
0000000057,0000003733,076521,011239,076499,071303,011583,081368,073220,020552,073354,020787
0000000058,0000003800,075955,011000,075931,072183,011345,080752,074088,020331,074217,020569
0000000059,0000003867,075366,010791,075341,073052,011137,080114,074946,020142,075069,020381
0000000060,0000003933,074766,010597,074739,073916,010944,079464,075798,019969,075915,020210
0000000061,0000004000,074155,010419,074126,074774,010767,078804,076643,019812,076756,020054
0000000062,0000004067,073522,010271,073492,075619,010620,078123,077477,019687,077584,019931
0000000063,0000004133,072879,010139,072848,076458,010489,077432,078303,019578,078405,019824
0000000064,0000004200,072226,010022,072193,077289,010374,076731,079122,019486,079219,019733
0000000065,0000004267,071553,009936,071519,078106,010290,076011,079926,019426,080018,019674
0000000066,0000004333,070871,009866,070836,078914,010221,075283,080722,019382,080809,019631
0000000067,0000004400,070179,009812,070143,079715,010168,074545,081509,019354,081592,019605
0000000068,0000004467,069470,009788,069432,080498,010146,073790,082279,019359,082358,019611
0000000069,0000004533,068753,009781,068713,081272,010140,073028,083040,019381,083114,019634
0000000070,0000004600,068028,009789,067986,082037,010149,072258,083792,019419,083862,019673
0000000071,0000004667,067286,009828,067244,082782,010190,071473,084524,019489,084590,019744
0000000072,0000004733,066538,009883,066494,083517,010247,070681,085246,019575,085307,019831
0000000073,0000004800,065782,009954,065737,084242,010319,069882,085957,019678,086015,019935
0000000074,0000004867,065013,010055,064966,084945,010423,069071,086647,019813,086701,020071
0000000075,0000004933,064238,010173,064189,085637,010542,068255,087325,019965,087376,020223
0000000076,0000005000,063457,010305,063406,086317,010676,067433,087992,020132,088039,020390
0000000077,0000005067,062664,010469,062612,086974,010842,066600,088636,020331,088680,020590
0000000078,0000005133,061866,010648,061813,087619,011023,065764,089267,020546,089308,020805
0000000079,0000005200,061064,010842,061008,088252,011219,064922,089886,020777,089924,021036
0000000080,0000005267,060252,011066,060195,088859,011445,064074,090480,021039,090514,021299
0000000081,0000005333,059436,011306,059378,089453,011686,063221,091060,021316,091092,021576
0000000082,0000005400,058617,011560,058557,090034,011943,062366,091627,021609,091657,021869
0000000083,0000005467,057791,011844,057729,090587,012229,061505,092168,021933,092195,022193
0000000084,0000005533,056962,012143,056899,091127,012530,060643,092694,022271,092719,022531
0000000085,0000005600,056131,012456,056066,091653,012845,059778,093206,022625,093230,022884
0000000086,0000005667,055295,012798,055228,092150,013189,058910,093690,023008,093712,023267
0000000087,0000005733,054457,013154,054390,092633,013548,058042,094160,023405,094179,023664
0000000088,0000005800,053619,013524,053549,093101,013920,057173,094614,023817,094632,024076
0000000089,0000005867,052778,013922,052707,093538,014320,056304,095039,024258,095056,024516
0000000090,0000005933,051937,014334,051864,093961,014734,055434,095449,024712,095464,024969
0000000091,0000006000,051095,014759,051021,094368,015162,054566,095843,025180,095858,025437
0000000092,0000006067,050254,015211,050178,094744,015616,053699,096206,025675,096220,025931
0000000093,0000006133,049414,015676,049337,095105,016083,052834,096554,026184,096567,026439
0000000094,0000006200,048574,016154,048496,095449,016563,051971,096885,026706,096898,026960
0000000095,0000006267,047738,016657,047658,095761,017069,051113,097185,027253,097198,027506
0000000096,0000006333,046904,017172,046822,096057,017586,050257,097469,027813,097481,028065
0000000097,0000006400,046071,017700,045988,096337,018116,049404,097736,028385,097748,028636
0000000098,0000006467,045244,018251,045159,096583,018670,048558,097970,028981,097983,029231
0000000099,0000006533,044420,018814,044334,096813,019235,047716,098188,029589,098201,029838
0000000100,0000006600,043599,019389,043512,097026,019812,046879,098390,030209,098403,030456
0000000101,0000006667,042786,019985,042697,097206,020411,046050,098558,030851,098572,031097
0000000102,0000006733,041977,020593,041887,097368,021021,045227,098709,031504,098723,031748
0000000103,0000006800,041172,021211,041081,097514,021642,044410,098843,032167,098859,032410
0000000104,0000006867,040378,021849,040285,097625,022282,043604,098943,032851,098960,033092
0000000105,0000006933,039589,022498,039495,097719,022933,042804,099027,033544,099045,033784
0000000106,0000007000,038805,023156,038710,097796,023594,042011,099093,034248,099113,034485
0000000107,0000007067,038034,023833,037937,097839,024273,041232,099125,034970,099147,035205
0000000108,0000007133,037269,024518,037171,097865,024961,040460,099140,035700,099164,035934
0000000109,0000007200,036511,025213,036411,097873,025657,039696,099138,036440,099164,036671
0000000110,0000007267,035767,025924,035666,097846,026371,038948,099102,037196,099130,037425
0000000111,0000007333,035030,026643,034929,097803,027092,038209,099049,037959,099080,038186
0000000112,0000007400,034302,027369,034199,097742,027821,037478,098979,038730,099012,038956
0000000113,0000007467,033590,028111,033486,097647,028565,036766,098875,039516,098910,039739
0000000114,0000007533,032886,028859,032781,097535,029315,036063,098754,040308,098792,040529
0000000115,0000007600,032192,029614,032085,097405,030073,035370,098616,041107,098657,041325
0000000116,0000007667,031515,030381,031408,097242,030842,034697,098444,041917,098489,042133
0000000117,0000007733,030849,031155,030740,097061,031618,034035,098256,042733,098304,042947
0000000118,0000007800,030192,031934,030082,096864,032399,033384,098051,043555,098102,043766
0000000119,0000007867,029555,032723,029445,096633,033191,032754,097813,044386,097867,044594
0000000120,0000007933,028929,033517,028818,096386,033987,032137,097558,045222,097616,045427
0000000121,0000008000,028313,034315,028202,096122,034787,031530,097287,046061,097349,046264
0000000122,0000008067,027720,035122,027607,095825,035596,030948,096984,046909,097050,047109
0000000123,0000008133,027138,035932,027025,095512,036408,030378,096664,047759,096735,047956
0000000124,0000008200,026568,036745,026453,095182,037224,029821,096329,048612,096403,048807
0000000125,0000008267,026021,037565,025906,094821,038045,029289,095962,049470,096041,049662
0000000126,0000008333,025486,038386,025371,094444,038868,028770,095579,050330,095663,050519
0000000127,0000008400,024964,039210,024848,094051,039694,028264,095182,051192,095270,051378
0000000128,0000008467,024467,040037,024350,093628,040523,027786,094753,052056,094847,052239
0000000129,0000008533,023983,040866,023865,093189,041354,027321,094310,052921,094408,053101
0000000130,0000008600,023512,041695,023394,092735,042185,026870,093852,053787,093955,053964
0000000131,0000008667,023068,042526,022949,092251,043017,026447,093365,054652,093473,054826
0000000132,0000008733,022637,043356,022518,091753,043850,026039,092863,055517,092977,055688
0000000133,0000008800,022219,044187,022100,091241,044682,025645,092348,056382,092467,056549
0000000134,0000008867,021830,045016,021710,090700,045513,025281,091804,057244,091929,057408
0000000135,0000008933,021455,045844,021334,090146,046343,024932,091248,058104,091377,058265
0000000136,0000009000,021094,046671,020973,089578,047171,024598,090677,058962,090813,059120
0000000137,0000009067,020762,047494,020641,088983,047996,024294,090081,059815,090222,059970
0000000138,0000009133,020444,048314,020323,088375,048818,024006,089472,060666,089619,060817
0000000139,0000009200,020142,049133,020020,087755,049638,023733,088850,061513,089003,061661
0000000140,0000009267,019869,049945,019747,087109,050451,023491,088204,062353,088363,062498
0000000141,0000009333,019611,050754,019489,086452,051262,023266,087546,063188,087711,063331
0000000142,0000009400,019368,051559,019246,085782,052068,023056,086876,064020,087048,064159
0000000143,0000009467,019156,052356,019034,085089,052866,022878,086184,064842,086362,064977
0000000144,0000009533,018959,053148,018837,084386,053660,022716,085481,065658,085665,065790
0000000145,0000009600,018778,053936,018656,083671,054448,022570,084767,066469,084958,066598
0000000146,0000009667,018627,054713,018506,082936,055227,022457,084033,067268,084230,067394
0000000147,0000009733,018493,055484,018371,082190,055999,022360,083289,068060,083492,068183
0000000148,0000009800,018374,056249,018252,081434,056765,022279,082535,068846,082745,068965
0000000149,0000009867,018286,057002,018165,080660,057519,022231,081763,069617,081979,069733
0000000150,0000009933,018215,057747,018094,079876,058265,022200,080982,070381,081205,070494
0000000151,0000010000,018159,058486,018038,079084,059005,022185,080193,071137,080422,071247
0000000152,0000010067,018135,059210,018014,078275,059730,022202,079387,071877,079623,071983
0000000153,0000010133,018126,059926,018006,077458,060447,022236,078574,072608,078817,072711
0000000154,0000010200,018134,060635,018014,076633,061156,022286,077753,073330,078003,073430
0000000155,0000010267,018173,061326,018054,075794,061848,022369,076919,074034,077175,074131
0000000156,0000010333,018229,062008,018110,074949,062530,022469,076078,074728,076341,074822
0000000157,0000010400,018300,062682,018181,074097,063204,022584,075230,075412,075500,075503
0000000158,0000010467,018402,063336,018284,073232,063859,022732,074371,076076,074648,076163
0000000159,0000010533,018520,063981,018403,072363,064505,022896,073507,076729,073791,076813
0000000160,0000010600,018654,064616,018537,071488,065140,023077,072638,077371,072929,077453
0000000161,0000010667,018819,065230,018703,070604,065754,023289,071760,077991,072057,078070
0000000162,0000010733,019000,065834,018885,069715,066358,023517,070878,078599,071182,078675
0000000163,0000010800,019196,066426,019082,068822,066951,023760,069992,079196,070303,079269
0000000164,0000010867,019423,066997,019309,067923,067521,024035,069099,079769,069417,079839
0000000165,0000010933,019665,067555,019552,067020,068080,024326,068204,080329,068528,080396
0000000166,0000011000,019922,068103,019810,066115,068628,024632,067306,080877,067637,080941
0000000167,0000011067,020210,068626,020098,065205,069151,024968,066404,081399,066742,081461
0000000168,0000011133,020512,069137,020401,064294,069662,025320,065501,081908,065846,081967
0000000169,0000011200,020829,069635,020719,063381,070160,025686,064597,082404,064948,082460
0000000170,0000011267,021175,070109,021066,062466,070633,026082,063691,082873,064048,082926
0000000171,0000011333,021535,070569,021427,061551,071093,026492,062785,083328,063149,083378
0000000172,0000011400,021910,071016,021803,060636,071540,026917,061879,083769,062249,083817
0000000173,0000011467,022313,071436,022207,059721,071960,027370,060974,084181,061351,084227
0000000174,0000011533,022729,071843,022624,058808,072366,027837,060070,084579,060453,084622
0000000175,0000011600,023160,072236,023056,057895,072758,028317,059167,084963,059557,085004
0000000176,0000011667,023617,072602,023514,056986,073123,028825,058269,085317,058664,085355
0000000177,0000011733,024087,072953,023986,056080,073474,029346,057372,085656,057774,085692
0000000178,0000011800,024571,073290,024471,055175,073810,029879,056479,085980,056887,086014
0000000179,0000011867,025080,073598,024981,054277,074117,030439,055591,086273,056005,086305
0000000180,0000011933,025602,073891,025504,053382,074410,031010,054707,086552,055127,086581
0000000181,0000012000,026136,074170,026039,052491,074687,031594,053827,086814,054253,086842
0000000182,0000012067,026694,074419,026599,051608,074936,032202,052956,087046,053387,087072
0000000183,0000012133,027264,074653,027170,050731,075169,032822,052090,087261,052527,087285
0000000184,0000012200,027846,074872,027753,049858,075387,033453,051228,087461,051671,087483
0000000185,0000012267,028450,075061,028359,048996,075574,034106,050378,087629,050827,087649
0000000186,0000012333,029065,075234,028975,048140,075746,034769,049535,087781,049988,087799
0000000187,0000012400,029690,075392,029602,047290,075903,035444,048697,087916,049156,087933
0000000188,0000012467,030337,075519,030250,046454,076029,036138,047873,088020,048337,088035
0000000189,0000012533,030993,075631,030908,045625,076139,036842,047057,088107,047525,088121
0000000190,0000012600,031660,075727,031576,044803,076234,037556,046248,088178,046721,088191
0000000191,0000012667,032345,075792,032262,043997,076298,038287,045454,088216,045933,088228
0000000192,0000012733,033039,075841,032958,043200,076346,039028,044670,088238,045153,088248
0000000193,0000012800,033742,075875,033663,042411,076378,039777,043894,088244,044381,088253
0000000194,0000012867,034463,075877,034384,041640,076379,040542,043136,088217,043628,088225
0000000195,0000012933,035191,075864,035114,040878,076364,041315,042388,088174,042884,088181
0000000196,0000013000,035927,075835,035852,040127,076333,042095,041649,088114,042149,088120
0000000197,0000013067,036678,075775,036604,039395,076271,042889,040931,088022,041435,088028
0000000198,0000013133,037435,075699,037363,038674,076194,043690,040223,087914,040731,087919
0000000199,0000013200,038200,075608,038130,037964,076101,044497,039526,087790,040038,087794
0000000200,0000013267,038978,075485,038908,037276,075976,045315,038851,087633,039367,087636
0000000201,0000013333,039761,075347,039693,036599,075837,046139,038188,087461,038707,087463
0000000202,0000013400,040550,075194,040484,035934,075682,046968,037537,087272,038059,087274
0000000203,0000013467,041349,075010,041285,035293,075496,047806,036910,087052,037435,087054
