DIgSILENT PowerFactory,20000410,2000
10,10A,00D
1,LC684-652A:Phase Voltage A/Terminal i,,,kV,0.00010000000,-6.637009,0.000000,22394,99998,1,1,P
2,LC684-652A:Phase Voltage C/Terminal i,,,kV,0.00010000000,-5.209153,0.000000,15861,99998,1,1,P
3,LC692-675:Phase Voltage A/Terminal i,,,kV,0.00010000000,-6.634907,0.000000,22219,99998,1,1,P
4,LC692-675:Phase Voltage B/Terminal i,,,kV,0.00010000000,-6.180865,0.000000,11183,99998,1,1,P
5,LC692-675:Phase Voltage C/Terminal i,,,kV,0.00010000000,-5.273213,0.000000,16591,99998,1,1,P
6,LOHL632-633:Phase Voltage A/Terminal i,,,kV,0.00010000000,-6.477890,0.000000,25973,99998,1,1,P
7,LOHL632-633:Phase Voltage B/Terminal i,,,kV,0.00010000000,-6.309768,0.000000,17787,99998,1,1,P
8,LOHL632-633:Phase Voltage C/Terminal i,,,kV,0.00010000000,-5.597670,0.000000,20146,99998,1,1,P
9,LOHL645-646:Phase Voltage B/Terminal i,,,kV,0.00010000000,-6.334848,0.000000,18381,99998,1,1,P
10,LOHL645-646:Phase Voltage C/Terminal i,,,kV,0.00010000000,-5.612357,0.000000,20437,99998,1,1,P
50
1
15000.000000,3001
11/11/2020,18:11:57.000000
11/11/2020,18:11:57.000000
ASCII
1.000000
0000000001,0000000000,092496,056535,092532,028815,057124,092799,030601,059446,031051,059535
0000000002,0000000067,093010,055710,093046,029219,056297,093295,031009,058583,031455,058675
0000000003,0000000133,093511,054884,093548,029637,055468,093778,031433,057720,031873,057814
0000000004,0000000200,093999,054056,094037,030071,054638,094248,031871,056855,032306,056952
0000000005,0000000267,094462,053226,094500,030535,053806,094689,032339,055989,032769,056090
0000000006,0000000333,094910,052395,094949,031014,052974,095117,032821,055124,033247,055227
0000000007,0000000400,095346,051565,095385,031507,052142,095530,033318,054258,033738,054365
0000000008,0000000467,095754,050735,095793,032029,051310,095914,033843,053395,034258,053505
0000000009,0000000533,096148,049905,096188,032565,050479,096283,034382,052533,034791,052646
0000000010,0000000600,096528,049077,096568,033115,049649,096637,034934,051672,035338,051788
0000000011,0000000667,096879,048251,096920,033692,048822,096961,035513,050815,035911,050934
0000000012,0000000733,097216,047428,097257,034282,047997,097270,036105,049961,036498,050084
0000000013,0000000800,097538,046606,097580,034885,047174,097563,036710,049110,037097,049235
0000000014,0000000867,097831,045790,097873,035514,046356,097826,037340,048265,037721,048394
0000000015,0000000933,098109,044977,098151,036156,045541,098072,037982,047424,038357,047556
0000000016,0000001000,098372,044167,098414,036809,044730,098303,038636,046587,039005,046722
0000000017,0000001067,098605,043364,098647,037486,043926,098503,039313,045758,039676,045897
0000000018,0000001133,098822,042566,098864,038175,043126,098686,040002,044935,040358,045077
0000000019,0000001200,099024,041772,099066,038875,042331,098853,040701,044117,041051,044262
0000000020,0000001267,099195,040988,099237,039596,041546,098988,041422,043310,041765,043458
0000000021,0000001333,099351,040209,099393,040328,040766,099107,042152,042509,042489,042660
0000000022,0000001400,099491,039436,099532,041071,039992,099209,042893,041714,043224,041869
0000000023,0000001467,099599,038674,099641,041833,039229,099279,043653,040933,043977,041091
0000000024,0000001533,099692,037920,099733,042604,038473,099333,044422,040159,044740,040320
0000000025,0000001600,099769,037171,099810,043385,037724,099370,045200,039392,045511,039557
0000000026,0000001667,099814,036437,099855,044183,036989,099374,045995,038642,046299,038809
0000000027,0000001733,099844,035711,099884,044989,036262,099362,046798,037899,047096,038070
0000000028,0000001800,099857,034992,099898,045803,035542,099334,047609,037165,047900,037339
0000000029,0000001867,099839,034289,099879,046633,034839,099272,048435,036449,048719,036626
0000000030,0000001933,099805,033595,099844,047470,034144,099195,049267,035742,049544,035923
0000000031,0000002000,099755,032909,099794,048313,033458,099101,050106,035045,050376,035228
0000000032,0000002067,099674,032242,099712,049170,032790,098974,050957,034367,051221,034554
0000000033,0000002133,099576,031584,099614,050032,032132,098832,051814,033700,052071,033890
0000000034,0000002200,099463,030936,099500,050900,031483,098673,052677,033043,052927,033236
0000000035,0000002267,099319,030308,099355,051778,030855,098482,053549,032408,053792,032604
0000000036,0000002333,099159,029690,099195,052661,030237,098275,054426,031784,054662,031983
0000000037,0000002400,098983,029083,099018,053548,029629,098053,055307,031172,055537,031374
0000000038,0000002467,098776,028498,098811,054444,029044,097798,056195,030583,056418,030788
0000000039,0000002533,098555,027923,098589,055342,028469,097528,057087,030006,057303,030214
0000000040,0000002600,098318,027361,098351,056244,027907,097243,057981,029442,058191,029652
0000000041,0000002667,098050,026821,098083,057151,027367,096927,058880,028903,059083,029116
0000000042,0000002733,097768,026294,097799,058060,026840,096596,059782,028376,059978,028592
0000000043,0000002800,097471,025779,097501,058971,026325,096249,060684,027863,060874,028081
0000000044,0000002867,097144,025289,097174,059885,025835,095873,061590,027376,061772,027597
0000000045,0000002933,096803,024811,096832,060799,025358,095482,062495,026903,062671,027127
0000000046,0000003000,096447,024347,096475,061714,024894,095076,063401,026443,063571,026670
0000000047,0000003067,096063,023908,096090,062629,024456,094642,064307,026012,064470,026241
0000000048,0000003133,095665,023484,095691,063544,024031,094194,065212,025594,065369,025826
0000000049,0000003200,095253,023072,095278,064457,023621,093732,066117,025191,066267,025425
0000000050,0000003267,094813,022688,094837,065369,023237,093242,067018,024818,067162,025054
0000000051,0000003333,094361,022319,094383,066278,022868,092739,067917,024459,068055,024698
0000000052,0000003400,093895,021963,093916,067186,022513,092222,068814,024114,068946,024356
0000000053,0000003467,093402,021635,093423,068088,022186,091680,069706,023801,069832,024044
0000000054,0000003533,092898,021323,092916,068987,021874,091125,070595,023502,070714,023748
0000000055,0000003600,092380,021024,092398,069883,021577,090557,071480,023219,071594,023466
0000000056,0000003667,091838,020756,091854,070772,021309,089965,072357,022967,072465,023216
0000000057,0000003733,091284,020502,091299,071656,021056,089362,073230,022730,073332,022982
0000000058,0000003800,090718,020263,090732,072535,020818,088746,074098,022509,074194,022763
0000000059,0000003867,090129,020054,090141,073405,020610,088108,074955,022320,075046,022575
0000000060,0000003933,089528,019860,089539,074268,020417,087458,075807,022147,075893,022404
0000000061,0000004000,088917,019682,088927,075126,020240,086798,076653,021990,076733,022248
0000000062,0000004067,088284,019534,088293,075972,020094,086117,077486,021865,077561,022125
0000000063,0000004133,087641,019402,087648,076810,019963,085426,078312,021756,078382,022018
0000000064,0000004200,086988,019285,086994,077642,019847,084725,079131,021663,079196,021927
0000000065,0000004267,086315,019199,086319,078458,019763,084005,079935,021603,079995,021868
0000000066,0000004333,085633,019129,085636,079267,019694,083277,080731,021560,080786,021826
0000000067,0000004400,084942,019074,084943,080067,019641,082539,081519,021532,081569,021799
0000000068,0000004467,084233,019051,084233,080851,019619,081784,082289,021537,082335,021806
0000000069,0000004533,083516,019043,083514,081625,019613,081022,083050,021559,083092,021828
0000000070,0000004600,082790,019052,082787,082389,019623,080252,083802,021596,083839,021867
0000000071,0000004667,082049,019091,082044,083135,019664,079467,084534,021667,084567,021938
0000000072,0000004733,081300,019146,081294,083870,019720,078675,085255,021753,085285,022026
0000000073,0000004800,080545,019216,080537,084594,019793,077876,085967,021856,085992,022129
0000000074,0000004867,079776,019318,079766,085298,019896,077065,086656,021991,086678,022265
0000000075,0000004933,079000,019435,078989,085989,020015,076249,087335,022142,087353,022417
0000000076,0000005000,078219,019568,078206,086670,020150,075427,088002,022310,088017,022585
0000000077,0000005067,077426,019732,077412,087327,020315,074594,088645,022509,088657,022784
0000000078,0000005133,076629,019910,076613,087972,020496,073758,089277,022724,089285,023000
0000000079,0000005200,075826,020104,075809,088604,020692,072916,089896,022955,089901,023231
0000000080,0000005267,075014,020329,074996,089211,020918,072067,090489,023217,090492,023493
0000000081,0000005333,074199,020568,074178,089805,021160,071215,091070,023494,091070,023770
0000000082,0000005400,073379,020823,073357,090386,021416,070360,091637,023787,091634,024063
0000000083,0000005467,072553,021107,072530,090940,021702,069499,092177,024111,092172,024387
0000000084,0000005533,071724,021405,071699,091480,022003,068637,092703,024449,092697,024725
0000000085,0000005600,070893,021719,070866,092005,022318,067772,093216,024802,093207,025079
0000000086,0000005667,070057,022061,070029,092503,022662,066904,093700,025185,093689,025461
0000000087,0000005733,069220,022417,069190,092985,023021,066036,094169,025583,094157,025858
0000000088,0000005800,068381,022787,068349,093453,023393,065167,094624,025995,094610,026270
0000000089,0000005867,067540,023185,067507,093891,023793,064298,095049,026435,095033,026710
0000000090,0000005933,066699,023597,066664,094314,024207,063428,095458,026890,095442,027164
0000000091,0000006000,065857,024022,065821,094721,024635,062560,095852,027358,095835,027631
0000000092,0000006067,065016,024474,064979,095097,025089,061693,096216,027853,096197,028126
0000000093,0000006133,064176,024939,064137,095457,025556,060828,096563,028362,096544,028633
0000000094,0000006200,063337,025417,063296,095802,026036,059965,096895,028884,096875,029154
0000000095,0000006267,062500,025920,062458,096114,026542,059107,097195,029431,097175,029700
0000000096,0000006333,061666,026435,061622,096410,027059,058251,097478,029991,097458,030259
0000000097,0000006400,060833,026963,060788,096689,027589,057398,097745,030563,097726,030830
0000000098,0000006467,060006,027514,059960,096936,028143,056552,097980,031159,097960,031425
0000000099,0000006533,059182,028077,059134,097166,028709,055710,098198,031767,098178,032032
0000000100,0000006600,058361,028652,058312,097379,029285,054873,098399,032387,098380,032650
0000000101,0000006667,057548,029248,057497,097558,029884,054044,098567,033029,098549,033291
0000000102,0000006733,056739,029856,056687,097721,030494,053221,098718,033682,098701,033942
0000000103,0000006800,055935,030474,055881,097866,031115,052403,098852,034345,098836,034604
0000000104,0000006867,055140,031112,055085,097978,031756,051597,098953,035029,098938,035286
0000000105,0000006933,054351,031760,054295,098072,032406,050798,099036,035722,099022,035978
0000000106,0000007000,053568,032419,053510,098149,033067,050005,099102,036426,099090,036679
0000000107,0000007067,052796,033095,052737,098192,033746,049225,099135,037148,099124,037399
0000000108,0000007133,052031,033781,051971,098217,034434,048454,099150,037878,099141,038128
0000000109,0000007200,051273,034475,051212,098225,035130,047690,099148,038618,099141,038866
0000000110,0000007267,050529,035186,050467,098199,035844,046942,099112,039374,099108,039619
0000000111,0000007333,049793,035905,049729,098155,036565,046203,099059,040137,099057,040381
0000000112,0000007400,049064,036632,048999,098095,037294,045472,098989,040908,098989,041150
0000000113,0000007467,048352,037373,048286,097999,038038,044760,098884,041694,098888,041933
0000000114,0000007533,047649,038122,047582,097887,038789,044057,098763,042486,098770,042723
0000000115,0000007600,046954,038877,046886,097758,039546,043364,098625,043285,098634,043519
0000000116,0000007667,046278,039644,046208,097594,040316,042691,098454,044095,098466,044327
0000000117,0000007733,045611,040417,045541,097414,041091,042029,098265,044911,098281,045141
0000000118,0000007800,044954,041196,044883,097217,041872,041378,098060,045733,098079,045960
0000000119,0000007867,044317,041986,044245,096986,042664,040748,097822,046564,097845,046789
0000000120,0000007933,043691,042780,043618,096738,043460,040131,097567,047400,097594,047621
0000000121,0000008000,043076,043578,043002,096474,044260,039524,097296,048239,097327,048459
0000000122,0000008067,042482,044385,042408,096177,045069,038942,096993,049086,097027,049303
0000000123,0000008133,041900,045195,041825,095864,045881,038372,096674,049937,096712,050150
0000000124,0000008200,041330,046008,041254,095535,046697,037815,096338,050790,096381,051001
0000000125,0000008267,040783,046827,040706,095174,047518,037283,095971,051648,096018,051856
0000000126,0000008333,040249,047649,040171,094797,048341,036764,095589,052508,095641,052713
0000000127,0000008400,039726,048473,039648,094404,049167,036258,095191,053370,095247,053572
0000000128,0000008467,039229,049300,039150,093980,049996,035779,094763,054234,094824,054433
0000000129,0000008533,038745,050128,038666,093542,050827,035315,094320,055099,094386,055295
0000000130,0000008600,038274,050958,038194,093088,051658,034864,093862,055965,093933,056158
0000000131,0000008667,037830,051788,037749,092604,052491,034441,093374,056830,093451,057020
0000000132,0000008733,037399,052619,037318,092106,053323,034033,092873,057695,092954,057882
0000000133,0000008800,036982,053449,036900,091593,054155,033639,092357,058560,092444,058743
0000000134,0000008867,036592,054279,036510,091053,054986,033275,091814,059421,091906,059602
0000000135,0000008933,036217,055107,036135,090498,055816,032926,091257,060282,091355,060459
0000000136,0000009000,035856,055933,035773,089930,056644,032592,090687,061140,090790,061314
0000000137,0000009067,035524,056756,035441,089335,057469,032288,090090,061993,090199,062164
0000000138,0000009133,035207,057577,035123,088728,058291,032000,089481,062843,089596,063012
0000000139,0000009200,034904,058395,034820,088107,059111,031727,088859,063691,088980,063856
0000000140,0000009267,034631,059208,034547,087462,059924,031485,088213,064531,088340,064692
0000000141,0000009333,034373,060017,034289,086804,060735,031260,087555,065366,087688,065525
0000000142,0000009400,034130,060822,034046,086135,061541,031050,086886,066198,087025,066353
0000000143,0000009467,033918,061619,033834,085442,062339,030872,086193,067019,086339,067171
0000000144,0000009533,033721,062411,033637,084738,063133,030710,085491,067836,085642,067984
0000000145,0000009600,033540,063198,033456,084024,063921,030564,084777,068647,084935,068792
0000000146,0000009667,033390,063975,033306,083288,064700,030451,084043,069446,084207,069588
0000000147,0000009733,033255,064746,033171,082543,065472,030354,083299,070238,083470,070377
0000000148,0000009800,033136,065512,033053,081787,066238,030273,082545,071024,082722,071159
0000000149,0000009867,033049,066264,032965,081012,066992,030225,081773,071795,081957,071928
0000000150,0000009933,032977,067010,032894,080229,067739,030194,080992,072559,081183,072688
0000000151,0000010000,032921,067749,032838,079437,068478,030179,080202,073315,080400,073441
0000000152,0000010067,032897,068473,032814,078628,069203,030196,079397,074055,079601,074178
0000000153,0000010133,032889,069189,032807,077811,069920,030230,078583,074786,078794,074905
0000000154,0000010200,032896,069897,032814,076986,070629,030280,077763,075508,077980,075624
0000000155,0000010267,032936,070589,032854,076147,071321,030363,076928,076212,077152,076325
0000000156,0000010333,032991,071271,032910,075301,072004,030463,076087,076906,076318,077016
0000000157,0000010400,033062,071944,032981,074449,072678,030578,075240,077590,075478,077697
0000000158,0000010467,033164,072599,033084,073585,073333,030726,074381,078254,074625,078357
0000000159,0000010533,033283,073244,033203,072715,073978,030890,073517,078907,073768,079007
0000000160,0000010600,033417,073879,033338,071841,074613,031070,072648,079549,072906,079647
0000000161,0000010667,033582,074493,033504,070956,075227,031283,071769,080169,072034,080264
0000000162,0000010733,033762,075096,033685,070068,075831,031511,070887,080777,071159,080869
0000000163,0000010800,033959,075689,033882,069175,076424,031754,070001,081374,070280,081463
0000000164,0000010867,034185,076259,034109,068275,076995,032029,069109,081947,069394,082033
0000000165,0000010933,034428,076818,034352,067373,077553,032320,068214,082507,068506,082590
0000000166,0000011000,034685,077365,034610,066467,078101,032626,067316,083055,067615,083135
0000000167,0000011067,034972,077889,034898,065558,078624,032962,066414,083577,066719,083655
0000000168,0000011133,035274,078400,035201,064646,079135,033313,065511,084086,065823,084161
0000000169,0000011200,035591,078898,035519,063733,079633,033680,064606,084582,064925,084654
0000000170,0000011267,035937,079371,035866,062819,080106,034076,063700,085051,064026,085120
0000000171,0000011333,036297,079832,036228,061904,080566,034486,062794,085505,063126,085572
0000000172,0000011400,036672,080279,036603,060988,081013,034911,061888,085946,062227,086011
0000000173,0000011467,037075,080699,037007,060074,081433,035364,060983,086359,061328,086421
0000000174,0000011533,037491,081106,037425,059160,081839,035830,060079,086757,060431,086817
0000000175,0000011600,037922,081499,037856,058248,082232,036311,059177,087141,059534,087198
0000000176,0000011667,038379,081864,038315,057339,082596,036819,058278,087495,058642,087550
0000000177,0000011733,038850,082215,038786,056432,082947,037339,057382,087834,057752,087886
0000000178,0000011800,039333,082552,039271,055528,083283,037873,056488,088158,056864,088208
0000000179,0000011867,039842,082860,039782,054630,083590,038433,055600,088451,055982,088500
0000000180,0000011933,040364,083154,040304,053735,083883,039004,054717,088729,055104,088776
0000000181,0000012000,040898,083433,040840,052844,084161,039588,053837,088992,054230,089036
0000000182,0000012067,041456,083682,041399,051961,084409,040196,052965,089223,053365,089266
0000000183,0000012133,042026,083916,041971,051083,084642,040816,052099,089439,052504,089479
0000000184,0000012200,042608,084135,042553,050210,084860,041447,051238,089639,051648,089677
0000000185,0000012267,043212,084323,043159,049348,085047,042100,050388,089807,050804,089843
0000000186,0000012333,043827,084497,043775,048492,085219,042763,049544,089958,049965,089994
0000000187,0000012400,044453,084655,044402,047643,085376,043437,048707,090094,049133,090128
0000000188,0000012467,045099,084782,045050,046806,085502,044132,047883,090198,048314,090230
0000000189,0000012533,045756,084893,045708,045977,085612,044836,047066,090285,047503,090315
0000000190,0000012600,046422,084990,046376,045156,085707,045550,046257,090356,046699,090385
0000000191,0000012667,047107,085055,047063,044350,085771,046281,045464,090394,045910,090422
0000000192,0000012733,047802,085104,047758,043552,085819,047022,044679,090416,045130,090443
0000000193,0000012800,048505,085138,048463,042763,085851,047771,043903,090422,044359,090447
0000000194,0000012867,049225,085140,049185,041992,085852,048536,043145,090395,043605,090419
0000000195,0000012933,049953,085127,049914,041231,085837,049309,042397,090352,042861,090375
0000000196,0000013000,050689,085098,050652,040479,085806,050089,041658,090292,042127,090315
0000000197,0000013067,051440,085038,051404,039748,085744,050883,040940,090200,041412,090222
0000000198,0000013133,052198,084962,052164,039027,085667,051684,040232,090092,040708,090113
0000000199,0000013200,052962,084871,052930,038316,085574,052491,039535,089968,040015,089988
0000000200,0000013267,053740,084748,053709,037628,085450,053309,038861,089811,039344,089831
0000000201,0000013333,054523,084610,054494,036952,085310,054133,038198,089639,038684,089657
0000000202,0000013400,055312,084457,055284,036287,085155,054962,037546,089450,038036,089468
0000000203,0000013467,056111,084273,056085,035646,084969,055800,036919,089230,037412,089248
