DIgSILENT PowerFactory,20000410,2000
10,10A,00D
1,LC684-652A:Phase Voltage A/Terminal i,,,kV,0.00010000000,-5.176050,0.000000,9958,99998,1,1,P
2,LC684-652A:Phase Voltage C/Terminal i,,,kV,0.00010000000,-4.306827,0.000000,-4038,99998,1,1,P
3,LC692-675:Phase Voltage A/Terminal i,,,kV,0.00010000000,-5.169863,0.000000,9879,99998,1,1,P
4,LC692-675:Phase Voltage B/Terminal i,,,kV,0.00010000000,-6.159164,0.000000,2456,99998,1,1,P
5,LC692-675:Phase Voltage C/Terminal i,,,kV,0.00010000000,-4.341581,0.000000,-3436,99998,1,1,P
6,LOHL632-633:Phase Voltage A/Terminal i,,,kV,0.00010000000,-5.683613,0.000000,17951,99998,1,1,P
7,LOHL632-633:Phase Voltage B/Terminal i,,,kV,0.00010000000,-6.322558,0.000000,14344,99998,1,1,P
8,LOHL632-633:Phase Voltage C/Terminal i,,,kV,0.00010000000,-5.385324,0.000000,10859,99998,1,1,P
9,LOHL645-646:Phase Voltage B/Terminal i,,,kV,0.00010000000,-6.350892,0.000000,14934,99998,1,1,P
10,LOHL645-646:Phase Voltage C/Terminal i,,,kV,0.00010000000,-5.398330,0.000000,11113,99998,1,1,P
50
1
15000.000000,3001
11/11/2020,17:06:54.000000
11/11/2020,17:06:54.000000
ASCII
1.000000
0000000001,0000000000,077887,047512,077881,028598,047807,084856,030729,057323,031212,057395
0000000002,0000000067,078400,046687,078396,029002,046980,085353,031137,056460,031615,056535
0000000003,0000000133,078902,045860,078898,029420,046152,085836,031560,055596,032034,055674
0000000004,0000000200,079390,045032,079386,029854,045322,086305,031999,054731,032467,054812
0000000005,0000000267,079852,044202,079849,030318,044490,086747,032467,053866,032930,053949
0000000006,0000000333,080301,043372,080299,030797,043658,087174,032949,053000,033407,053087
0000000007,0000000400,080736,042542,080734,031290,042826,087587,033446,052135,033899,052225
0000000008,0000000467,081144,041711,081143,031812,041994,087971,033971,051271,034418,051364
0000000009,0000000533,081538,040882,081537,032348,041163,088340,034510,050409,034951,050505
0000000010,0000000600,081918,040054,081917,032898,040333,088694,035062,049548,035498,049648
0000000011,0000000667,082269,039228,082269,033475,039505,089018,035641,048692,036072,048794
0000000012,0000000733,082606,038404,082607,034065,038680,089327,036233,047838,036658,047943
0000000013,0000000800,082929,037583,082929,034668,037857,089620,036838,046986,037257,047095
0000000014,0000000867,083222,036767,083222,035297,037039,089883,037468,046141,037881,046253
0000000015,0000000933,083500,035953,083500,035939,036225,090130,038110,045300,038517,045416
0000000016,0000001000,083763,035143,083763,036592,035413,090361,038764,044463,039165,044582
0000000017,0000001067,083995,034341,083996,037269,034609,090560,039441,043635,039836,043756
0000000018,0000001133,084213,033542,084214,037958,033810,090743,040129,042811,040518,042936
0000000019,0000001200,084415,032749,084416,038658,033015,090910,040829,041993,041211,042121
0000000020,0000001267,084586,031964,084587,039379,032229,091045,041549,041186,041925,041318
0000000021,0000001333,084741,031186,084742,040111,031449,091164,042280,040385,042650,040520
0000000022,0000001400,084881,030412,084882,040854,030675,091267,043021,039591,043384,039729
0000000023,0000001467,084990,029651,084990,041616,029913,091336,043781,038809,044138,038951
0000000024,0000001533,085082,028896,085083,042387,029157,091390,044550,038036,044900,038180
0000000025,0000001600,085159,028148,085160,043168,028408,091427,045328,037269,045671,037417
0000000026,0000001667,085205,027414,085205,043966,027673,091431,046123,036518,046460,036669
0000000027,0000001733,085234,026687,085234,044772,026946,091419,046926,035776,047256,035930
0000000028,0000001800,085248,025969,085247,045586,026226,091391,047737,035042,048060,035199
0000000029,0000001867,085230,025266,085229,046416,025522,091330,048563,034325,048879,034486
0000000030,0000001933,085195,024572,085194,047253,024828,091252,049395,033619,049705,033782
0000000031,0000002000,085146,023886,085144,048096,024142,091158,050234,032921,050537,033088
0000000032,0000002067,085064,023219,085062,048953,023474,091032,051085,032244,051382,032414
0000000033,0000002133,084967,022561,084964,049815,022815,090889,051942,031577,052232,031750
0000000034,0000002200,084854,021913,084850,050683,022167,090730,052805,030920,053087,031096
0000000035,0000002267,084709,021285,084705,051561,021538,090539,053677,030285,053953,030464
0000000036,0000002333,084549,020667,084544,052444,020920,090333,054554,029661,054823,029843
0000000037,0000002400,084373,020060,084368,053331,020313,090110,055435,029049,055697,029234
0000000038,0000002467,084167,019474,084161,054227,019727,089856,056323,028460,056579,028648
0000000039,0000002533,083945,018900,083938,055125,019153,089586,057215,027883,057463,028074
0000000040,0000002600,083708,018337,083700,056027,018590,089300,058109,027318,058351,027512
0000000041,0000002667,083441,017798,083432,056934,018051,088984,059008,026779,059244,026976
0000000042,0000002733,083158,017271,083149,057843,017524,088653,059909,026253,060138,026452
0000000043,0000002800,082861,016756,082851,058754,017009,088306,060812,025739,061034,025941
0000000044,0000002867,082534,016265,082523,059668,016519,087930,061717,025252,061933,025457
0000000045,0000002933,082193,015788,082181,060582,016042,087539,062623,024779,062832,024986
0000000046,0000003000,081838,015324,081824,061497,015577,087134,063529,024320,063732,024529
0000000047,0000003067,081453,014885,081439,062412,015139,086699,064435,023888,064631,024101
0000000048,0000003133,081055,014460,081040,063327,014715,086251,065340,023471,065529,023686
0000000049,0000003200,080643,014049,080627,064240,014304,085789,066244,023068,066427,023285
0000000050,0000003267,080204,013665,080187,065152,013921,085299,067146,022694,067322,022914
0000000051,0000003333,079751,013295,079733,066061,013552,084796,068045,022335,068216,022557
0000000052,0000003400,079285,012939,079265,066969,013196,084280,068942,021991,069107,022215
0000000053,0000003467,078793,012612,078772,067871,012870,083737,069834,021677,069992,021904
0000000054,0000003533,078288,012299,078266,068770,012558,083182,070723,021379,070875,021607
0000000055,0000003600,077770,012001,077747,069666,012260,082615,071608,021095,071754,021326
0000000056,0000003667,077228,011732,077204,070555,011992,082023,072485,020843,072625,021076
0000000057,0000003733,076674,011478,076648,071439,011739,081419,073357,020607,073492,020841
0000000058,0000003800,076108,011239,076081,072318,011501,080803,074226,020386,074355,020622
0000000059,0000003867,075519,011030,075491,073188,011294,080165,075083,020197,075207,020435
0000000060,0000003933,074919,010837,074889,074051,011101,079516,075935,020024,076053,020264
0000000061,0000004000,074307,010658,074276,074909,010924,078855,076781,019866,076894,020108
0000000062,0000004067,073675,010511,073642,075755,010777,078174,077614,019741,077722,019985
0000000063,0000004133,073032,010378,072998,076593,010646,077483,078440,019633,078543,019878
0000000064,0000004200,072378,010262,072343,077425,010531,076782,079259,019540,079357,019786
0000000065,0000004267,071706,010176,071669,078241,010446,076063,080063,019480,080156,019728
0000000066,0000004333,071024,010106,070985,079050,010378,075334,080859,019436,080947,019685
0000000067,0000004400,070332,010051,070293,079850,010325,074596,081647,019409,081730,019659
0000000068,0000004467,069623,010028,069582,080634,010303,073842,082417,019414,082496,019665
0000000069,0000004533,068906,010020,068863,081408,010297,073079,083178,019435,083252,019688
0000000070,0000004600,068180,010028,068136,082172,010306,072309,083929,019473,083999,019727
0000000071,0000004667,067439,010068,067394,082918,010347,071524,084661,019543,084727,019798
0000000072,0000004733,066691,010123,066644,083653,010404,070732,085383,019630,085445,019885
0000000073,0000004800,065935,010193,065886,084377,010476,069933,086095,019733,086153,019989
0000000074,0000004867,065166,010295,065116,085081,010580,069123,086784,019868,086839,020125
0000000075,0000004933,064391,010412,064339,085772,010699,068306,087463,020019,087514,020277
0000000076,0000005000,063609,010545,063556,086453,010833,067484,088130,020186,088177,020444
0000000077,0000005067,062817,010708,062762,087110,010999,066651,088773,020385,088817,020644
0000000078,0000005133,062019,010887,061963,087755,011179,065815,089404,020600,089446,020859
0000000079,0000005200,061216,011081,061158,088387,011375,064974,090023,020831,090061,021090
0000000080,0000005267,060405,011306,060345,088994,011602,064125,090617,021093,090652,021353
0000000081,0000005333,059589,011545,059528,089588,011843,063273,091197,021371,091230,021630
0000000082,0000005400,058770,011799,058707,090169,012100,062417,091765,021664,091795,021923
0000000083,0000005467,057944,012083,057879,090723,012386,061557,092305,021987,092333,022247
0000000084,0000005533,057115,012382,057049,091263,012686,060694,092831,022326,092857,022585
0000000085,0000005600,056283,012695,056216,091788,013002,059829,093344,022679,093367,022938
0000000086,0000005667,055448,013037,055378,092286,013346,058962,093828,023062,093849,023321
0000000087,0000005733,054610,013393,054539,092768,013704,058093,094297,023460,094317,023718
0000000088,0000005800,053771,013764,053699,093236,014077,057224,094752,023872,094770,024130
0000000089,0000005867,052930,014162,052857,093674,014477,056355,095176,024312,095194,024570
0000000090,0000005933,052089,014573,052014,094097,014891,055486,095586,024766,095602,025023
0000000091,0000006000,051248,014999,051171,094504,015319,054617,095980,025235,095995,025491
0000000092,0000006067,050407,015451,050328,094880,015773,053751,096344,025730,096358,025985
0000000093,0000006133,049567,015915,049487,095240,016240,052886,096691,026238,096705,026493
0000000094,0000006200,048727,016393,048646,095585,016720,052022,097023,026760,097036,027014
0000000095,0000006267,047891,016896,047808,095897,017225,051164,097323,027307,097335,027560
0000000096,0000006333,047056,017412,046972,096193,017743,050308,097606,027867,097619,028119
0000000097,0000006400,046224,017939,046138,096472,018273,049455,097873,028440,097886,028690
0000000098,0000006467,045397,018491,045309,096719,018827,048609,098108,029036,098121,029285
0000000099,0000006533,044573,019054,044484,096949,019392,047768,098326,029644,098339,029892
0000000100,0000006600,043752,019628,043662,097162,019969,046930,098527,030263,098541,030510
0000000101,0000006667,042939,020225,042847,097341,020568,046102,098695,030905,098709,031151
0000000102,0000006733,042130,020832,042037,097504,021178,045279,098846,031558,098861,031802
0000000103,0000006800,041325,021450,041231,097649,021798,044461,098980,032221,098997,032463
0000000104,0000006867,040531,022089,040435,097761,022439,043655,099081,032905,099098,033146
0000000105,0000006933,039742,022737,039644,097855,023090,042855,099164,033599,099183,033837
0000000106,0000007000,038958,023395,038860,097932,023750,042062,099230,034302,099251,034539
0000000107,0000007067,038186,024072,038087,097975,024429,041283,099263,035024,099285,035259
0000000108,0000007133,037422,024758,037321,098000,025117,040511,099278,035755,099302,035988
0000000109,0000007200,036663,025452,036561,098008,025814,039747,099276,036494,099302,036725
0000000110,0000007267,035919,026163,035816,097982,026528,038999,099240,037250,099268,037479
0000000111,0000007333,035183,026882,035079,097938,027249,038260,099187,038014,099217,038240
0000000112,0000007400,034455,027609,034349,097878,027978,037529,099116,038785,099150,039009
0000000113,0000007467,033742,028350,033636,097782,028722,036817,099012,039570,099048,039793
0000000114,0000007533,033039,029098,032931,097670,029472,036114,098891,040362,098930,040582
0000000115,0000007600,032344,029853,032235,097541,030229,035421,098753,041161,098795,041379
0000000116,0000007667,031668,030621,031558,097377,030999,034748,098582,041972,098626,042187
0000000117,0000007733,031001,031394,030890,097197,031775,034086,098393,042788,098441,043001
0000000118,0000007800,030344,032173,030232,097000,032556,033435,098188,043609,098240,043820
0000000119,0000007867,029708,032962,029595,096769,033347,032806,097950,044441,098005,044648
0000000120,0000007933,029082,033756,028968,096521,034143,032188,097695,045276,097754,045481
0000000121,0000008000,028466,034555,028351,096257,034944,031582,097424,046116,097487,046318
0000000122,0000008067,027873,035361,027757,095960,035753,030999,097121,046963,097188,047163
0000000123,0000008133,027291,036171,027174,095647,036565,030429,096801,047813,096872,048010
0000000124,0000008200,026720,036985,026603,095318,037380,029872,096466,048666,096541,048860
0000000125,0000008267,026174,037804,026056,094957,038202,029340,096099,049525,096179,049716
0000000126,0000008333,025639,038626,025521,094580,039025,028821,095717,050385,095801,050573
0000000127,0000008400,025117,039449,024998,094187,039851,028315,095319,051246,095408,051432
0000000128,0000008467,024620,040277,024500,093763,040680,027837,094891,052111,094984,052293
0000000129,0000008533,024136,041105,024015,093324,041510,027372,094447,052976,094546,053155
0000000130,0000008600,023665,041935,023544,092871,042342,026921,093989,053841,094093,054018
0000000131,0000008667,023220,042765,023099,092387,043174,026498,093502,054707,093611,054880
0000000132,0000008733,022789,043596,022667,091889,044007,026090,093001,055572,093115,055742
0000000133,0000008800,022372,044426,022250,091376,044839,025696,092485,056436,092604,056603
0000000134,0000008867,021983,045255,021860,090836,045670,025332,091942,057298,092067,057462
0000000135,0000008933,021608,046083,021484,090281,046499,024983,091385,058158,091515,058319
0000000136,0000009000,021247,046910,021123,089713,047328,024649,090815,059016,090951,059174
0000000137,0000009067,020914,047733,020791,089118,048152,024345,090218,059870,090360,060024
0000000138,0000009133,020597,048554,020473,088511,048975,024057,089609,060720,089757,060871
0000000139,0000009200,020294,049372,020170,087890,049794,023784,088987,061567,089141,061715
0000000140,0000009267,020021,050185,019897,087245,050608,023542,088341,062407,088501,062552
0000000141,0000009333,019763,050993,019639,086587,051418,023317,087683,063243,087849,063384
0000000142,0000009400,019521,051798,019396,085918,052225,023107,087014,064074,087185,064213
0000000143,0000009467,019309,052595,019184,085225,053023,022929,086321,064896,086499,065031
0000000144,0000009533,019112,053388,018987,084521,053816,022767,085618,065712,085803,065844
0000000145,0000009600,018930,054175,018806,083807,054605,022622,084905,066523,085095,066652
0000000146,0000009667,018780,054952,018655,083071,055383,022508,084170,067322,084368,067447
0000000147,0000009733,018645,055723,018521,082326,056156,022411,083426,068114,083630,068236
0000000148,0000009800,018527,056489,018402,081570,056922,022331,082673,068900,082883,069019
0000000149,0000009867,018439,057241,018315,080795,057676,022283,081901,069672,082117,069787
0000000150,0000009933,018367,057987,018243,080012,058422,022251,081120,070435,081343,070548
0000000151,0000010000,018312,058726,018188,079220,059162,022236,080330,071192,080560,071301
0000000152,0000010067,018287,059450,018164,078411,059887,022253,079525,071931,079761,072037
0000000153,0000010133,018279,060166,018156,077594,060604,022287,078711,072662,078955,072765
0000000154,0000010200,018287,060874,018164,076769,061312,022338,077891,073384,078141,073484
0000000155,0000010267,018326,061565,018204,075930,062004,022421,077056,074088,077313,074185
0000000156,0000010333,018381,062248,018259,075084,062687,022520,076215,074782,076479,074875
0000000157,0000010400,018452,062921,018331,074232,063361,022635,075367,075466,075638,075557
0000000158,0000010467,018555,063576,018434,073368,064016,022783,074509,076130,074786,076217
0000000159,0000010533,018673,064220,018553,072498,064661,022948,073645,076783,073929,076867
0000000160,0000010600,018807,064855,018687,071624,065297,023128,072775,077425,073066,077506
0000000161,0000010667,018972,065470,018853,070739,065911,023340,071897,078045,072195,078123
0000000162,0000010733,019153,066073,019035,069851,066515,023568,071015,078654,071320,078729
0000000163,0000010800,019349,066666,019231,068958,067108,023812,070129,079251,070440,079323
0000000164,0000010867,019576,067236,019459,068058,067678,024087,069237,079823,069555,079893
0000000165,0000010933,019818,067795,019702,067156,068237,024377,068341,080384,068666,080450
0000000166,0000011000,020075,068342,019960,066250,068784,024683,067444,080931,067775,080995
0000000167,0000011067,020362,068865,020248,065341,069308,025019,066542,081454,066880,081514
0000000168,0000011133,020665,069376,020551,064429,069818,025371,065639,081963,065983,082021
0000000169,0000011200,020981,069875,020869,063516,070317,025737,064734,082458,065085,082514
0000000170,0000011267,021327,070348,021216,062602,070790,026133,063828,082927,064186,082980
0000000171,0000011333,021688,070808,021577,061687,071250,026543,062922,083382,063287,083432
0000000172,0000011400,022062,071255,021953,060771,071696,026968,062016,083823,062387,083871
0000000173,0000011467,022465,071676,022357,059857,072116,027421,061111,084236,061488,084281
0000000174,0000011533,022882,072083,022774,058943,072523,027888,060207,084634,060591,084676
0000000175,0000011600,023312,072476,023206,058031,072915,028368,059305,085017,059695,085058
0000000176,0000011667,023770,072841,023664,057122,073280,028876,058406,085371,058802,085409
0000000177,0000011733,024240,073192,024136,056215,073630,029397,057510,085710,057912,085746
0000000178,0000011800,024724,073529,024621,055311,073966,029931,056616,086034,057024,086068
0000000179,0000011867,025233,073837,025131,054413,074274,030490,055728,086328,056143,086359
0000000180,0000011933,025755,074131,025654,053518,074566,031062,054845,086606,055265,086635
0000000181,0000012000,026289,074409,026189,052627,074844,031646,053965,086869,054391,086896
0000000182,0000012067,026847,074658,026749,051744,075092,032254,053093,087100,053525,087125
0000000183,0000012133,027417,074892,027320,050866,075325,032873,052227,087316,052665,087339
0000000184,0000012200,027998,075111,027903,049993,075543,033504,051366,087515,051809,087537
0000000185,0000012267,028602,075300,028508,049131,075731,034157,050516,087683,050964,087703
0000000186,0000012333,029217,075473,029125,048275,075903,034820,049672,087835,050126,087853
0000000187,0000012400,029843,075631,029752,047426,076060,035495,048835,087971,049294,087987
0000000188,0000012467,030490,075759,030400,046589,076186,036189,048011,088074,048475,088089
0000000189,0000012533,031146,075870,031058,045760,076296,036893,047194,088161,047663,088175
0000000190,0000012600,031812,075966,031725,044939,076391,037607,046385,088232,046859,088245
0000000191,0000012667,032498,076031,032412,044133,076454,038339,045592,088271,046071,088282
0000000192,0000012733,033192,076081,033108,043335,076502,039079,044807,088293,045291,088302
0000000193,0000012800,033895,076114,033813,042546,076535,039828,044031,088298,044519,088307
0000000194,0000012867,034615,076117,034534,041775,076535,040593,043273,088272,043766,088279
0000000195,0000012933,035343,076104,035264,041014,076521,041366,042525,088228,043022,088235
0000000196,0000013000,036079,076075,036001,040262,076490,042146,041786,088169,042287,088174
0000000197,0000013067,036830,076014,036754,039531,076428,042940,041068,088077,041573,088081
0000000198,0000013133,037588,075939,037513,038810,076351,043741,040360,087969,040869,087973
0000000199,0000013200,038353,075847,038279,038099,076257,044548,039663,087844,040176,087847
0000000200,0000013267,039130,075725,039058,037411,076133,045366,038989,087688,039504,087690
0000000201,0000013333,039913,075587,039843,036735,075994,046190,038326,087515,038845,087517
0000000202,0000013400,040702,075434,040634,036070,075838,047019,037674,087327,038197,087328
0000000203,0000013467,041502,075250,041435,035429,075652,047858,037047,087106,037573,087107
