DIgSILENT PowerFactory,20000410,2000
10,10A,00D
1,LC684-652A:Phase Voltage A/Terminal i,,,kV,0.00010000000,-5.646412,0.000000,7,99998,1,1,P
2,LC684-652A:Phase Voltage C/Terminal i,,,kV,0.00010000000,-5.583338,0.000000,15115,99998,1,1,P
3,LC692-675:Phase Voltage A/Terminal i,,,kV,0.00010000000,-5.639248,0.000000,-251,99998,1,1,P
4,LC692-675:Phase Voltage B/Terminal i,,,kV,0.00010000000,-6.055839,0.000000,12485,99998,1,1,P
5,LC692-675:Phase Voltage C/Terminal i,,,kV,0.00010000000,-5.607574,0.000000,15505,99998,1,1,P
6,LOHL632-633:Phase Voltage A/Terminal i,,,kV,0.00010000000,-5.884499,0.000000,10017,99998,1,1,P
7,LOHL632-633:Phase Voltage B/Terminal i,,,kV,0.00010000000,-6.267661,0.000000,19216,99998,1,1,P
8,LOHL632-633:Phase Voltage C/Terminal i,,,kV,0.00010000000,-5.853670,0.000000,19239,99998,1,1,P
9,LOHL645-646:Phase Voltage B/Terminal i,,,kV,0.00010000000,-6.295919,0.000000,19796,99998,1,1,P
10,LOHL645-646:Phase Voltage C/Terminal i,,,kV,0.00010000000,-5.864647,0.000000,19466,99998,1,1,P
50
1
15000.000000,3001
11/11/2020,18:17:35.000000
11/11/2020,18:17:35.000000
ASCII
1.000000
0000000001,0000000000,082590,060277,082575,027565,060467,086865,030180,062006,030662,062058
0000000002,0000000067,083104,059452,083090,027968,059640,087362,030588,061143,031065,061198
0000000003,0000000133,083605,058625,083591,028387,058812,087845,031012,060280,031484,060337
0000000004,0000000200,084093,057797,084080,028821,057982,088314,031450,059415,031917,059475
0000000005,0000000267,084556,056967,084543,029285,057150,088756,031918,058549,032380,058613
0000000006,0000000333,085004,056137,084992,029763,056318,089183,032400,057684,032857,057750
0000000007,0000000400,085440,055307,085428,030257,055486,089596,032897,056818,033349,056888
0000000008,0000000467,085848,054476,085837,030779,054654,089980,033422,055955,033868,056028
0000000009,0000000533,086242,053647,086231,031315,053823,090349,033961,055093,034402,055168
0000000010,0000000600,086622,052819,086611,031864,052993,090703,034513,054232,034949,054311
0000000011,0000000667,086973,051993,086963,032442,052165,091027,035092,053375,035522,053457
0000000012,0000000733,087310,051170,087300,033032,051340,091336,035684,052521,036108,052606
0000000013,0000000800,087632,050348,087623,033635,050517,091629,036289,051670,036707,051758
0000000014,0000000867,087925,049532,087916,034264,049699,091892,036919,050825,037331,050917
0000000015,0000000933,088203,048718,088194,034905,048885,092139,037561,049984,037967,050079
0000000016,0000001000,088466,047908,088457,035559,048073,092370,038215,049147,038615,049245
0000000017,0000001067,088699,047106,088690,036236,047269,092569,038892,048318,039286,048420
0000000018,0000001133,088916,046308,088908,036925,046470,092752,039580,047495,039968,047600
0000000019,0000001200,089118,045514,089110,037624,045675,092919,040280,046677,040661,046785
0000000020,0000001267,089289,044729,089281,038346,044889,093054,041001,045870,041376,045981
0000000021,0000001333,089445,043951,089436,039078,044109,093173,041731,045069,042100,045183
0000000022,0000001400,089585,043178,089576,039820,043335,093275,042472,044274,042834,044392
0000000023,0000001467,089693,042416,089684,040583,042573,093345,043232,043493,043588,043614
0000000024,0000001533,089786,041661,089777,041354,041817,093399,044001,042719,044350,042843
0000000025,0000001600,089863,040913,089854,042134,041068,093436,044779,041952,045122,042080
0000000026,0000001667,089908,040179,089899,042933,040333,093440,045574,041202,045910,041332
0000000027,0000001733,089938,039453,089928,043739,039606,093428,046377,040459,046706,040593
0000000028,0000001800,089951,038734,089941,044553,038886,093400,047188,039725,047511,039862
0000000029,0000001867,089933,038031,089922,045383,038182,093338,048014,039009,048329,039149
0000000030,0000001933,089899,037337,089888,046219,037488,093261,048846,038302,049155,038445
0000000031,0000002000,089849,036651,089837,047063,036802,093167,049685,037605,049987,037751
0000000032,0000002067,089768,035984,089755,047919,036134,093041,050536,036927,050832,037077
0000000033,0000002133,089670,035326,089658,048782,035475,092898,051393,036260,051682,036413
0000000034,0000002200,089557,034678,089544,049650,034827,092739,052256,035603,052538,035759
0000000035,0000002267,089413,034050,089399,050528,034198,092548,053128,034968,053403,035127
0000000036,0000002333,089253,033432,089238,051411,033580,092341,054005,034344,054273,034506
0000000037,0000002400,089077,032825,089062,052298,032973,092119,054886,033732,055147,033897
0000000038,0000002467,088870,032239,088855,053193,032387,091864,055774,033143,056029,033311
0000000039,0000002533,088649,031665,088632,054092,031813,091595,056666,032566,056914,032737
0000000040,0000002600,088412,031103,088394,054994,031250,091309,057560,032002,057801,032175
0000000041,0000002667,088144,030563,088126,055901,030711,090993,058459,031463,058694,031639
0000000042,0000002733,087862,030036,087843,056810,030184,090662,059361,030936,059588,031115
0000000043,0000002800,087565,029521,087545,057721,029669,090315,060263,030423,060485,030604
0000000044,0000002867,087238,029031,087217,058634,029179,089939,061169,029936,061383,030120
0000000045,0000002933,086897,028553,086875,059549,028702,089548,062074,029463,062282,029650
0000000046,0000003000,086541,028089,086518,060464,028237,089142,062980,029003,063182,029193
0000000047,0000003067,086157,027650,086133,061379,027799,088708,063886,028572,064081,028764
0000000048,0000003133,085759,027225,085734,062293,027375,088260,064791,028154,064980,028349
0000000049,0000003200,085347,026814,085321,063207,026964,087798,065695,027751,065878,027948
0000000050,0000003267,084907,026430,084880,064118,026581,087308,066597,027378,066773,027577
0000000051,0000003333,084455,026060,084427,065028,026212,086805,067496,027019,067666,027220
0000000052,0000003400,083989,025705,083959,065935,025856,086289,068393,026674,068557,026879
0000000053,0000003467,083496,025377,083466,066838,025530,085746,069285,026361,069443,026567
0000000054,0000003533,082992,025065,082960,067737,025218,085191,070174,026062,070325,026270
0000000055,0000003600,082474,024766,082441,068633,024920,084624,071059,025779,071204,025989
0000000056,0000003667,081932,024497,081898,069522,024652,084031,071936,025527,072076,025739
0000000057,0000003733,081378,024243,081342,070406,024399,083428,072808,025290,072943,025505
0000000058,0000003800,080812,024004,080775,071285,024161,082812,073677,025069,073805,025286
0000000059,0000003867,080223,023796,080184,072154,023954,082174,074534,024880,074657,025098
0000000060,0000003933,079622,023602,079583,073018,023761,081524,075386,024707,075503,024927
0000000061,0000004000,079011,023424,078970,073876,023584,080864,076232,024550,076344,024771
0000000062,0000004067,078378,023276,078336,074721,023437,080183,077065,024425,077172,024648
0000000063,0000004133,077735,023143,077692,075560,023306,079492,077891,024316,077993,024541
0000000064,0000004200,077082,023027,077037,076392,023191,078791,078710,024223,078807,024450
0000000065,0000004267,076409,022941,076363,077208,023106,078071,079514,024163,079606,024391
0000000066,0000004333,075727,022871,075679,078017,023038,077343,080310,024120,080397,024349
0000000067,0000004400,075036,022816,074986,078817,022984,076605,081098,024092,081180,024322
0000000068,0000004467,074327,022793,074276,079600,022963,075850,081868,024097,081946,024329
0000000069,0000004533,073610,022785,073557,080374,022957,075088,082629,024119,082702,024351
0000000070,0000004600,072884,022793,072830,081139,022966,074318,083380,024156,083450,024390
0000000071,0000004667,072143,022833,072087,081884,023007,073533,084112,024227,084178,024461
0000000072,0000004733,071394,022888,071337,082619,023064,072741,084834,024313,084895,024549
0000000073,0000004800,070639,022958,070580,083344,023136,071942,085546,024416,085603,024652
0000000074,0000004867,069870,023060,069810,084047,023240,071131,086235,024551,086289,024788
0000000075,0000004933,069094,023177,069033,084739,023359,070315,086914,024702,086964,024940
0000000076,0000005000,068313,023310,068250,085420,023493,069493,087581,024870,087627,025108
0000000077,0000005067,067520,023473,067456,086077,023659,068660,088224,025069,088268,025307
0000000078,0000005133,066723,023652,066656,086721,023839,067824,088855,025284,088896,025522
0000000079,0000005200,065920,023846,065852,087354,024035,066982,089474,025515,089512,025753
0000000080,0000005267,065108,024071,065039,087961,024262,066134,090068,025777,090103,026016
0000000081,0000005333,064293,024310,064222,088555,024503,065281,090648,026054,090680,026293
0000000082,0000005400,063473,024564,063401,089136,024760,064426,091216,026347,091245,026586
0000000083,0000005467,062647,024849,062573,089690,025046,063565,091756,026671,091783,026910
0000000084,0000005533,061818,025147,061743,090229,025346,062703,092282,027009,092307,027248
0000000085,0000005600,060987,025460,060910,090755,025662,061838,092795,027362,092818,027601
0000000086,0000005667,060151,025802,060072,091252,026006,060971,093279,027745,093300,027984
0000000087,0000005733,059314,026159,059233,091735,026364,060102,093748,028143,093767,028381
0000000088,0000005800,058475,026529,058393,092203,026737,059233,094203,028555,094220,028793
0000000089,0000005867,057634,026927,057550,092641,027137,058364,094627,028995,094644,029233
0000000090,0000005933,056793,027339,056708,093063,027551,057495,095037,029450,095052,029686
0000000091,0000006000,055951,027764,055865,093471,027979,056626,095431,029918,095446,030154
0000000092,0000006067,055110,028216,055022,093847,028433,055759,095795,030413,095808,030648
0000000093,0000006133,054270,028681,054180,094207,028900,054895,096142,030922,096155,031156
0000000094,0000006200,053431,029158,053340,094551,029380,054031,096474,031444,096486,031677
0000000095,0000006267,052594,029661,052502,094864,029885,053173,096774,031991,096786,032223
0000000096,0000006333,051760,030177,051666,095159,030403,052317,097057,032551,097069,032782
0000000097,0000006400,050927,030704,050832,095439,030933,051464,097324,033123,097336,033353
0000000098,0000006467,050100,031256,050003,095686,031487,050618,097559,033719,097571,033948
0000000099,0000006533,049276,031819,049178,095915,032052,049776,097777,034327,097789,034555
0000000100,0000006600,048455,032393,048355,096129,032629,048939,097978,034947,097991,035173
0000000101,0000006667,047642,032990,047541,096308,033228,048110,098146,035589,098160,035814
0000000102,0000006733,046833,033597,046731,096471,033838,047287,098297,036242,098312,036465
0000000103,0000006800,046029,034215,045925,096616,034458,046470,098431,036905,098447,037127
0000000104,0000006867,045234,034854,045129,096727,035099,045664,098532,037589,098548,037809
0000000105,0000006933,044445,035502,044338,096822,035750,044864,098615,038282,098633,038501
0000000106,0000007000,043662,036160,043553,096899,036410,044071,098681,038986,098701,039202
0000000107,0000007067,042890,036837,042781,096941,037089,043292,098714,039708,098735,039922
0000000108,0000007133,042125,037523,042015,096967,037777,042520,098729,040438,098752,040651
0000000109,0000007200,041367,038217,041255,096975,038474,041756,098727,041178,098752,041388
0000000110,0000007267,040623,038928,040510,096949,039188,041008,098691,041934,098718,042142
0000000111,0000007333,039887,039647,039773,096905,039909,040269,098638,042697,098668,042904
0000000112,0000007400,039158,040374,039043,096844,040638,039538,098567,043468,098600,043673
0000000113,0000007467,038446,041115,038330,096749,041382,038826,098463,044254,098498,044456
0000000114,0000007533,037743,041864,037625,096637,042132,038123,098342,045046,098380,045246
0000000115,0000007600,037048,042619,036929,096508,042889,037430,098204,045845,098245,046042
0000000116,0000007667,036372,043386,036252,096344,043659,036757,098033,046655,098077,046850
0000000117,0000007733,035705,044159,035584,096164,044435,036095,097844,047471,097892,047664
0000000118,0000007800,035048,044938,034926,095966,045216,035444,097639,048293,097690,048483
0000000119,0000007867,034411,045728,034289,095736,046007,034814,097401,049124,097455,049311
0000000120,0000007933,033785,046521,033662,095488,046803,034197,097146,049960,097204,050144
0000000121,0000008000,033170,047320,033045,095224,047604,033590,096875,050799,096937,050981
0000000122,0000008067,032576,048126,032451,094927,048413,033008,096572,051646,096638,051826
0000000123,0000008133,031994,048936,031868,094614,049225,032438,096252,052497,096323,052673
0000000124,0000008200,031424,049750,031297,094285,050040,031881,095917,053350,095992,053524
0000000125,0000008267,030877,050569,030750,093923,050862,031349,095550,054208,095629,054379
0000000126,0000008333,030343,051391,030214,093546,051685,030830,095168,055068,095251,055236
0000000127,0000008400,029820,052214,029691,093154,052511,030324,094770,055930,094858,056095
0000000128,0000008467,029323,053042,029194,092730,053340,029846,094342,056794,094435,056956
0000000129,0000008533,028839,053870,028709,092291,054170,029381,093899,057659,093996,057818
0000000130,0000008600,028368,054700,028238,091837,055002,028930,093440,058525,093543,058681
0000000131,0000008667,027924,055530,027793,091354,055834,028507,092953,059390,093061,059543
0000000132,0000008733,027493,056361,027361,090856,056667,028099,092452,060255,092565,060405
0000000133,0000008800,027076,057191,026944,090343,057499,027705,091936,061120,092055,061266
0000000134,0000008867,026686,058020,026554,089803,058330,027341,091393,061981,091517,062125
0000000135,0000008933,026311,058848,026178,089248,059159,026992,090836,062842,090966,062982
0000000136,0000009000,025950,059675,025817,088680,059988,026658,090266,063700,090401,063837
0000000137,0000009067,025618,060498,025484,088085,060812,026354,089669,064553,089810,064687
0000000138,0000009133,025301,061319,025167,087477,061635,026066,089060,065403,089207,065534
0000000139,0000009200,024998,062137,024864,086857,062454,025793,088438,066251,088591,066378
0000000140,0000009267,024725,062950,024591,086211,063268,025551,087792,067091,087951,067215
0000000141,0000009333,024467,063758,024333,085554,064078,025326,087134,067926,087299,068048
0000000142,0000009400,024224,064564,024090,084884,064885,025116,086465,068758,086636,068876
0000000143,0000009467,024012,065360,023878,084192,065683,024938,085772,069579,085950,069694
0000000144,0000009533,023815,066153,023681,083488,066476,024776,085069,070396,085253,070507
0000000145,0000009600,023634,066940,023499,082774,067265,024630,084356,071207,084546,071315
0000000146,0000009667,023484,067717,023349,082038,068043,024517,083621,072006,083818,072111
0000000147,0000009733,023349,068488,023215,081292,068815,024420,082877,072798,083080,072900
0000000148,0000009800,023230,069254,023096,080537,069582,024340,082124,073584,082333,073682
0000000149,0000009867,023143,070006,023009,079762,070335,024292,081352,074355,081568,074450
0000000150,0000009933,023071,070752,022937,078979,071082,024260,080571,075119,080793,075211
0000000151,0000010000,023015,071491,022882,078186,071822,024245,079781,075875,080010,075964
0000000152,0000010067,022991,072215,022858,077377,072547,024262,078976,076615,079211,076700
0000000153,0000010133,022983,072931,022850,076560,073263,024296,078162,077346,078405,077428
0000000154,0000010200,022990,073639,022858,075736,073972,024346,077342,078068,077591,078147
0000000155,0000010267,023030,074330,022898,074897,074664,024429,076507,078772,076763,078848
0000000156,0000010333,023085,075013,022953,074051,075347,024529,075666,079466,075929,079539
0000000157,0000010400,023156,075686,023025,073199,076021,024644,074819,080150,075088,080220
0000000158,0000010467,023258,076341,023128,072335,076676,024792,073960,080814,074236,080880
0000000159,0000010533,023377,076986,023247,071465,077321,024956,073096,081467,073379,081530
0000000160,0000010600,023511,077620,023381,070590,077957,025137,072226,082109,072517,082170
0000000161,0000010667,023676,078235,023547,069706,078571,025349,071348,082729,071645,082787
0000000162,0000010733,023856,078838,023728,068817,079175,025577,070466,083337,070770,083392
0000000163,0000010800,024053,079431,023925,067925,079768,025820,069580,083934,069891,083986
0000000164,0000010867,024280,080001,024153,067025,080338,026095,068688,084507,069005,084556
0000000165,0000010933,024522,080560,024396,066122,080897,026386,067792,085067,068116,085113
0000000166,0000011000,024779,081107,024654,065217,081444,026692,066895,085615,067225,085658
0000000167,0000011067,025066,081631,024942,064307,081967,027028,065993,086137,066330,086178
0000000168,0000011133,025368,082141,025245,063396,082478,027380,065090,086646,065434,086684
0000000169,0000011200,025685,082640,025563,062483,082977,027746,064185,087142,064536,087177
0000000170,0000011267,026031,083113,025910,061568,083450,028142,063279,087611,063636,087643
0000000171,0000011333,026391,083573,026271,060653,083909,028552,062373,088065,062737,088095
0000000172,0000011400,026766,084021,026647,059738,084356,028977,061467,088506,061837,088534
0000000173,0000011467,027169,084441,027051,058824,084776,029430,060562,088919,060939,088944
0000000174,0000011533,027586,084848,027468,057910,085183,029897,059658,089317,060041,089340
0000000175,0000011600,028016,085241,027900,056998,085575,030377,058756,089701,059145,089721
0000000176,0000011667,028473,085606,028358,056089,085940,030885,057857,090055,058252,090072
0000000177,0000011733,028944,085957,028830,055182,086290,031406,056961,090394,057362,090409
0000000178,0000011800,029427,086294,029314,054278,086626,031939,056067,090718,056475,090731
0000000179,0000011867,029936,086602,029825,053379,086934,032499,055179,091011,055593,091023
0000000180,0000011933,030458,086896,030348,052485,087226,033070,054296,091289,054715,091299
0000000181,0000012000,030992,087174,030883,051593,087504,033655,053416,091552,053841,091559
0000000182,0000012067,031550,087423,031443,050711,087752,034262,052544,091783,052975,091789
0000000183,0000012133,032120,087657,032014,049833,087985,034882,051678,091999,052115,092002
0000000184,0000012200,032702,087876,032597,048960,088203,035513,050817,092199,051259,092200
0000000185,0000012267,033306,088065,033202,048098,088391,036166,049967,092367,050415,092366
0000000186,0000012333,033921,088238,033819,047242,088563,036829,049123,092518,049576,092516
0000000187,0000012400,034547,088397,034446,046393,088720,037504,048286,092654,048744,092651
0000000188,0000012467,035193,088524,035094,045556,088846,038198,047462,092758,047925,092752
0000000189,0000012533,035850,088635,035751,044727,088956,038902,046645,092845,047114,092838
0000000190,0000012600,036516,088731,036419,043905,089051,039616,045836,092916,046309,092908
0000000191,0000012667,037201,088796,037106,043100,089114,040348,045043,092954,045521,092945
0000000192,0000012733,037896,088846,037802,042302,089162,041088,044258,092976,044741,092966
0000000193,0000012800,038599,088879,038506,041513,089194,041837,043482,092982,043969,092970
0000000194,0000012867,039319,088882,039228,040742,089195,042602,042724,092955,043216,092942
0000000195,0000012933,040047,088869,039958,039981,089180,043375,041976,092912,042472,092898
0000000196,0000013000,040783,088840,040695,039229,089150,044155,041237,092852,041737,092838
0000000197,0000013067,041534,088780,041448,038497,089088,044949,040519,092760,041023,092745
0000000198,0000013133,042292,088704,042207,037776,089011,045750,039811,092652,040319,092636
0000000199,0000013200,043056,088612,042973,037066,088917,046557,039114,092528,039626,092511
0000000200,0000013267,043834,088490,043752,036378,088793,047375,038440,092371,038955,092353
0000000201,0000013333,044617,088352,044537,035701,088653,048199,037777,092199,038295,092180
0000000202,0000013400,045406,088199,045328,035036,088498,049028,037125,092010,037647,091991
0000000203,0000013467,046206,088015,046129,034396,088312,049866,036498,091790,037023,091771
