DIgSILENT PowerFactory,20000410,2000
10,10A,00D
1,LC684-652A:Phase Voltage A/Terminal i,,,kV,0.00010000000,-6.530906,0.000000,20962,99998,1,1,P
2,LC684-652A:Phase Voltage C/Terminal i,,,kV,0.00010000000,-5.712104,0.000000,17104,99998,1,1,P
3,LC692-675:Phase Voltage A/Terminal i,,,kV,0.00010000000,-6.522810,0.000000,20732,99998,1,1,P
4,LC692-675:Phase Voltage B/Terminal i,,,kV,0.00010000000,-5.642863,0.000000,13595,99998,1,1,P
5,LC692-675:Phase Voltage C/Terminal i,,,kV,0.00010000000,-5.727199,0.000000,17310,99998,1,1,P
6,LOHL632-633:Phase Voltage A/Terminal i,,,kV,0.00010000000,-6.431955,0.000000,22640,99998,1,1,P
7,LOHL632-633:Phase Voltage B/Terminal i,,,kV,0.00010000000,-6.066686,0.000000,21550,99998,1,1,P
8,LOHL632-633:Phase Voltage C/Terminal i,,,kV,0.00010000000,-5.958659,0.000000,21762,99998,1,1,P
9,LOHL645-646:Phase Voltage B/Terminal i,,,kV,0.00010000000,-6.092527,0.000000,22075,99998,1,1,P
10,LOHL645-646:Phase Voltage C/Terminal i,,,kV,0.00010000000,-5.971765,0.000000,22020,99998,1,1,P
50
1
15000.000000,3001
11/11/2020,16:53:16.000000
11/11/2020,16:53:16.000000
ASCII
1.000000
0000000001,0000000000,091435,061565,091411,023435,061664,092339,028170,063056,028628,063129
0000000002,0000000067,091949,060740,091925,023839,060837,092836,028579,062193,029031,062269
0000000003,0000000133,092450,059913,092427,024257,060008,093319,029002,061329,029450,061408
0000000004,0000000200,092938,059085,092916,024691,059178,093789,029440,060465,029883,060546
0000000005,0000000267,093401,058255,093379,025155,058346,094230,029908,059599,030346,059684
0000000006,0000000333,093849,057425,093828,025634,057514,094657,030390,058734,030823,058821
0000000007,0000000400,094285,056594,094264,026127,056682,095070,030887,057868,031315,057959
0000000008,0000000467,094693,055764,094672,026649,055850,095454,031412,057005,031834,057099
0000000009,0000000533,095087,054935,095067,027185,055019,095823,031951,056142,032368,056240
0000000010,0000000600,095467,054106,095447,027735,054189,096178,032503,055282,032915,055382
0000000011,0000000667,095818,053281,095799,028312,053362,096502,033082,054425,033488,054528
0000000012,0000000733,096155,052457,096136,028902,052537,096810,033674,053571,034074,053678
0000000013,0000000800,096477,051636,096459,029505,051714,097104,034279,052720,034673,052829
0000000014,0000000867,096770,050819,096752,030134,050896,097366,034909,051875,035297,051988
0000000015,0000000933,097048,050006,097030,030776,050081,097613,035551,051034,035933,051150
0000000016,0000001000,097311,049196,097293,031429,049270,097844,036205,050196,036581,050316
0000000017,0000001067,097544,048393,097526,032106,048466,098043,036882,049368,037252,049491
0000000018,0000001133,097761,047595,097743,032795,047666,098227,037571,048545,037934,048671
0000000019,0000001200,097963,046801,097945,033495,046871,098394,038270,047726,038628,047856
0000000020,0000001267,098134,046017,098116,034216,046086,098529,038991,046919,039342,047052
0000000021,0000001333,098290,045238,098272,034948,045306,098648,039721,046119,040066,046254
0000000022,0000001400,098430,044465,098411,035691,044531,098750,040462,045324,040800,045463
0000000023,0000001467,098538,043704,098520,036453,043769,098820,041222,044543,041554,044685
0000000024,0000001533,098631,042949,098612,037224,043013,098873,041991,043769,042316,043914
0000000025,0000001600,098708,042201,098689,038005,042264,098910,042769,043002,043088,043151
0000000026,0000001667,098753,041467,098734,038803,041529,098915,043564,042252,043876,042403
0000000027,0000001733,098783,040740,098763,039609,040802,098903,044367,041509,044672,041664
0000000028,0000001800,098796,040021,098777,040423,040082,098874,045178,040775,045477,040933
0000000029,0000001867,098778,039319,098758,041253,039379,098813,046004,040059,046295,040220
0000000030,0000001933,098744,038624,098724,042090,038684,098735,046836,039352,047121,039517
0000000031,0000002000,098694,037939,098673,042933,037998,098642,047675,038655,047953,038822
0000000032,0000002067,098613,037272,098591,043790,037330,098515,048527,037977,048798,038148
0000000033,0000002133,098515,036614,098493,044652,036672,098372,049384,037310,049648,037484
0000000034,0000002200,098402,035966,098380,045520,036023,098214,050246,036653,050504,036830
0000000035,0000002267,098258,035337,098234,046398,035395,098023,051118,036018,051369,036198
0000000036,0000002333,098098,034720,098074,047281,034777,097816,051995,035394,052239,035577
0000000037,0000002400,097922,034112,097897,048168,034169,097593,052876,034782,053113,034968
0000000038,0000002467,097715,033527,097690,049064,033583,097339,053764,034193,053995,034382
0000000039,0000002533,097494,032953,097468,049962,033009,097069,054656,033616,054880,033808
0000000040,0000002600,097257,032390,097230,050864,032446,096784,055550,033052,055767,033246
0000000041,0000002667,096989,031851,096962,051771,031907,096467,056450,032512,056660,032710
0000000042,0000002733,096707,031324,096678,052680,031380,096136,057351,031986,057554,032186
0000000043,0000002800,096410,030808,096380,053591,030865,095790,058254,031472,058451,031675
0000000044,0000002867,096083,030318,096053,054505,030375,095413,059159,030986,059349,031191
0000000045,0000002933,095742,029841,095711,055419,029898,095023,060064,030512,060248,030721
0000000046,0000003000,095386,029376,095354,056334,029434,094617,060971,030053,061148,030264
0000000047,0000003067,095002,028938,094969,057249,028996,094183,061876,029621,062047,029835
0000000048,0000003133,094604,028513,094570,058164,028571,093735,062781,029204,062946,029420
0000000049,0000003200,094192,028102,094157,059077,028160,093272,063686,028801,063844,029020
0000000050,0000003267,093752,027718,093716,059989,027777,092783,064587,028427,064739,028648
0000000051,0000003333,093300,027348,093262,060898,027408,092280,065486,028069,065632,028292
0000000052,0000003400,092834,026992,092795,061806,027053,091763,066384,027724,066523,027950
0000000053,0000003467,092341,026665,092302,062708,026726,091221,067275,027411,067409,027638
0000000054,0000003533,091837,026352,091796,063607,026414,090666,068164,027112,068291,027342
0000000055,0000003600,091319,026054,091277,064503,026117,090098,069049,026829,069170,027060
0000000056,0000003667,090777,025785,090733,065392,025849,089506,069926,026577,070042,026810
0000000057,0000003733,090223,025531,090178,066276,025596,088902,070799,026340,070909,026576
0000000058,0000003800,089657,025292,089611,067155,025358,088287,071667,026119,071771,026357
0000000059,0000003867,089068,025083,089020,068025,025150,087648,072524,025930,072623,026169
0000000060,0000003933,088467,024890,088419,068888,024957,086999,073376,025757,073469,025998
0000000061,0000004000,087856,024711,087806,069746,024780,086339,074222,025600,074310,025843
0000000062,0000004067,087223,024563,087172,070592,024633,085658,075055,025475,075138,025719
0000000063,0000004133,086580,024431,086527,071430,024502,084967,075881,025366,075959,025612
0000000064,0000004200,085927,024314,085873,072262,024387,084266,076701,025273,076773,025521
0000000065,0000004267,085254,024229,085198,073078,024303,083546,077504,025213,077572,025462
0000000066,0000004333,084572,024158,084515,073887,024234,082817,078300,025170,078363,025420
0000000067,0000004400,083881,024104,083822,074687,024181,082080,079088,025142,079146,025393
0000000068,0000004467,083172,024081,083112,075471,024159,081325,079858,025147,079912,025400
0000000069,0000004533,082454,024073,082393,076245,024153,080562,080619,025169,080668,025422
0000000070,0000004600,081729,024081,081666,077009,024162,079792,081371,025206,081416,025461
0000000071,0000004667,080988,024120,080923,077755,024203,079007,082103,025277,082144,025532
0000000072,0000004733,080239,024175,080173,078490,024260,078215,082824,025363,082861,025620
0000000073,0000004800,079484,024246,079416,079214,024332,077417,083536,025466,083569,025723
0000000074,0000004867,078715,024348,078645,079918,024436,076606,084226,025601,084255,025859
0000000075,0000004933,077939,024465,077868,080609,024555,075789,084904,025752,084930,026011
0000000076,0000005000,077158,024598,077085,081290,024689,074967,085571,025920,085594,026179
0000000077,0000005067,076365,024761,076291,081947,024855,074135,086215,026119,086234,026378
0000000078,0000005133,075568,024940,075492,082592,025036,073298,086846,026334,086862,026594
0000000079,0000005200,074765,025134,074688,083224,025232,072457,087465,026564,087478,026825
0000000080,0000005267,073953,025358,073875,083831,025458,071608,088058,026827,088069,027087
0000000081,0000005333,073138,025598,073057,084425,025699,070756,088639,027104,088646,027365
0000000082,0000005400,072318,025852,072236,085006,025956,069901,089206,027397,089211,027658
0000000083,0000005467,071492,026136,071409,085560,026242,069040,089746,027720,089749,027981
0000000084,0000005533,070663,026435,070578,086100,026543,068177,090273,028059,090273,028319
0000000085,0000005600,069832,026748,069745,086625,026858,067313,090785,028412,090784,028673
0000000086,0000005667,068996,027090,068908,087123,027202,066445,091269,028795,091266,029055
0000000087,0000005733,068159,027446,068069,087605,027561,065577,091738,029193,091733,029452
0000000088,0000005800,067320,027816,067228,088073,027933,064708,092193,029605,092187,029864
0000000089,0000005867,066479,028215,066386,088511,028333,063838,092618,030045,092610,030304
0000000090,0000005933,065638,028626,065543,088934,028747,062969,093027,030500,093018,030758
0000000091,0000006000,064796,029051,064700,089341,029175,062100,093422,030968,093412,031225
0000000092,0000006067,063955,029503,063858,089717,029629,061234,093785,031463,093774,031720
0000000093,0000006133,063115,029968,063016,090077,030096,060369,094132,031972,094121,032227
0000000094,0000006200,062276,030446,062175,090422,030576,059506,094464,032493,094452,032748
0000000095,0000006267,061439,030949,061337,090734,031082,058647,094764,033041,094752,033295
0000000096,0000006333,060605,031464,060501,091030,031599,057792,095047,033601,095035,033853
0000000097,0000006400,059772,031992,059667,091309,032129,056939,095315,034173,095302,034424
0000000098,0000006467,058945,032544,058839,091556,032683,056093,095549,034769,095537,035020
0000000099,0000006533,058121,033107,058013,091786,033248,055251,095767,035377,095755,035626
0000000100,0000006600,057300,033681,057191,091999,033825,054413,095968,035997,095957,036244
0000000101,0000006667,056487,034278,056376,092178,034424,053585,096136,036639,096126,036885
0000000102,0000006733,055678,034885,055566,092341,035034,052762,096287,037291,096278,037536
0000000103,0000006800,054874,035503,054760,092486,035654,051944,096421,037955,096413,038198
0000000104,0000006867,054079,036142,053964,092598,036295,051138,096522,038639,096514,038880
0000000105,0000006933,053290,036790,053174,092692,036946,050339,096605,039332,096599,039572
0000000106,0000007000,052507,037448,052389,092769,037607,049545,096672,040036,096667,040273
0000000107,0000007067,051735,038125,051616,092812,038286,048766,096704,040758,096701,040993
0000000108,0000007133,050970,038810,050850,092837,038974,047995,096719,041488,096718,041722
0000000109,0000007200,050212,039505,050091,092845,039670,047230,096717,042228,096718,042460
0000000110,0000007267,049468,040216,049346,092819,040384,046483,096681,042983,096684,043213
0000000111,0000007333,048732,040935,048608,092775,041105,045743,096628,043747,096634,043975
0000000112,0000007400,048003,041662,047878,092715,041834,045013,096558,044518,096566,044744
0000000113,0000007467,047291,042403,047165,092619,042578,044300,096454,045304,096465,045527
0000000114,0000007533,046588,043151,046461,092507,043328,043598,096333,046096,096346,046317
0000000115,0000007600,045893,043906,045765,092378,044086,042905,096195,046894,096211,047113
0000000116,0000007667,045216,044674,045087,092214,044855,042232,096023,047705,096043,047921
0000000117,0000007733,044550,045447,044420,092034,045631,041570,095834,048521,095858,048735
0000000118,0000007800,043893,046226,043762,091837,046412,040918,095629,049343,095656,049554
0000000119,0000007867,043256,047015,043124,091606,047204,040289,095391,050174,095421,050383
0000000120,0000007933,042630,047809,042497,091358,048000,039671,095137,051009,095171,051215
0000000121,0000008000,042015,048608,041881,091094,048800,039065,094866,051849,094903,052053
0000000122,0000008067,041421,049414,041287,090797,049609,038483,094562,052696,094604,052897
0000000123,0000008133,040839,050224,040704,090484,050421,037913,094243,053547,094289,053744
0000000124,0000008200,040269,051038,040133,090155,051237,037355,093907,054400,093958,054595
0000000125,0000008267,039722,051857,039585,089794,052058,036823,093540,055258,093595,055450
0000000126,0000008333,039188,052678,039050,089417,052881,036304,093158,056118,093217,056307
0000000127,0000008400,038665,053502,038527,089024,053707,035799,092760,056980,092824,057166
0000000128,0000008467,038168,054329,038029,088600,054536,035320,092332,057844,092401,058027
0000000129,0000008533,037684,055158,037545,088161,055367,034855,091889,058709,091962,058889
0000000130,0000008600,037213,055987,037073,087708,056198,034404,091431,059575,091509,059752
0000000131,0000008667,036769,056818,036628,087224,057030,033982,090943,060440,091027,060614
0000000132,0000008733,036338,057648,036197,086726,057863,033574,090442,061305,090531,061476
0000000133,0000008800,035921,058479,035779,086213,058695,033180,089926,062169,090021,062338
0000000134,0000008867,035531,059308,035389,085673,059526,032816,089383,063031,089483,063196
0000000135,0000008933,035156,060136,035014,085118,060356,032466,088826,063891,088932,064053
0000000136,0000009000,034795,060963,034652,084550,061184,032132,088256,064750,088367,064908
0000000137,0000009067,034463,061786,034320,083955,062009,031828,087659,065603,087776,065759
0000000138,0000009133,034146,062607,034002,083348,062831,031540,087050,066453,087173,066606
0000000139,0000009200,033843,063425,033699,082727,063651,031267,086428,067301,086557,067450
0000000140,0000009267,033570,064237,033426,082082,064464,031026,085782,068140,085917,068286
0000000141,0000009333,033312,065046,033168,081424,065274,030800,085124,068976,085265,069119
0000000142,0000009400,033069,065851,032925,080755,066081,030590,084455,069808,084602,069947
0000000143,0000009467,032857,066648,032713,080062,066879,030413,083763,070629,083916,070765
0000000144,0000009533,032660,067440,032516,079358,067673,030251,083060,071446,083219,071579
0000000145,0000009600,032479,068228,032335,078644,068461,030105,082346,072257,082512,072386
0000000146,0000009667,032329,069005,032185,077908,069239,029992,081612,073055,081784,073182
0000000147,0000009733,032194,069776,032050,077163,070012,029895,080868,073848,081046,073971
0000000148,0000009800,032075,070541,031932,076407,070778,029814,080114,074633,080299,074753
0000000149,0000009867,031988,071294,031844,075632,071532,029766,079342,075405,079534,075522
0000000150,0000009933,031916,072040,031773,074849,072278,029734,078561,076169,078759,076282
0000000151,0000010000,031860,072779,031717,074057,073018,029719,077771,076925,077977,077035
0000000152,0000010067,031836,073503,031693,073248,073743,029737,076966,077665,077178,077772
0000000153,0000010133,031828,074219,031686,072431,074460,029771,076153,078396,076371,078499
0000000154,0000010200,031835,074927,031694,071606,075169,029821,075332,079118,075557,079218
0000000155,0000010267,031875,075618,031733,070767,075860,029904,074497,079822,074729,079919
0000000156,0000010333,031930,076300,031789,069921,076543,030003,073656,080516,073895,080610
0000000157,0000010400,032001,076974,031860,069069,077217,030119,072809,081200,073054,081291
0000000158,0000010467,032103,077628,031963,068205,077872,030267,071950,081863,072202,081952
0000000159,0000010533,032222,078273,032082,067335,078518,030431,071086,082516,071345,082602
0000000160,0000010600,032356,078908,032217,066461,079153,030611,070217,083159,070483,083241
0000000161,0000010667,032521,079522,032383,065576,079767,030823,069339,083779,069611,083858
0000000162,0000010733,032701,080126,032564,064688,080371,031051,068456,084387,068736,084463
0000000163,0000010800,032898,080719,032761,063795,080964,031295,067570,084984,067857,085057
0000000164,0000010867,033124,081289,032988,062895,081534,031570,066678,085557,066971,085627
0000000165,0000010933,033367,081848,033231,061993,082093,031860,065783,086117,066082,086184
0000000166,0000011000,033624,082395,033489,061087,082640,032166,064885,086665,065191,086729
0000000167,0000011067,033911,082918,033778,060178,083164,032503,063983,087187,064296,087249
0000000168,0000011133,034213,083429,034080,059266,083674,032854,063080,087696,063400,087755
0000000169,0000011200,034530,083928,034398,058353,084173,033220,062175,088192,062502,088248
0000000170,0000011267,034876,084401,034745,057439,084646,033616,061269,088661,061602,088714
0000000171,0000011333,035236,084861,035107,056524,085106,034027,060363,089115,060703,089167
0000000172,0000011400,035611,085308,035482,055608,085552,034451,059457,089556,059803,089605
0000000173,0000011467,036014,085729,035886,054694,085972,034904,058552,089969,058905,090015
0000000174,0000011533,036430,086135,036304,053780,086379,035371,057649,090367,058007,090411
0000000175,0000011600,036861,086529,036735,052868,086771,035852,056746,090751,057111,090792
0000000176,0000011667,037318,086894,037194,051959,087136,036359,055847,091105,056219,091144
0000000177,0000011733,037789,087245,037665,051052,087486,036880,054951,091444,055328,091480
0000000178,0000011800,038272,087582,038150,050148,087823,037414,054057,091768,054441,091802
0000000179,0000011867,038781,087890,038661,049250,088130,037973,053170,092061,053559,092094
0000000180,0000011933,039303,088183,039183,048355,088423,038545,052286,092339,052681,092370
0000000181,0000012000,039837,088462,039719,047464,088700,039129,051406,092602,051807,092630
0000000182,0000012067,040395,088711,040278,046581,088948,039737,050535,092833,050942,092860
0000000183,0000012133,040965,088945,040850,045703,089182,040356,049668,093049,050081,093073
0000000184,0000012200,041547,089164,041432,044830,089400,040987,048807,093249,049225,093271
0000000185,0000012267,042151,089353,042038,043968,089587,041640,047957,093417,048381,093437
0000000186,0000012333,042766,089526,042654,043112,089759,042304,047113,093568,047542,093588
0000000187,0000012400,043392,089684,043281,042263,089916,042978,046276,093704,046710,093722
0000000188,0000012467,044038,089811,043929,041426,090042,043673,045452,093807,045891,093824
0000000189,0000012533,044695,089923,044587,040597,090152,044377,044635,093895,045080,093909
0000000190,0000012600,045361,090019,045255,039776,090247,045090,043826,093966,044275,093979
0000000191,0000012667,046046,090084,045942,038970,090311,045822,043033,094004,043487,094016
0000000192,0000012733,046741,090133,046637,038172,090359,046563,042248,094026,042707,094037
0000000193,0000012800,047444,090167,047342,037383,090391,047312,041472,094032,041935,094041
0000000194,0000012867,048164,090170,048064,036612,090392,048077,040714,094005,041182,094013
0000000195,0000012933,048892,090156,048793,035851,090377,048849,039966,093962,040438,093969
0000000196,0000013000,049628,090127,049531,035099,090346,049630,039228,093902,039703,093909
0000000197,0000013067,050379,090067,050283,034368,090284,050424,038509,093810,038989,093816
0000000198,0000013133,051137,089991,051043,033647,090207,051224,037802,093702,038285,093707
0000000199,0000013200,051901,089900,051809,032936,090114,052031,037105,093578,037592,093582
0000000200,0000013267,052679,089778,052588,032248,089989,052850,036430,093421,036921,093425
0000000201,0000013333,053462,089640,053373,031572,089850,053674,035767,093248,036261,093251
0000000202,0000013400,054251,089486,054163,030907,089695,054503,035115,093060,035613,093062
0000000203,0000013467,055050,089302,054964,030266,089509,055341,034488,092840,034989,092842
