DIgSILENT PowerFactory,20000410,2000
10,10A,00D
1,LC684-652A:Phase Voltage A/Terminal i,,,kV,0.00010000000,-5.920811,0.000000,24828,99998,1,1,P
2,LC684-652A:Phase Voltage C/Terminal i,,,kV,0.00010000000,-6.122751,0.000000,22104,99998,1,1,P
3,LC692-675:Phase Voltage A/Terminal i,,,kV,0.00010000000,-5.903606,0.000000,24583,99998,1,1,P
4,LC692-675:Phase Voltage B/Terminal i,,,kV,0.00010000000,-6.068611,0.000000,5657,99998,1,1,P
5,LC692-675:Phase Voltage C/Terminal i,,,kV,0.00010000000,-6.199183,0.000000,23056,99998,1,1,P
6,LOHL632-633:Phase Voltage A/Terminal i,,,kV,0.00010000000,-6.161174,0.000000,26263,99998,1,1,P
7,LOHL632-633:Phase Voltage B/Terminal i,,,kV,0.00010000000,-6.261499,0.000000,14876,99998,1,1,P
8,LOHL632-633:Phase Voltage C/Terminal i,,,kV,0.00010000000,-6.448518,0.000000,26343,99998,1,1,P
9,LOHL645-646:Phase Voltage B/Terminal i,,,kV,0.00010000000,-6.287062,0.000000,15534,99998,1,1,P
10,LOHL645-646:Phase Voltage C/Terminal i,,,kV,0.00010000000,-6.461014,0.000000,26617,99998,1,1,P
50
1
15000.000000,3001
11/11/2020,17:45:21.000000
11/11/2020,17:45:21.000000
ASCII
1.000000
0000000001,0000000000,085334,065671,085219,027693,066384,089632,030118,067955,030573,068021
0000000002,0000000067,085848,064846,085733,028096,065556,090128,030527,067092,030977,067161
0000000003,0000000133,086349,064020,086235,028515,064728,090611,030950,066228,031395,066301
0000000004,0000000200,086837,063192,086724,028948,063898,091081,031388,065363,031829,065439
0000000005,0000000267,087300,062362,087187,029412,063066,091522,031856,064498,032291,064576
0000000006,0000000333,087748,061531,087636,029891,062234,091950,032338,063632,032769,063714
0000000007,0000000400,088184,060701,088072,030384,061402,092363,032835,062767,033260,062852
0000000008,0000000467,088592,059871,088480,030906,060570,092746,033360,061903,033780,061991
0000000009,0000000533,088986,059041,088875,031442,059739,093116,033899,061041,034313,061132
0000000010,0000000600,089366,058213,089255,031992,058909,093470,034451,060180,034860,060275
0000000011,0000000667,089717,057387,089607,032569,058082,093794,035030,059324,035433,059421
0000000012,0000000733,090054,056564,089944,033160,057256,094103,035622,058470,036020,058570
0000000013,0000000800,090376,055742,090267,033763,056433,094396,036227,057618,036619,057722
0000000014,0000000867,090669,054926,090560,034392,055615,094659,036857,056773,037243,056880
0000000015,0000000933,090947,054113,090838,035033,054801,094905,037499,055932,037879,056042
0000000016,0000001000,091210,053303,091101,035687,053989,095136,038153,055095,038527,055208
0000000017,0000001067,091443,052500,091334,036364,053185,095336,038831,054267,039198,054383
0000000018,0000001133,091660,051702,091551,037052,052386,095519,039519,053443,039880,053563
0000000019,0000001200,091862,050908,091753,037752,051591,095686,040218,052625,040573,052748
0000000020,0000001267,092033,050124,091924,038474,050805,095821,040939,051818,041287,051944
0000000021,0000001333,092189,049345,092080,039206,050026,095940,041670,051017,042011,051147
0000000022,0000001400,092329,048572,092219,039948,049251,096042,042410,050222,042746,050355
0000000023,0000001467,092437,047810,092328,040710,048489,096112,043170,049441,043499,049578
0000000024,0000001533,092530,047056,092420,041482,047733,096166,043939,048667,044262,048807
0000000025,0000001600,092607,046307,092497,042262,046984,096203,044718,047901,045033,048044
0000000026,0000001667,092652,045573,092542,043060,046249,096207,045513,047150,045822,047296
0000000027,0000001733,092682,044847,092571,043867,045522,096195,046316,046408,046618,046557
0000000028,0000001800,092695,044128,092585,044681,044802,096166,047126,045674,047422,045826
0000000029,0000001867,092677,043425,092566,045511,044099,096105,047952,044957,048241,045113
0000000030,0000001933,092643,042731,092531,046347,043404,096028,048784,044251,049066,044409
0000000031,0000002000,092593,042045,092481,047191,042718,095934,049623,043553,049899,043715
0000000032,0000002067,092512,041378,092399,048047,042050,095807,050475,042876,050743,043040
0000000033,0000002133,092414,040720,092301,048909,041392,095665,051332,042208,051593,042376
0000000034,0000002200,092301,040072,092187,049777,040743,095506,052194,041552,052449,041723
0000000035,0000002267,092157,039444,092042,050656,040114,095315,053067,040917,053315,041091
0000000036,0000002333,091997,038826,091882,051539,039496,095108,053943,040293,054184,040470
0000000037,0000002400,091821,038219,091705,052426,038889,094885,054824,039680,055059,039860
0000000038,0000002467,091614,037633,091498,053321,038303,094631,055713,039092,055940,039275
0000000039,0000002533,091393,037059,091276,054220,037729,094361,056604,038515,056825,038701
0000000040,0000002600,091156,036497,091038,055121,037166,094076,057498,037950,057713,038139
0000000041,0000002667,090888,035957,090770,056028,036627,093760,058398,037411,058605,037602
0000000042,0000002733,090606,035430,090486,056937,036100,093428,059299,036885,059500,037079
0000000043,0000002800,090309,034915,090188,057848,035585,093082,060202,036371,060396,036568
0000000044,0000002867,089982,034425,089861,058762,035095,092706,061107,035884,061295,036084
0000000045,0000002933,089641,033947,089519,059676,034618,092315,062013,035411,062194,035613
0000000046,0000003000,089285,033483,089162,060591,034153,091909,062919,034951,063093,035156
0000000047,0000003067,088901,033044,088777,061506,033715,091475,063825,034520,063993,034727
0000000048,0000003133,088503,032620,088378,062421,033291,091027,064730,034103,064891,034313
0000000049,0000003200,088091,032208,087965,063335,032880,090565,065634,033700,065789,033912
0000000050,0000003267,087651,031824,087524,064246,032497,090075,066535,033326,066684,033541
0000000051,0000003333,087199,031455,087070,065156,032128,089572,067434,032967,067577,033184
0000000052,0000003400,086733,031099,086603,066063,031772,089055,068332,032623,068468,032842
0000000053,0000003467,086240,030771,086110,066966,031446,088513,069224,032309,069354,032531
0000000054,0000003533,085736,030459,085603,067865,031134,087958,070112,032011,070237,032234
0000000055,0000003600,085218,030160,085085,068761,030836,087390,070997,031727,071116,031953
0000000056,0000003667,084676,029892,084541,069649,030568,086798,071874,031475,071987,031703
0000000057,0000003733,084122,029638,083986,070533,030315,086194,072747,031239,072854,031468
0000000058,0000003800,083556,029399,083419,071413,030077,085579,073615,031018,073716,031249
0000000059,0000003867,082967,029190,082828,072282,029870,084940,074472,030829,074568,031062
0000000060,0000003933,082366,028996,082226,073146,029677,084291,075324,030655,075415,030891
0000000061,0000004000,081755,028818,081614,074004,029500,083631,076170,030498,076255,030735
0000000062,0000004067,081122,028670,080980,074849,029353,082950,077003,030373,077083,030612
0000000063,0000004133,080479,028538,080335,075688,029222,082259,077830,030265,077904,030504
0000000064,0000004200,079826,028421,079681,076519,029107,081558,078649,030172,078718,030413
0000000065,0000004267,079153,028335,079006,077336,029022,080838,079453,030112,079518,030355
0000000066,0000004333,078471,028265,078323,078144,028954,080109,080248,030068,080309,030312
0000000067,0000004400,077780,028210,077630,078945,028901,079372,081036,030041,081092,030286
0000000068,0000004467,077071,028187,076920,079728,028879,078617,081806,030046,081857,030292
0000000069,0000004533,076354,028179,076201,080502,028873,077855,082567,030067,082614,030315
0000000070,0000004600,075628,028188,075474,081267,028882,077084,083319,030105,083361,030354
0000000071,0000004667,074887,028227,074731,082012,028923,076299,084051,030175,084089,030425
0000000072,0000004733,074138,028282,073981,082747,028980,075508,084773,030262,084807,030512
0000000073,0000004800,073383,028352,073224,083472,029052,074709,085484,030365,085514,030616
0000000074,0000004867,072614,028454,072453,084175,029156,073898,086174,030500,086200,030752
0000000075,0000004933,071838,028571,071676,084867,029275,073082,086852,030651,086875,030903
0000000076,0000005000,071057,028704,070893,085547,029409,072259,087519,030818,087539,031071
0000000077,0000005067,070264,028868,070099,086204,029575,071427,088163,031017,088179,031271
0000000078,0000005133,069467,029046,069300,086849,029755,070590,088794,031232,088807,031486
0000000079,0000005200,068664,029240,068496,087482,029951,069749,089413,031463,089423,031717
0000000080,0000005267,067852,029465,067682,088089,030178,068900,090006,031725,090014,031979
0000000081,0000005333,067037,029704,066865,088683,030419,068048,090587,032003,090592,032257
0000000082,0000005400,066217,029959,066044,089264,030676,067193,091154,032296,091157,032550
0000000083,0000005467,065391,030243,065217,089817,030962,066332,091694,032619,091695,032873
0000000084,0000005533,064562,030541,064386,090357,031262,065470,092221,032957,092219,033212
0000000085,0000005600,063731,030854,063553,090883,031578,064605,092733,033311,092729,033565
0000000086,0000005667,062895,031197,062716,091380,031922,063737,093217,033694,093211,033948
0000000087,0000005733,062058,031553,061877,091863,032280,062869,093686,034091,093679,034345
0000000088,0000005800,061219,031923,061036,092331,032653,062000,094141,034504,094132,034757
0000000089,0000005867,060378,032321,060194,092768,033053,061130,094566,034944,094555,035196
0000000090,0000005933,059537,032733,059351,093191,033467,060261,094975,035398,094964,035650
0000000091,0000006000,058695,033158,058508,093598,033895,059393,095370,035866,095357,036118
0000000092,0000006067,057854,033610,057666,093974,034349,058526,095733,036362,095720,036612
0000000093,0000006133,057014,034075,056824,094335,034816,057661,096080,036870,096066,037120
0000000094,0000006200,056175,034552,055983,094679,035296,056798,096412,037392,096398,037641
0000000095,0000006267,055338,035056,055145,094991,035801,055939,096712,037939,096697,038187
0000000096,0000006333,054504,035571,054309,095287,036319,055084,096995,038499,096980,038746
0000000097,0000006400,053671,036099,053475,095567,036849,054231,097263,039072,097248,039317
0000000098,0000006467,052844,036650,052647,095813,037403,053385,097497,039668,097482,039912
0000000099,0000006533,052020,037213,051821,096043,037968,052543,097715,040276,097701,040519
0000000100,0000006600,051199,037787,050999,096256,038545,051705,097916,040895,097902,041137
0000000101,0000006667,050386,038384,050184,096436,039144,050877,098084,041537,098071,041777
0000000102,0000006733,049577,038992,049374,096598,039754,050054,098235,042190,098223,042428
0000000103,0000006800,048773,039610,048568,096744,040374,049236,098370,042853,098358,043090
0000000104,0000006867,047978,040248,047772,096855,041015,048430,098470,043537,098460,043772
0000000105,0000006933,047189,040896,046982,096949,041666,047631,098553,044231,098545,044464
0000000106,0000007000,046406,041555,046197,097026,042326,046837,098620,044934,098612,045166
0000000107,0000007067,045634,042231,045424,097069,043006,046058,098652,045656,098646,045886
0000000108,0000007133,044869,042917,044658,097095,043693,045287,098667,046387,098663,046615
0000000109,0000007200,044111,043611,043899,097103,044390,044523,098665,047126,098664,047352
0000000110,0000007267,043367,044322,043154,097076,045104,043775,098629,047882,098630,048106
0000000111,0000007333,042631,045041,042416,097033,045825,043035,098576,048646,098579,048867
0000000112,0000007400,041902,045768,041686,096972,046554,042305,098506,049417,098511,049636
0000000113,0000007467,041190,046509,040973,096877,047298,041593,098402,050202,098410,050419
0000000114,0000007533,040487,047258,040269,096765,048048,040890,098281,050994,098292,051209
0000000115,0000007600,039792,048013,039573,096635,048806,040197,098143,051793,098157,052006
0000000116,0000007667,039116,048780,038895,096472,049575,039524,097971,052604,097988,052814
0000000117,0000007733,038449,049553,038228,096291,050351,038862,097783,053420,097803,053627
0000000118,0000007800,037792,050332,037570,096094,051132,038211,097578,054241,097601,054446
0000000119,0000007867,037155,051122,036932,095863,051923,037581,097339,055073,097367,055275
0000000120,0000007933,036529,051916,036305,095616,052719,036963,097085,055908,097116,056108
0000000121,0000008000,035914,052714,035689,095352,053520,036357,096814,056748,096849,056945
0000000122,0000008067,035320,053521,035095,095055,054329,035775,096510,057595,096549,057789
0000000123,0000008133,034738,054331,034512,094742,055141,035205,096191,058445,096234,058637
0000000124,0000008200,034168,055144,033941,094412,055956,034647,095855,059298,095903,059487
0000000125,0000008267,033621,055963,033393,094051,056778,034116,095489,060157,095541,060343
0000000126,0000008333,033087,056785,032858,093674,057601,033597,095106,061017,095163,061200
0000000127,0000008400,032564,057609,032335,093281,058427,033091,094708,061878,094769,062059
0000000128,0000008467,032067,058436,031837,092858,059256,032612,094280,062743,094346,062920
0000000129,0000008533,031583,059264,031353,092419,060086,032148,093837,063608,093908,063782
0000000130,0000008600,031112,060094,030881,091965,060918,031697,093379,064473,093455,064644
0000000131,0000008667,030668,060924,030436,091481,061750,031274,092892,065339,092973,065507
0000000132,0000008733,030237,061755,030005,090983,062583,030866,092390,066204,092476,066369
0000000133,0000008800,029820,062585,029587,090471,063415,030472,091875,067068,091966,067230
0000000134,0000008867,029430,063415,029197,089930,064246,030108,091331,067930,091428,068089
0000000135,0000008933,029055,064243,028822,089376,065075,029759,090774,068790,090877,068946
0000000136,0000009000,028694,065069,028460,088808,065904,029424,090204,069648,090312,069801
0000000137,0000009067,028362,065892,028128,088213,066728,029121,089607,070502,089722,070651
0000000138,0000009133,028045,066713,027810,087605,067551,028832,088998,071352,089118,071498
0000000139,0000009200,027742,067531,027507,086985,068370,028560,088377,072199,088502,072342
0000000140,0000009267,027469,068344,027234,086339,069184,028318,087730,073039,087862,073179
0000000141,0000009333,027211,069152,026976,085682,069994,028092,087073,073875,087211,074011
0000000142,0000009400,026968,069958,026733,085012,070801,027883,086403,074706,086547,074839
0000000143,0000009467,026756,070755,026521,084320,071599,027705,085711,075528,085861,075658
0000000144,0000009533,026559,071547,026324,083616,072393,027543,085008,076344,085164,076471
0000000145,0000009600,026378,072334,026143,082901,073181,027397,084294,077155,084457,077279
0000000146,0000009667,026228,073111,025993,082166,073959,027284,083560,077954,083729,078074
0000000147,0000009733,026093,073882,025858,081420,074732,027187,082816,078746,082992,078863
0000000148,0000009800,025974,074648,025740,080664,075498,027106,082062,079532,082245,079646
0000000149,0000009867,025887,075400,025652,079890,076252,027058,081290,080304,081479,080414
0000000150,0000009933,025815,076146,025581,079106,076998,027027,080509,081067,080705,081175
0000000151,0000010000,025759,076885,025525,078314,077738,027011,079720,081824,079922,081928
0000000152,0000010067,025735,077609,025501,077505,078463,027029,078914,082563,079123,082664
0000000153,0000010133,025727,078325,025494,076688,079180,027063,078101,083294,078316,083392
0000000154,0000010200,025734,079033,025501,075864,079888,027113,077280,084016,077502,084111
0000000155,0000010267,025774,079725,025541,075024,080580,027196,076445,084720,076674,084811
0000000156,0000010333,025829,080407,025597,074179,081263,027296,075604,085414,075840,085502
0000000157,0000010400,025900,081080,025668,073327,081937,027411,074757,086098,075000,086183
0000000158,0000010467,026002,081735,025771,072462,082592,027559,073898,086762,074148,086844
0000000159,0000010533,026121,082380,025890,071593,083237,027723,073034,087415,073290,087494
0000000160,0000010600,026255,083015,026025,070718,083873,027903,072165,088057,072428,088133
0000000161,0000010667,026420,083629,026191,069834,084487,028115,071287,088677,071557,088750
0000000162,0000010733,026600,084232,026372,068945,085091,028343,070405,089286,070681,089356
0000000163,0000010800,026797,084825,026569,068052,085684,028587,069519,089883,069802,089950
0000000164,0000010867,027024,085395,026796,067153,086254,028862,068626,090455,068916,090519
0000000165,0000010933,027266,085954,027039,066250,086813,029153,067731,091016,068028,091077
0000000166,0000011000,027523,086501,027297,065345,087360,029459,066833,091563,067137,091622
0000000167,0000011067,027810,087025,027585,064435,087884,029795,065931,092086,066242,092141
0000000168,0000011133,028112,087536,027888,063524,088394,030146,065028,092595,065345,092648
0000000169,0000011200,028429,088034,028206,062611,088893,030513,064124,093090,064447,093141
0000000170,0000011267,028775,088507,028553,061696,089366,030908,063218,093559,063548,093607
0000000171,0000011333,029135,088968,028915,060781,089826,031319,062312,094014,062648,094059
0000000172,0000011400,029510,089415,029290,059866,090272,031743,061405,094455,061749,094497
0000000173,0000011467,029913,089835,029694,058951,090692,032196,060500,094867,060850,094908
0000000174,0000011533,030330,090242,030112,058038,091099,032663,059597,095266,059953,095303
0000000175,0000011600,030760,090635,030543,057126,091491,033144,058694,095649,059056,095684
0000000176,0000011667,031217,091000,031002,056216,091856,033652,057795,096003,058164,096036
0000000177,0000011733,031688,091351,031473,055310,092206,034172,056899,096342,057274,096373
0000000178,0000011800,032171,091688,031958,054405,092543,034706,056005,096666,056386,096695
0000000179,0000011867,032680,091996,032468,053507,092850,035266,055118,096960,055504,096986
0000000180,0000011933,033202,092290,032991,052612,093142,035837,054234,097238,054627,097262
0000000181,0000012000,033736,092569,033527,051721,093420,036421,053354,097501,053752,097523
0000000182,0000012067,034294,092818,034086,050838,093668,037029,052483,097732,052887,097752
0000000183,0000012133,034864,093052,034657,049961,093901,037649,051616,097948,052026,097966
0000000184,0000012200,035446,093271,035240,049088,094119,038279,050755,098147,051171,098164
0000000185,0000012267,036050,093459,035846,048226,094307,038933,049905,098315,050326,098330
0000000186,0000012333,036665,093633,036462,047370,094479,039596,049061,098467,049488,098480
0000000187,0000012400,037291,093791,037089,046520,094636,040270,048224,098603,048655,098614
0000000188,0000012467,037937,093918,037737,045684,094762,040965,047400,098706,047836,098716
0000000189,0000012533,038594,094029,038395,044855,094872,041669,046583,098793,047025,098802
0000000190,0000012600,039260,094126,039063,044033,094967,042382,045774,098864,046221,098871
0000000191,0000012667,039945,094191,039750,043227,095030,043114,044981,098903,045432,098908
0000000192,0000012733,040640,094240,040445,042430,095078,043855,044197,098925,044652,098929
0000000193,0000012800,041343,094274,041150,041641,095111,044604,043420,098930,043881,098934
0000000194,0000012867,042063,094276,041872,040870,095111,045369,042663,098903,043127,098906
0000000195,0000012933,042791,094263,042601,040108,095097,046142,041914,098860,042383,098862
0000000196,0000013000,043527,094234,043339,039357,095066,046922,041176,098801,041649,098801
0000000197,0000013067,044278,094174,044091,038625,095004,047716,040457,098709,040934,098708
0000000198,0000013133,045036,094098,044851,037904,094927,048517,039750,098601,040231,098599
0000000199,0000013200,045800,094006,045617,037194,094834,049323,039053,098476,039537,098474
0000000200,0000013267,046578,093884,046396,036506,094709,050142,038378,098320,038866,098317
0000000201,0000013333,047361,093746,047181,035829,094570,050966,037715,098147,038206,098144
0000000202,0000013400,048150,093593,047971,035164,094414,051795,037064,097958,037558,097955
0000000203,0000013467,048950,093409,048772,034523,094228,052633,036436,097738,036934,097734
