DIgSILENT PowerFactory,20000410,2000
10,10A,00D
1,LC684-652A:Phase Voltage A/Terminal i,,,kV,0.00010000000,-6.553236,0.000000,23277,99998,1,1,P
2,LC684-652A:Phase Voltage C/Terminal i,,,kV,0.00010000000,-5.869552,0.000000,19423,99998,1,1,P
3,LC692-675:Phase Voltage A/Terminal i,,,kV,0.00010000000,-6.545510,0.000000,23065,99998,1,1,P
4,LC692-675:Phase Voltage B/Terminal i,,,kV,0.00010000000,-5.756179,0.000000,16072,99998,1,1,P
5,LC692-675:Phase Voltage C/Terminal i,,,kV,0.00010000000,-5.881681,0.000000,19562,99998,1,1,P
6,LOHL632-633:Phase Voltage A/Terminal i,,,kV,0.00010000000,-6.461803,0.000000,24538,99998,1,1,P
7,LOHL632-633:Phase Voltage B/Terminal i,,,kV,0.00010000000,-6.123930,0.000000,22842,99998,1,1,P
8,LOHL632-633:Phase Voltage C/Terminal i,,,kV,0.00010000000,-6.073817,0.000000,23462,99998,1,1,P
9,LOHL645-646:Phase Voltage B/Terminal i,,,kV,0.00010000000,-6.149474,0.000000,23360,99998,1,1,P
10,LOHL645-646:Phase Voltage C/Terminal i,,,kV,0.00010000000,-6.086851,0.000000,23709,99998,1,1,P
50
1
15000.000000,3001
11/11/2020,18:03:50.000000
11/11/2020,18:03:50.000000
ASCII
1.000000
0000000001,0000000000,091658,063139,091638,024569,063209,092638,028743,064208,029197,064280
0000000002,0000000067,092172,062314,092152,024972,062381,093135,029151,063345,029601,063420
0000000003,0000000133,092673,061488,092654,025390,061553,093618,029574,062481,030019,062559
0000000004,0000000200,093162,060660,093143,025824,060723,094087,030012,061616,030453,061697
0000000005,0000000267,093624,059830,093606,026288,059891,094529,030480,060751,030916,060835
0000000006,0000000333,094073,058999,094055,026767,059059,094956,030963,059885,031393,059972
0000000007,0000000400,094508,058169,094491,027260,058227,095369,031460,059020,031884,059110
0000000008,0000000467,094916,057339,094899,027782,057395,095753,031985,058156,032404,058250
0000000009,0000000533,095310,056509,095294,028318,056564,096122,032523,057294,032937,057390
0000000010,0000000600,095690,055681,095674,028868,055734,096476,033076,056433,033484,056533
0000000011,0000000667,096041,054855,096026,029445,054906,096800,033655,055577,034058,055679
0000000012,0000000733,096378,054032,096363,030035,054081,097109,034247,054723,034644,054828
0000000013,0000000800,096701,053210,096686,030639,053258,097402,034852,053871,035243,053980
0000000014,0000000867,096994,052394,096979,031268,052440,097665,035482,053026,035867,053139
0000000015,0000000933,097272,051581,097257,031909,051626,097912,036124,052185,036503,052301
0000000016,0000001000,097534,050771,097520,032562,050814,098143,036778,051348,037151,051467
0000000017,0000001067,097767,049968,097753,033239,050010,098342,037455,050520,037822,050642
0000000018,0000001133,097985,049170,097970,033928,049211,098525,038143,049696,038504,049822
0000000019,0000001200,098187,048376,098172,034628,048416,098692,038843,048878,039197,049007
0000000020,0000001267,098358,047592,098343,035350,047630,098827,039563,048071,039911,048203
0000000021,0000001333,098513,046813,098499,036082,046850,098946,040294,047270,040636,047405
0000000022,0000001400,098653,046040,098638,036824,046076,099049,041035,046475,041370,046614
0000000023,0000001467,098762,045278,098747,037586,045314,099118,041795,045694,042123,045836
0000000024,0000001533,098854,044524,098839,038357,044558,099172,042564,044920,042886,045065
0000000025,0000001600,098931,043775,098916,039138,043809,099209,043342,044154,043657,044302
0000000026,0000001667,098977,043041,098961,039936,043074,099213,044137,043403,044446,043554
0000000027,0000001733,099006,042315,098990,040742,042347,099201,044940,042661,045242,042815
0000000028,0000001800,099020,041596,099004,041557,041627,099173,045751,041927,046046,042084
0000000029,0000001867,099001,040893,098985,042386,040923,099111,046576,041210,046865,041371
0000000030,0000001933,098967,040199,098951,043223,040229,099034,047409,040504,047690,040668
0000000031,0000002000,098917,039513,098900,044066,039543,098940,048248,039806,048523,039973
0000000032,0000002067,098836,038846,098818,044923,038875,098814,049099,039129,049367,039299
0000000033,0000002133,098738,038188,098720,045785,038216,098671,049956,038461,050217,038635
0000000034,0000002200,098625,037540,098607,046653,037568,098512,050818,037805,051073,037981
0000000035,0000002267,098481,036912,098461,047531,036939,098321,051691,037170,051939,037349
0000000036,0000002333,098321,036294,098301,048414,036321,098114,052567,036546,052809,036728
0000000037,0000002400,098145,035687,098124,049302,035714,097892,053449,035933,053683,036119
0000000038,0000002467,097939,035101,097917,050197,035128,097637,054337,035345,054564,035533
0000000039,0000002533,097717,034527,097695,051095,034554,097368,055228,034768,055449,034959
0000000040,0000002600,097480,033965,097457,051997,033991,097082,056123,034203,056337,034397
0000000041,0000002667,097212,033425,097189,052904,033452,096766,057022,033664,057229,033861
0000000042,0000002733,096930,032898,096905,053813,032925,096435,057923,033138,058124,033337
0000000043,0000002800,096633,032383,096607,054724,032410,096088,058826,032624,059020,032826
0000000044,0000002867,096306,031893,096280,055638,031920,095712,059731,032137,059919,032342
0000000045,0000002933,095965,031415,095938,056552,031443,095321,060637,031664,060818,031872
0000000046,0000003000,095609,030951,095581,057467,030978,094916,061543,031204,061717,031415
0000000047,0000003067,095225,030512,095196,058382,030540,094481,062449,030773,062617,030986
0000000048,0000003133,094827,030088,094797,059297,030116,094033,063354,030356,063515,030571
0000000049,0000003200,094415,029676,094384,060210,029705,093571,064258,029953,064413,030170
0000000050,0000003267,093976,029292,093943,061122,029322,093081,065159,029579,065308,029799
0000000051,0000003333,093523,028923,093489,062031,028953,092578,066059,029220,066201,029442
0000000052,0000003400,093057,028567,093022,062939,028597,092062,066956,028876,067092,029101
0000000053,0000003467,092565,028239,092529,063841,028271,091519,067848,028562,067978,028789
0000000054,0000003533,092060,027927,092023,064741,027959,090964,068736,028264,068861,028493
0000000055,0000003600,091542,027628,091504,065637,027661,090397,069621,027980,069740,028211
0000000056,0000003667,091000,027360,090960,066525,027393,089804,070499,027728,070611,027961
0000000057,0000003733,090446,027106,090405,067409,027140,089201,071371,027492,071478,027727
0000000058,0000003800,089880,026867,089838,068288,026902,088585,072239,027271,072340,027508
0000000059,0000003867,089291,026658,089247,069158,026695,087947,073097,027082,073193,027320
0000000060,0000003933,088691,026464,088646,070022,026502,087297,073949,026908,074039,027149
0000000061,0000004000,088079,026286,088033,070879,026325,086637,074795,026751,074880,026993
0000000062,0000004067,087446,026138,087399,071725,026178,085956,075628,026626,075707,026870
0000000063,0000004133,086803,026006,086754,072563,026047,085265,076454,026518,076528,026763
0000000064,0000004200,086150,025889,086100,073395,025932,084564,077273,026425,077343,026672
0000000065,0000004267,085477,025803,085425,074212,025847,083844,078077,026365,078142,026613
0000000066,0000004333,084795,025733,084742,075020,025779,083116,078873,026321,078933,026571
0000000067,0000004400,084104,025678,084049,075821,025726,082378,079660,026294,079716,026544
0000000068,0000004467,083395,025655,083339,076604,025704,081623,080431,026299,080481,026551
0000000069,0000004533,082678,025647,082620,077378,025698,080861,081191,026320,081238,026573
0000000070,0000004600,081952,025656,081893,078143,025707,080091,081943,026358,081985,026612
0000000071,0000004667,081211,025695,081150,078888,025748,079306,082675,026428,082713,026683
0000000072,0000004733,080463,025750,080400,079623,025805,078514,083397,026515,083431,026771
0000000073,0000004800,079707,025820,079643,080348,025877,077715,084108,026618,084138,026874
0000000074,0000004867,078938,025922,078872,081051,025981,076904,084798,026753,084825,027010
0000000075,0000004933,078163,026039,078095,081743,026100,076088,085476,026904,085499,027162
0000000076,0000005000,077381,026172,077312,082423,026234,075266,086144,027071,086163,027330
0000000077,0000005067,076589,026336,076518,083080,026400,074433,086787,027270,086803,027529
0000000078,0000005133,075791,026514,075719,083725,026580,073597,087418,027485,087431,027744
0000000079,0000005200,074988,026708,074915,084357,026776,072755,088037,027716,088047,027976
0000000080,0000005267,074177,026933,074102,084964,027003,071907,088631,027978,088638,028238
0000000081,0000005333,073361,027172,073284,085558,027244,071054,089211,028256,089216,028515
0000000082,0000005400,072542,027427,072463,086139,027501,070199,089778,028549,089781,028808
0000000083,0000005467,071716,027711,071636,086693,027787,069338,090319,028872,090319,029132
0000000084,0000005533,070887,028009,070805,087233,028087,068476,090845,029210,090843,029470
0000000085,0000005600,070055,028323,069972,087759,028403,067611,091357,029564,091353,029823
0000000086,0000005667,069219,028665,069135,088256,028747,066744,091841,029947,091835,030206
0000000087,0000005733,068382,029021,068296,088738,029105,065875,092311,030344,092303,030603
0000000088,0000005800,067543,029391,067455,089206,029478,065006,092765,030757,092756,031015
0000000089,0000005867,066702,029789,066613,089644,029878,064137,093190,031197,093180,031455
0000000090,0000005933,065861,030201,065770,090067,030292,063268,093600,031651,093588,031908
0000000091,0000006000,065020,030626,064927,090474,030720,062399,093994,032119,093981,032376
0000000092,0000006067,064179,031078,064085,090850,031174,061532,094357,032615,094344,032870
0000000093,0000006133,063338,031543,063243,091210,031641,060668,094705,033123,094691,033378
0000000094,0000006200,062499,032020,062402,091555,032121,059804,095037,033645,095022,033899
0000000095,0000006267,061663,032524,061564,091867,032626,058946,095336,034192,095321,034445
0000000096,0000006333,060828,033039,060728,092163,033144,058090,095620,034752,095605,035004
0000000097,0000006400,059996,033567,059894,092442,033674,057237,095887,035324,095872,035575
0000000098,0000006467,059168,034118,059066,092689,034228,056391,096122,035921,096106,036170
0000000099,0000006533,058344,034681,058240,092919,034793,055549,096339,036529,096325,036777
0000000100,0000006600,057524,035255,057418,093132,035370,054712,096541,037148,096527,037395
0000000101,0000006667,056710,035852,056603,093311,035969,053883,096709,037790,096695,038036
0000000102,0000006733,055902,036460,055793,093474,036579,053060,096860,038443,096847,038687
0000000103,0000006800,055097,037078,054987,093619,037199,052243,096994,039106,096982,039349
0000000104,0000006867,054302,037716,054191,093731,037840,051437,097094,039790,097084,040031
0000000105,0000006933,053513,038364,053401,093825,038491,050637,097178,040484,097169,040723
0000000106,0000007000,052730,039023,052616,093902,039151,049844,097244,041187,097237,041424
0000000107,0000007067,051958,039699,051843,093945,039830,049065,097276,041909,097271,042144
0000000108,0000007133,051193,040385,051077,093970,040518,048293,097291,042640,097288,042873
0000000109,0000007200,050435,041079,050318,093978,041215,047529,097289,043379,097288,043610
0000000110,0000007267,049691,041790,049573,093952,041929,046781,097253,044135,097254,044364
0000000111,0000007333,048955,042509,048835,093909,042650,046042,097200,044899,097203,045126
0000000112,0000007400,048226,043236,048105,093848,043379,045311,097130,045670,097135,045895
0000000113,0000007467,047514,043977,047392,093753,044123,044599,097026,046455,097034,046678
0000000114,0000007533,046811,044726,046688,093640,044873,043896,096905,047247,096916,047468
0000000115,0000007600,046116,045481,045992,093511,045630,043203,096767,048046,096781,048264
0000000116,0000007667,045440,046248,045314,093348,046400,042530,096595,048857,096612,049072
0000000117,0000007733,044773,047021,044647,093167,047176,041868,096407,049673,096427,049886
0000000118,0000007800,044116,047800,043989,092970,047957,041217,096202,050494,096225,050705
0000000119,0000007867,043479,048590,043351,092739,048748,040588,095964,051326,095991,051533
0000000120,0000007933,042853,049384,042724,092492,049544,039970,095709,052161,095740,052366
0000000121,0000008000,042238,050182,042108,092228,050345,039364,095438,053001,095473,053203
0000000122,0000008067,041645,050989,041514,091931,051154,038781,095135,053848,095173,054048
0000000123,0000008133,041063,051799,040931,091617,051966,038211,094815,054698,094858,054895
0000000124,0000008200,040492,052612,040360,091288,052781,037654,094480,055551,094527,055746
0000000125,0000008267,039945,053431,039812,090927,053603,037122,094113,056409,094165,056601
0000000126,0000008333,039411,054253,039277,090550,054426,036603,093731,057269,093787,057458
0000000127,0000008400,038889,055077,038754,090157,055252,036097,093333,058131,093394,058317
0000000128,0000008467,038392,055904,038256,089733,056081,035619,092904,058996,092970,059178
0000000129,0000008533,037908,056732,037772,089295,056911,035154,092461,059861,092532,060040
0000000130,0000008600,037437,057562,037300,088841,057743,034703,092003,060726,092079,060903
0000000131,0000008667,036992,058392,036855,088357,058575,034280,091516,061592,091597,061765
0000000132,0000008733,036561,059223,036424,087859,059408,033872,091014,062457,091101,062627
0000000133,0000008800,036144,060053,036006,087347,060240,033478,090499,063321,090590,063488
0000000134,0000008867,035755,060883,035616,086806,061071,033114,089955,064183,090052,064347
0000000135,0000008933,035379,061711,035241,086251,061900,032765,089399,065043,089501,065204
0000000136,0000009000,035018,062537,034879,085683,062729,032431,088828,065901,088936,066059
0000000137,0000009067,034686,063360,034547,085089,063553,032127,088232,066755,088346,066909
0000000138,0000009133,034369,064181,034229,084481,064376,031839,087623,067605,087742,067756
0000000139,0000009200,034066,064999,033926,083860,065195,031566,087001,068452,087127,068600
0000000140,0000009267,033793,065812,033653,083215,066009,031324,086355,069292,086486,069437
0000000141,0000009333,033535,066621,033395,082557,066819,031099,085697,070128,085835,070270
0000000142,0000009400,033293,067426,033152,081888,067626,030889,085027,070959,085171,071098
0000000143,0000009467,033080,068223,032940,081195,068424,030711,084335,071781,084485,071916
0000000144,0000009533,032884,069015,032743,080492,069217,030549,083632,072597,083789,072729
0000000145,0000009600,032702,069802,032562,079777,070006,030404,082918,073408,083081,073537
0000000146,0000009667,032552,070579,032412,079041,070784,030290,082184,074207,082353,074333
0000000147,0000009733,032417,071350,032277,078296,071557,030193,081440,074999,081616,075122
0000000148,0000009800,032298,072116,032159,077540,072323,030113,080686,075785,080869,075904
0000000149,0000009867,032211,072868,032071,076766,073077,030065,079914,076557,080103,076672
0000000150,0000009933,032139,073614,032000,075982,073823,030033,079133,077320,079329,077433
0000000151,0000010000,032083,074353,031944,075190,074563,030018,078344,078076,078546,078186
0000000152,0000010067,032059,075077,031920,074381,075288,030035,077538,078816,077747,078922
0000000153,0000010133,032051,075793,031913,073564,076005,030069,076725,079547,076940,079650
0000000154,0000010200,032059,076501,031921,072739,076713,030120,075904,080269,076126,080369
0000000155,0000010267,032098,077193,031960,071900,077405,030203,075070,080973,075299,081070
0000000156,0000010333,032153,077875,032016,071055,078088,030302,074229,081667,074464,081761
0000000157,0000010400,032224,078548,032087,070202,078762,030417,073381,082351,073624,082442
0000000158,0000010467,032327,079203,032190,069338,079417,030565,072522,083015,072772,083102
0000000159,0000010533,032445,079848,032309,068469,080062,030729,071658,083668,071914,083752
0000000160,0000010600,032579,080483,032444,067594,080698,030910,070789,084310,071052,084392
0000000161,0000010667,032744,081097,032610,066709,081312,031122,069911,084930,070181,085009
0000000162,0000010733,032925,081700,032791,065821,081916,031350,069029,085539,069305,085614
0000000163,0000010800,033121,082293,032988,064928,082509,031593,068143,086136,068426,086208
0000000164,0000010867,033348,082863,033215,064028,083079,031868,067250,086708,067540,086778
0000000165,0000010933,033590,083422,033458,063126,083638,032159,066355,087269,066652,087335
0000000166,0000011000,033847,083969,033716,062220,084185,032465,065457,087816,065761,087880
0000000167,0000011067,034134,084493,034005,061311,084709,032801,064556,088339,064866,088400
0000000168,0000011133,034436,085004,034307,060399,085219,033153,063652,088848,063969,088906
0000000169,0000011200,034753,085502,034625,059486,085718,033519,062748,089343,063071,089399
0000000170,0000011267,035099,085975,034972,058572,086191,033915,061842,089812,062172,089865
0000000171,0000011333,035460,086436,035334,057657,086651,034325,060936,090267,061272,090317
0000000172,0000011400,035834,086883,035709,056741,087097,034750,060030,090708,060373,090756
0000000173,0000011467,036237,087303,036113,055827,087517,035203,059125,091120,059474,091166
0000000174,0000011533,036654,087710,036531,054914,087924,035670,058221,091519,058577,091562
0000000175,0000011600,037084,088103,036962,054001,088316,036150,057319,091902,057681,091943
0000000176,0000011667,037541,088468,037421,053092,088681,036658,056420,092256,056788,092295
0000000177,0000011733,038012,088819,037892,052185,089031,037179,055523,092595,055898,092631
0000000178,0000011800,038496,089156,038377,051281,089367,037712,054630,092919,055010,092953
0000000179,0000011867,039005,089464,038888,050383,089675,038272,053742,093213,054129,093245
0000000180,0000011933,039526,089758,039410,049488,089967,038844,052858,093491,053251,093521
0000000181,0000012000,040060,090037,039946,048597,090245,039428,051978,093754,052377,093781
0000000182,0000012067,040619,090286,040505,047714,090493,040035,051107,093985,051511,094011
0000000183,0000012133,041189,090520,041077,046836,090726,040655,050241,094200,050650,094224
0000000184,0000012200,041770,090739,041659,045963,090944,041286,049380,094400,049795,094422
0000000185,0000012267,042374,090927,042265,045101,091132,041939,048530,094568,048950,094588
0000000186,0000012333,042989,091101,042881,044246,091304,042602,047686,094720,048112,094738
0000000187,0000012400,043615,091259,043508,043396,091461,043277,046848,094856,047279,094873
0000000188,0000012467,044262,091386,044156,042560,091587,043971,046024,094959,046461,094974
0000000189,0000012533,044918,091497,044814,041731,091697,044675,045208,095046,045649,095060
0000000190,0000012600,045584,091594,045482,040909,091792,045389,044399,095117,044845,095130
0000000191,0000012667,046270,091659,046169,040103,091855,046121,043605,095156,044056,095167
0000000192,0000012733,046964,091708,046864,039305,091903,046861,042821,095178,043276,095188
0000000193,0000012800,047667,091742,047569,038516,091936,047610,042045,095183,042505,095192
0000000194,0000012867,048387,091744,048291,037746,091936,048375,041287,095156,041751,095164
0000000195,0000012933,049115,091731,049020,036984,091922,049148,040539,095113,041007,095120
0000000196,0000013000,049851,091702,049758,036232,091891,049928,039800,095054,040273,095060
0000000197,0000013067,050602,091642,050510,035501,091829,050722,039082,094962,039558,094967
0000000198,0000013133,051360,091566,051270,034780,091752,051523,038374,094854,038855,094858
0000000199,0000013200,052125,091474,052036,034069,091658,052330,037677,094729,038161,094733
0000000200,0000013267,052902,091352,052815,033381,091534,053148,037002,094573,037490,094575
0000000201,0000013333,053685,091214,053600,032705,091395,053972,036339,094400,036831,094402
0000000202,0000013400,054474,091061,054390,032040,091239,054801,035688,094211,036183,094213
0000000203,0000013467,055274,090877,055191,031399,091053,055639,035061,093991,035558,093993
