DIgSILENT PowerFactory,20000410,2000
10,10A,00D
1,LC684-652A:Phase Voltage A/Terminal i,,,kV,0.00010000000,-4.401670,0.000000,1789,99998,1,1,P
2,LC684-652A:Phase Voltage C/Terminal i,,,kV,0.00010000000,-5.071647,0.000000,-8545,99998,1,1,P
3,LC692-675:Phase Voltage A/Terminal i,,,kV,0.00010000000,-4.412482,0.000000,1874,99998,1,1,P
4,LC692-675:Phase Voltage B/Terminal i,,,kV,0.00010000000,-5.011037,0.000000,-23259,99998,1,1,P
5,LC692-675:Phase Voltage C/Terminal i,,,kV,0.00010000000,-5.088122,0.000000,-7737,99998,1,1,P
6,LOHL632-633:Phase Voltage A/Terminal i,,,kV,0.00010000000,-5.306071,0.000000,14951,99998,1,1,P
7,LOHL632-633:Phase Voltage B/Terminal i,,,kV,0.00010000000,-5.685455,0.000000,1724,99998,1,1,P
8,LOHL632-633:Phase Voltage C/Terminal i,,,kV,0.00010000000,-5.645958,0.000000,7384,99998,1,1,P
9,LOHL645-646:Phase Voltage B/Terminal i,,,kV,0.00010000000,-5.692007,0.000000,1952,99998,1,1,P
10,LOHL645-646:Phase Voltage C/Terminal i,,,kV,0.00010000000,-5.648441,0.000000,7439,99998,1,1,P
50
1
15000.000000,3001
11/11/2020,23:43:02.000000
11/11/2020,23:43:02.000000
ASCII
1.000000
0000000001,0000000000,074688,050997,074805,019461,051112,083992,026476,056259,026579,056272
0000000002,0000000067,075124,050095,075240,019920,050209,084418,026930,055366,027030,055381
0000000003,0000000133,075539,049193,075655,020397,049307,084824,027410,054466,027511,054482
0000000004,0000000200,075936,048292,076051,020891,048407,085211,027908,053568,028007,053585
0000000005,0000000267,076307,047391,076425,021405,047509,085578,028422,052675,028521,052692
0000000006,0000000333,076660,046495,076779,021936,046613,085923,028952,051785,029049,051804
0000000007,0000000400,076996,045602,077113,022485,045720,086247,029508,050892,029606,050910
0000000008,0000000467,077306,044711,077425,023051,044831,086552,030070,050011,030166,050030
0000000009,0000000533,077598,043825,077716,023635,043944,086834,030659,049125,030754,049145
0000000010,0000000600,077868,042943,077986,024236,043063,087096,031261,048248,031354,048268
0000000011,0000000667,078115,042065,078234,024853,042187,087336,031878,047376,031971,047398
0000000012,0000000733,078340,041194,078461,025485,041316,087553,032510,046511,032602,046533
0000000013,0000000800,078545,040329,078666,026134,040452,087749,033157,045653,033248,045676
0000000014,0000000867,078728,039470,078849,026798,039594,087923,033820,044802,033909,044826
0000000015,0000000933,078888,038618,079010,027476,038743,088075,034497,043957,034585,043982
0000000016,0000001000,079027,037774,079148,028169,037900,088205,035189,043120,035276,043146
0000000017,0000001067,079143,036937,079265,028874,037064,088286,035841,042264,035909,042291
0000000018,0000001133,079238,036110,079361,029586,036238,088355,036474,041436,036514,041463
0000000019,0000001200,079311,035291,079433,030313,035418,088384,037197,040586,037241,040614
0000000020,0000001267,079361,034481,079483,031046,034609,088451,037962,039772,038002,039793
0000000021,0000001333,079389,033683,079512,031786,033813,088476,038695,039018,038732,039047
0000000022,0000001400,079394,032894,079518,032537,033025,088526,039544,038284,039587,038318
0000000023,0000001467,079377,032116,079501,033291,032249,088485,040257,037533,040293,037567
0000000024,0000001533,079338,031349,079461,034058,031482,088420,041050,036738,041083,036769
0000000025,0000001600,079275,030593,079399,034829,030727,088320,041776,035942,041802,035971
0000000026,0000001667,079190,029850,079313,035609,029986,088238,042567,035263,042591,035298
0000000027,0000001733,079082,029120,079205,036398,029257,088119,043356,034551,043377,034588
0000000028,0000001800,078949,028401,079074,037197,028538,088009,044212,033831,044232,033867
0000000029,0000001867,078794,027697,078919,038001,027837,087848,045001,033176,045016,033215
0000000030,0000001933,078616,027005,078741,038814,027145,087632,045781,032449,045789,032485
0000000031,0000002000,078415,026328,078540,039635,026468,087421,046619,031780,046625,031817
0000000032,0000002067,078190,025665,078316,040465,025807,087209,047472,031138,047476,031177
0000000033,0000002133,077943,025017,078068,041301,025161,086961,048317,030536,048317,030578
0000000034,0000002200,077673,024383,077798,042145,024528,086669,049152,029872,049148,029912
0000000035,0000002267,077380,023767,077506,042996,023913,086387,050022,029312,050015,029356
0000000036,0000002333,077066,023165,077191,043852,023312,086040,050835,028688,050821,028729
0000000037,0000002400,076730,022580,076855,044717,022728,085695,051709,028099,051692,028139
0000000038,0000002467,076371,022012,076497,045586,022162,085348,052584,027566,052563,027608
0000000039,0000002533,075992,021461,076118,046460,021614,084980,053472,027066,053449,027111
0000000040,0000002600,075592,020928,075719,047338,021081,084562,054336,026508,054307,026550
0000000041,0000002667,075173,020413,075299,048220,020569,084149,055227,026032,055198,026077
0000000042,0000002733,074734,019917,074861,049106,020074,083712,056123,025556,056095,025601
0000000043,0000002800,074276,019441,074403,049994,019600,083259,057015,025120,056989,025168
0000000044,0000002867,073800,018983,073927,050885,019143,082779,057916,024664,057890,024711
0000000045,0000002933,073306,018546,073432,051777,018708,082264,058780,024229,058752,024275
0000000046,0000003000,072794,018130,072921,052673,018294,081770,059699,023855,059675,023903
0000000047,0000003067,072266,017734,072393,053569,017899,081227,060583,023459,060560,023506
0000000048,0000003133,071722,017360,071849,054466,017528,080698,061499,023136,061479,023186
0000000049,0000003200,071162,017007,071289,055363,017177,080125,062380,022781,062361,022829
0000000050,0000003267,070587,016677,070714,056260,016849,079553,063279,022481,063261,022530
0000000051,0000003333,069997,016370,070125,057155,016543,078943,064143,022182,064125,022230
0000000052,0000003400,069394,016086,069521,058049,016261,078334,065031,021912,065013,021961
0000000053,0000003467,068777,015826,068904,058941,016003,077714,065921,021675,065905,021725
0000000054,0000003533,068146,015589,068274,059828,015768,077081,066804,021463,066789,021513
0000000055,0000003600,067503,015376,067631,060711,015557,076431,067679,021269,067665,021321
0000000056,0000003667,066848,015188,066976,061587,015371,075763,068539,021093,068526,021145
0000000057,0000003733,066181,015025,066308,062457,015209,075079,069383,020936,069369,020988
0000000058,0000003800,065502,014886,065629,063319,015073,074382,070222,020804,070208,020855
0000000059,0000003867,064811,014773,064939,064172,014961,073677,071057,020701,071043,020752
0000000060,0000003933,064110,014685,064237,065017,014874,072967,071897,020625,071884,020677
0000000061,0000004000,063397,014622,063525,065850,014813,072234,072707,020565,072695,020617
0000000062,0000004067,062674,014585,062801,066672,014777,071507,073530,020549,073518,020603
0000000063,0000004133,061940,014573,062067,067482,014766,070751,074313,020536,074301,020589
0000000064,0000004200,061196,014586,061323,068280,014780,069996,075109,020561,075098,020615
0000000065,0000004267,060442,014624,060568,069064,014819,069214,075863,020588,075852,020641
0000000066,0000004333,059677,014687,059803,069835,014883,068434,076617,020655,076606,020708
0000000067,0000004400,058902,014774,059028,070591,014972,067643,077362,020746,077352,020800
0000000068,0000004467,058118,014886,058243,071333,015084,066847,078097,020863,078087,020918
0000000069,0000004533,057324,015022,057449,072061,015221,066050,078837,021008,078835,021063
0000000070,0000004600,056520,015182,056645,072773,015381,065235,079550,021172,079554,021227
0000000071,0000004667,055707,015364,055831,073473,015565,064416,080261,021360,080275,021414
0000000072,0000004733,054885,015570,055009,074159,015770,063583,080948,021560,080972,021614
0000000073,0000004800,054054,015798,054178,074832,015999,062746,081627,021790,081661,021844
0000000074,0000004867,053215,016048,053338,075494,016249,061910,082297,022054,082340,022108
0000000075,0000004933,052369,016319,052491,076143,016521,061050,082937,022315,082987,022368
0000000076,0000005000,051515,016611,051637,076781,016814,060195,083577,022616,083635,022669
0000000077,0000005067,050655,016924,050777,077407,017127,059330,084192,022928,084255,022981
0000000078,0000005133,049789,017257,049910,078020,017460,058457,084787,023260,084855,023313
0000000079,0000005200,048919,017610,049039,078620,017813,057579,085366,023614,085439,023667
0000000080,0000005267,048044,017982,048164,079206,018186,056699,085931,023988,086008,024041
0000000081,0000005333,047167,018372,047286,079776,018577,055816,086478,024379,086559,024432
0000000082,0000005400,046287,018782,046406,080330,018987,054932,087011,024791,087095,024844
0000000083,0000005467,045406,019209,045525,080866,019416,054052,087528,025230,087616,025284
0000000084,0000005533,044525,019655,044643,081383,019862,053157,088010,025669,088101,025722
0000000085,0000005600,043644,020118,043762,081879,020326,052275,088485,026142,088579,026195
0000000086,0000005667,042765,020599,042883,082354,020807,051388,088932,026626,089028,026678
0000000087,0000005733,041888,021096,042005,082806,021306,050501,089353,027123,089450,027175
0000000088,0000005800,041014,021611,041131,083233,021822,049622,089754,027647,089852,027700
0000000089,0000005867,040144,022143,040261,083634,022354,048742,090123,028183,090218,028235
0000000090,0000005933,039278,022691,039394,084007,022903,047857,090456,028725,090548,028777
0000000091,0000006000,038417,023255,038533,084352,023468,046986,090776,029293,090865,029345
0000000092,0000006067,037560,023836,037676,084667,024050,046119,091066,029882,091153,029934
0000000093,0000006133,036709,024432,036824,084951,024647,045257,091331,030481,091414,030533
0000000094,0000006200,035863,025044,035978,085203,025259,044392,091551,031088,091628,031140
0000000095,0000006267,035022,025672,035136,085422,025888,043541,091755,031723,091826,031775
0000000096,0000006333,034186,026314,034300,085609,026531,042692,091925,032365,091991,032416
0000000097,0000006400,033356,026972,033470,085763,027188,041855,092078,033029,092140,033081
0000000098,0000006467,032531,027643,032644,085883,027860,041017,092193,033699,092250,033750
0000000099,0000006533,031710,028328,031823,085973,028546,040191,092287,034388,092340,034439
0000000100,0000006600,030894,029027,031006,086030,029244,039372,092354,035094,092404,035145
0000000101,0000006667,030082,029739,030194,086058,029956,038560,092397,035811,092443,035861
0000000102,0000006733,029274,030462,029386,086056,030680,037750,092408,036536,092452,036586
0000000103,0000006800,028471,031198,028582,086027,031415,036954,092403,037281,092444,037331
0000000104,0000006867,027672,031945,027782,085972,032161,036159,092367,038031,092405,038080
0000000105,0000006933,026877,032702,026986,085893,032918,035377,092316,038797,092352,038846
0000000106,0000007000,026087,033469,026195,085791,033685,034599,092238,039571,092272,039619
0000000107,0000007067,025302,034244,025410,085667,034460,033826,092137,040351,092169,040399
0000000108,0000007133,024522,035029,024629,085524,035244,033064,092018,041142,092048,041189
0000000109,0000007200,023749,035821,023855,085362,036036,032314,091884,041946,091912,041993
0000000110,0000007267,022982,036620,023089,085183,036834,031572,091729,042756,091756,042803
0000000111,0000007333,022225,037426,022330,084988,037640,030838,091554,043571,091579,043617
0000000112,0000007400,021476,038237,021581,084778,038451,030116,091362,044393,091386,044438
0000000113,0000007467,020739,039054,020843,084553,039267,029408,091155,045224,091178,045268
0000000114,0000007533,020013,039876,020117,084315,040089,028715,090934,046062,090956,046106
0000000115,0000007600,019301,040702,019405,084063,040915,028032,090692,046901,090713,046945
0000000116,0000007667,018605,041532,018708,083798,041745,027365,090435,047745,090455,047788
0000000117,0000007733,017925,042366,018028,083520,042580,026717,090164,048595,090184,048637
0000000118,0000007800,017264,043204,017366,083228,043417,026087,089875,049451,089895,049493
0000000119,0000007867,016622,044044,016725,082922,044258,025474,089568,050309,089586,050351
0000000120,0000007933,016003,044888,016105,082602,045103,024881,089244,051169,089261,051209
0000000121,0000008000,015406,045735,015507,082267,045950,024308,088903,052031,088919,052071
0000000122,0000008067,014833,046585,014934,081916,046800,023758,088545,052898,088561,052937
0000000123,0000008133,014285,047437,014387,081549,047654,023232,088173,053768,088188,053807
0000000124,0000008200,013764,048293,013865,081164,048510,022730,087782,054641,087797,054679
0000000125,0000008267,013269,049152,013371,080762,049370,022250,087371,055515,087387,055552
0000000126,0000008333,012802,050013,012903,080342,050232,021794,086942,056389,086958,056425
0000000127,0000008400,012363,050878,012464,079903,051098,021364,086495,057265,086512,057300
0000000128,0000008467,011952,051746,012053,079445,051966,020960,086031,058146,086049,058181
0000000129,0000008533,011569,052617,011670,078968,052838,020583,085550,059028,085569,059063
0000000130,0000008600,011214,053491,011315,078473,053713,020230,085049,059910,085070,059943
0000000131,0000008667,010886,054369,010987,077958,054591,019900,084529,060791,084552,060824
0000000132,0000008733,010584,055249,010685,077424,055471,019595,083990,061673,084015,061704
0000000133,0000008800,010309,056132,010410,076872,056354,019316,083435,062555,083463,062586
0000000134,0000008867,010060,057017,010160,076302,057240,019061,082864,063438,082894,063468
0000000135,0000008933,009834,057905,009935,075715,058127,018829,082276,064321,082309,064350
0000000136,0000009000,009632,058794,009733,075112,059016,018619,081671,065200,081706,065228
0000000137,0000009067,009453,059684,009553,074492,059905,018430,081049,066076,081088,066104
0000000138,0000009133,009296,060575,009396,073858,060795,018265,080414,066952,080455,066979
0000000139,0000009200,009160,061465,009259,073209,061684,018122,079765,067826,079811,067852
0000000140,0000009267,009043,062354,009142,072547,062572,018000,079105,068696,079154,068722
0000000141,0000009333,008946,063241,009045,071873,063458,017897,078430,069561,078482,069585
0000000142,0000009400,008869,064125,008966,071187,064340,017813,077740,070419,077796,070442
0000000143,0000009467,008809,065005,008906,070491,065218,017749,077041,071271,077101,071294
0000000144,0000009533,008768,065880,008864,069784,066091,017707,076333,072118,076397,072140
0000000145,0000009600,008744,066749,008840,069068,066957,017683,075613,072956,075681,072977
0000000146,0000009667,008739,067609,008834,068344,067815,017679,074883,073785,074954,073806
0000000147,0000009733,008751,068461,008846,067611,068664,017694,074143,074604,074219,074623
0000000148,0000009800,008782,069303,008876,066870,069503,017729,073395,075411,073474,075430
0000000149,0000009867,008831,070133,008924,066121,070331,017783,072637,076208,072721,076225
0000000150,0000009933,008900,070950,008992,065364,071145,017858,071872,076992,071959,077008
0000000151,0000010000,008988,071754,009080,064601,071946,017954,071098,077762,071190,077778
0000000152,0000010067,009097,072542,009188,063830,072731,018071,070317,078516,070413,078532
0000000153,0000010133,009226,073313,009316,063051,073500,018207,069525,079255,069626,079269
0000000154,0000010200,009377,074068,009466,062265,074251,018368,068729,079979,068833,079993
0000000155,0000010267,009549,074803,009639,061472,074984,018548,067921,080684,068028,080696
0000000156,0000010333,009745,075519,009833,060670,075698,018752,067108,081373,067220,081385
0000000157,0000010400,009963,076215,010051,059861,076391,018977,066286,082041,066401,082052
0000000158,0000010467,010205,076889,010292,059043,077063,019226,065458,082692,065577,082702
0000000159,0000010533,010470,077541,010557,058217,077714,019499,064625,083323,064747,083333
0000000160,0000010600,010759,078171,010846,057383,078342,019794,063784,083934,063912,083943
0000000161,0000010667,011071,078779,011158,056541,078947,020113,062938,084525,063069,084533
0000000162,0000010733,011407,079362,011494,055692,079530,020454,062085,085094,062221,085102
0000000163,0000010800,011767,079922,011854,054834,080088,020817,061225,085641,061365,085648
0000000164,0000010867,012149,080459,012236,053970,080623,021201,060360,086166,060505,086172
0000000165,0000010933,012553,080971,012640,053099,081135,021608,059491,086670,059640,086675
0000000166,0000011000,012979,081460,013066,052222,081623,022035,058615,087152,058768,087157
0000000167,0000011067,013425,081925,013512,051339,082087,022478,057722,087608,057873,087613
0000000168,0000011133,013891,082366,013978,050450,082527,022941,056828,088043,056977,088047
0000000169,0000011200,014375,082783,014463,049556,082944,023423,055931,088456,056081,088459
0000000170,0000011267,014878,083178,014965,048656,083338,023922,055026,088845,055172,088848
0000000171,0000011333,015397,083549,015485,047751,083709,024438,054120,089212,054264,089215
0000000172,0000011400,015931,083898,016019,046843,084057,024972,053214,089558,053356,089560
0000000173,0000011467,016480,084224,016568,045930,084382,025523,052310,089884,052450,089885
0000000174,0000011533,017042,084527,017131,045014,084686,026089,051406,090188,051545,090189
0000000175,0000011600,017617,084809,017706,044097,084967,026670,050503,090470,050642,090471
0000000176,0000011667,018203,085070,018292,043178,085227,027264,049603,090731,049740,090731
0000000177,0000011733,018799,085309,018889,042260,085465,027871,048704,090970,048841,090970
0000000178,0000011800,019406,085526,019496,041343,085682,028491,047809,091188,047946,091187
0000000179,0000011867,020022,085723,020112,040429,085877,029123,046919,091385,047056,091384
0000000180,0000011933,020647,085898,020738,039520,086052,029767,046036,091561,046172,091560
0000000181,0000012000,021281,086053,021372,038616,086206,030421,045159,091716,045295,091715
0000000182,0000012067,021923,086187,022014,037718,086338,031087,044289,091850,044425,091848
0000000183,0000012133,022574,086300,022665,036829,086450,031762,043427,091962,043563,091960
0000000184,0000012200,023233,086391,023324,035949,086541,032448,042575,092052,042710,092049
0000000185,0000012267,023901,086463,023992,035080,086610,033143,041732,092120,041867,092117
0000000186,0000012333,024579,086512,024670,034223,086659,033851,040902,092168,041038,092165
0000000187,0000012400,025266,086541,025357,033378,086686,034568,040083,092194,040218,092190
0000000188,0000012467,025963,086549,026054,032547,086692,035296,039276,092197,039411,092193
0000000189,0000012533,026671,086534,026762,031731,086676,036035,038484,092180,038619,092176
0000000190,0000012600,027391,086499,027482,030930,086639,036785,037704,092140,037839,092135
0000000191,0000012667,028122,086442,028214,030145,086580,037545,036939,092077,037074,092073
0000000192,0000012733,028867,086363,028959,029376,086500,038319,036191,091995,036325,091990
0000000193,0000012800,029625,086262,029716,028625,086398,039102,035455,091889,035588,091884
0000000194,0000012867,030396,086139,030488,027890,086274,039890,034718,091755,034844,091750
0000000195,0000012933,031181,085995,031273,027172,086128,040691,033995,091601,034112,091596
0000000196,0000013000,031981,085829,032073,026470,085961,041501,033284,091423,033391,091418
0000000197,0000013067,032795,085641,032887,025784,085772,042322,032588,091222,032686,091218
0000000198,0000013133,033623,085431,033716,025112,085561,043158,031913,091003,032003,090999
0000000199,0000013200,034465,085200,034558,024455,085329,044007,031259,090764,031342,090760
0000000200,0000013267,035320,084948,035414,023812,085076,044864,030619,090502,030696,090498
0000000201,0000013333,036188,084675,036282,023185,084802,045733,029997,090221,030069,090217
0000000202,0000013400,037068,084381,037162,022572,084507,046611,029392,089919,029458,089914
0000000203,0000013467,037958,084066,038053,021975,084192,047496,028802,089594,028863,089590
