DIgSILENT PowerFactory,20000410,2000
10,10A,00D
1,LC684-652A:Phase Voltage A/Terminal i,,,kV,0.00010000000,-6.462116,0.000000,16687,99998,1,1,P
2,LC684-652A:Phase Voltage C/Terminal i,,,kV,0.00010000000,-4.776220,0.000000,9638,99998,1,1,P
3,LC692-675:Phase Voltage A/Terminal i,,,kV,0.00010000000,-6.460481,0.000000,16529,99998,1,1,P
4,LC692-675:Phase Voltage B/Terminal i,,,kV,0.00010000000,-5.950690,0.000000,6154,99998,1,1,P
5,LC692-675:Phase Voltage C/Terminal i,,,kV,0.00010000000,-4.868809,0.000000,10808,99998,1,1,P
6,LOHL632-633:Phase Voltage A/Terminal i,,,kV,0.00010000000,-6.453396,0.000000,24553,99998,1,1,P
7,LOHL632-633:Phase Voltage B/Terminal i,,,kV,0.00010000000,-6.219264,0.000000,16589,99998,1,1,P
8,LOHL632-633:Phase Voltage C/Terminal i,,,kV,0.00010000000,-5.514029,0.000000,18617,99998,1,1,P
9,LOHL645-646:Phase Voltage B/Terminal i,,,kV,0.00010000000,-6.225193,0.000000,16703,99998,1,1,P
10,LOHL645-646:Phase Voltage C/Terminal i,,,kV,0.00010000000,-5.517502,0.000000,18685,99998,1,1,P
50
1
15000.000000,3001
11/11/2020,23:42:02.000000
11/11/2020,23:42:02.000000
ASCII
1.000000
0000000001,0000000000,095292,048043,095285,028858,048919,095465,031815,054939,031910,054963
0000000002,0000000067,095726,047139,095720,029317,048016,095890,032266,054048,032362,054071
0000000003,0000000133,096146,046239,096136,029793,047114,096297,032753,053143,032847,053169
0000000004,0000000200,096539,045337,096531,030288,046214,096685,033241,052254,033334,052281
0000000005,0000000267,096910,044436,096905,030801,045316,097052,033763,051353,033855,051381
0000000006,0000000333,097267,043541,097260,031332,044420,097395,034291,050466,034384,050493
0000000007,0000000400,097600,042648,097593,031881,043527,097722,034843,049574,034933,049602
0000000008,0000000467,097910,041756,097905,032448,042637,098025,035413,048687,035503,048715
0000000009,0000000533,098201,040870,098196,033032,041751,098307,035994,047809,036082,047839
0000000010,0000000600,098471,039988,098466,033632,040870,098569,036597,046929,036684,046959
0000000011,0000000667,098719,039112,098714,034249,039994,098808,037212,046061,037298,046092
0000000012,0000000733,098946,038240,098941,034882,039123,099027,037850,045191,037935,045222
0000000013,0000000800,099150,037375,099146,035530,038259,099222,038496,044334,038580,044367
0000000014,0000000867,099332,036515,099329,036194,037401,099396,039158,043482,039241,043516
0000000015,0000000933,099493,035664,099490,036873,036550,099548,039835,042638,039917,042672
0000000016,0000001000,099632,034820,099629,037566,035707,099678,040527,041801,040607,041836
0000000017,0000001067,099749,033983,099745,038270,034871,099764,041189,040949,041251,040984
0000000018,0000001133,099842,033156,099841,038985,034045,099824,041809,040112,041849,040151
0000000019,0000001200,099916,032337,099912,039709,033225,099856,042534,039264,042569,039303
0000000020,0000001267,099965,031527,099964,040443,032418,099953,043339,038477,043380,038518
0000000021,0000001333,099993,030730,099992,041182,031622,099970,044057,037770,044094,037818
0000000022,0000001400,099998,029940,099998,041932,030833,099998,044859,036981,044892,037023
0000000023,0000001467,099982,029162,099981,042689,030055,099949,045598,036197,045628,036241
0000000024,0000001533,099942,028394,099941,043451,029288,099858,046294,035383,046317,035423
0000000025,0000001600,099880,027639,099878,044226,028534,099791,047115,034644,047138,034688
0000000026,0000001667,099794,026895,099794,045008,027792,099744,047952,033945,047974,033990
0000000027,0000001733,099686,026165,099685,045796,027063,099602,048716,033210,048732,033255
0000000028,0000001800,099554,025447,099553,046591,026346,099431,049463,032486,049470,032529
0000000029,0000001867,099399,024742,099399,047398,025641,099292,050319,031793,050326,031837
0000000030,0000001933,099221,024051,099221,048212,024952,099131,051179,031151,051187,031200
0000000031,0000002000,099019,023374,099020,049032,024276,098919,051974,030496,051975,030546
0000000032,0000002067,098796,022711,098795,049860,023613,098647,052772,029797,052766,029844
0000000033,0000002133,098548,022062,098548,050698,022966,098409,053633,029152,053625,029199
0000000034,0000002200,098278,021429,098279,051542,022335,098157,054507,028570,054497,028620
0000000035,0000002267,097985,020812,097986,052392,021718,097830,055329,027941,055315,027990
0000000036,0000002333,097670,020210,097671,053249,021119,097514,056173,027366,056153,027416
0000000037,0000002400,097334,019626,097335,054113,020536,097198,057070,026825,057048,026878
0000000038,0000002467,096976,019057,096977,054983,019969,096821,057928,026244,057901,026296
0000000039,0000002533,096597,018506,096598,055857,019419,096439,058805,025708,058775,025760
0000000040,0000002600,096198,017974,096199,056734,018889,096024,059654,025200,059618,025253
0000000041,0000002667,095778,017459,095779,057616,018375,095610,060545,024705,060508,024759
0000000042,0000002733,095339,016963,095340,058502,017880,095163,061437,024208,061401,024261
0000000043,0000002800,094881,016486,094883,059390,017406,094713,062329,023772,062294,023827
0000000044,0000002867,094404,016029,094406,060281,016950,094237,063228,023330,063194,023385
0000000045,0000002933,093910,015592,093912,061174,016515,093757,064142,022935,064109,022993
0000000046,0000003000,093399,015175,093401,062069,016101,093236,065022,022533,064990,022590
0000000047,0000003067,092871,014780,092873,062965,015707,092711,065925,022166,065896,022225
0000000048,0000003133,092326,014405,092329,063862,015334,092157,066818,021790,066791,021847
0000000049,0000003200,091766,014053,091769,064760,014984,091601,067721,021467,067695,021525
0000000050,0000003267,091191,013723,091194,065657,014656,091022,068612,021157,068587,021216
0000000051,0000003333,090602,013416,090605,066552,014351,090432,069501,020883,069478,020944
0000000052,0000003400,089998,013132,090001,067446,014068,089816,070380,020608,070357,020667
0000000053,0000003467,089381,012871,089384,068337,013810,089194,071262,020370,071240,020431
0000000054,0000003533,088751,012635,088754,069225,013575,088559,072149,020152,072129,020213
0000000055,0000003600,088108,012422,088111,070107,013364,087889,072995,019930,072974,019990
0000000056,0000003667,087452,012234,087456,070984,013178,087238,073874,019775,073854,019837
0000000057,0000003733,086785,012071,086788,071853,013016,086550,074719,019618,074699,019679
0000000058,0000003800,086106,011932,086109,072715,012879,085855,075559,019485,075539,019547
0000000059,0000003867,085416,011819,085419,073569,012768,085160,076413,019393,076394,019455
0000000060,0000003933,084714,011731,084717,074413,012681,084434,077225,019303,077206,019365
0000000061,0000004000,084002,011668,084005,075246,012620,083717,078053,019262,078034,019325
0000000062,0000004067,083279,011631,083281,076068,012584,082966,078846,019219,078827,019281
0000000063,0000004133,082545,011619,082547,076879,012573,082226,079655,019219,079637,019282
0000000064,0000004200,081801,011632,081803,077676,012587,081467,080439,019244,080422,019308
0000000065,0000004267,081046,011670,081048,078461,012626,080689,081201,019274,081184,019337
0000000066,0000004333,080281,011733,080283,079232,012690,079919,081973,019348,081957,019413
0000000067,0000004400,079507,011820,079508,079988,012779,079118,082702,019427,082686,019491
0000000068,0000004467,078722,011932,078723,080730,012891,078325,083441,019550,083427,019615
0000000069,0000004533,077928,012068,077929,081457,013028,077513,084164,019676,084155,019739
0000000070,0000004600,077124,012227,077125,082170,013188,076709,084887,019852,084886,019917
0000000071,0000004667,076311,012410,076311,082869,013371,075880,085587,020028,085595,020092
0000000072,0000004733,075489,012616,075489,083555,013577,075062,086294,020248,086313,020312
0000000073,0000004800,074659,012844,074658,084229,013806,074222,086964,020475,086991,020539
0000000074,0000004867,073820,013094,073818,084890,014056,073381,087632,020731,087668,020795
0000000075,0000004933,072973,013365,072971,085540,014328,072533,088289,021007,088333,021071
0000000076,0000005000,072120,013657,072117,086178,014621,071673,088919,021303,088971,021367
0000000077,0000005067,071260,013970,071257,086804,014934,070801,089526,021608,089584,021671
0000000078,0000005133,070394,014303,070390,087417,015267,069934,090131,021947,090193,022010
0000000079,0000005200,069523,014655,069519,088017,015620,069056,090710,022297,090776,022360
0000000080,0000005267,068649,015027,068644,088602,015993,068173,091269,022668,091339,022731
0000000081,0000005333,067771,015418,067766,089172,016384,067289,091817,023060,091891,023122
0000000082,0000005400,066891,015827,066886,089726,016794,066406,092350,023473,092428,023536
0000000083,0000005467,066010,016255,066005,090262,017222,065522,092862,023907,092944,023970
0000000084,0000005533,065129,016701,065123,090779,017669,064634,093353,024354,093438,024417
0000000085,0000005600,064248,017164,064242,091276,018133,063745,093819,024819,093906,024882
0000000086,0000005667,063369,017644,063363,091751,018614,062864,094273,025308,094363,025371
0000000087,0000005733,062493,018142,062485,092202,019113,061973,094688,025803,094780,025865
0000000088,0000005800,061619,018657,061611,092630,019628,061096,095093,026327,095185,026390
0000000089,0000005867,060749,019188,060741,093030,020161,060209,095454,026854,095543,026916
0000000090,0000005933,059883,019737,059874,093404,020710,059333,095798,027409,095883,027472
0000000091,0000006000,059021,020301,059013,093749,021275,058461,096115,027976,096198,028038
0000000092,0000006067,058165,020882,058156,094064,021856,057590,096402,028557,096481,028618
0000000093,0000006133,057313,021478,057304,094347,022453,056725,096663,029155,096739,029216
0000000094,0000006200,056467,022090,056458,094599,023066,055867,096892,029772,096963,029833
0000000095,0000006267,055626,022718,055616,094819,023694,055016,097097,030405,097162,030467
0000000096,0000006333,054791,023360,054780,095005,024337,054167,097268,031047,097327,031109
0000000097,0000006400,053960,024017,053950,095159,024995,053329,097417,031712,097473,031774
0000000098,0000006467,053135,024689,053124,095280,025667,052492,097534,032381,097585,032443
0000000099,0000006533,052314,025374,052303,095369,026352,051664,097624,033070,097671,033130
0000000100,0000006600,051498,026073,051486,095427,027051,050843,097690,033770,097733,033830
0000000101,0000006667,050686,026784,050674,095454,027763,050034,097737,034492,097777,034553
0000000102,0000006733,049879,027508,049866,095453,028487,049227,097750,035221,097788,035282
0000000103,0000006800,049076,028244,049062,095424,029222,048424,097738,035957,097772,036016
0000000104,0000006867,048276,028990,048262,095369,029968,047633,097706,036711,097738,036770
0000000105,0000006933,047482,029747,047466,095289,030725,046847,097650,037474,097680,037533
0000000106,0000007000,046691,030514,046675,095187,031492,046072,097576,038252,097604,038310
0000000107,0000007067,045906,031290,045890,095063,032267,045301,097477,039034,097503,039092
0000000108,0000007133,045126,032074,045109,094920,033051,044537,097355,039822,097378,039879
0000000109,0000007200,044353,032866,044335,094758,033842,043786,097220,040625,097242,040682
0000000110,0000007267,043587,033666,043569,094579,034641,043046,097067,041438,097088,041494
0000000111,0000007333,042829,034471,042810,094384,035446,042312,096892,042252,096911,042308
0000000112,0000007400,042081,035283,042061,094174,036258,041590,096700,043074,096718,043129
0000000113,0000007467,041343,036100,041323,093950,037074,040881,096492,043904,096509,043958
0000000114,0000007533,040618,036922,040597,093711,037896,040186,096269,044741,096285,044795
0000000115,0000007600,039906,037748,039885,093460,038722,039507,096032,045583,096047,045637
0000000116,0000007667,039209,038578,039188,093195,039552,038842,095778,046430,095793,046483
0000000117,0000007733,038529,039412,038508,092916,040386,038192,095504,047279,095518,047331
0000000118,0000007800,037868,040249,037846,092625,041224,037559,095211,048130,095224,048182
0000000119,0000007867,037227,041090,037205,092319,042065,036945,094904,048986,094915,049037
0000000120,0000007933,036607,041934,036585,091999,042909,036353,094581,049848,094592,049898
0000000121,0000008000,036010,042781,035987,091664,043757,035782,094242,050714,094252,050763
0000000122,0000008067,035437,043630,035414,091313,044607,035233,093886,051581,093895,051630
0000000123,0000008133,034890,044483,034867,090945,045460,034706,093511,052450,093520,052498
0000000124,0000008200,034368,045339,034345,090561,046317,034202,093119,053321,093128,053369
0000000125,0000008267,033874,046197,033851,090159,047176,033722,092708,054194,092717,054241
0000000126,0000008333,033407,047059,033384,089738,048039,033267,092279,055069,092289,055115
0000000127,0000008400,032968,047924,032944,089299,048904,032838,091833,055947,091844,055992
0000000128,0000008467,032556,048792,032533,088842,049773,032435,091371,056827,091383,056872
0000000129,0000008533,032173,049663,032150,088365,050645,032057,090889,057710,090903,057755
0000000130,0000008600,031818,050537,031795,087869,051520,031703,090387,058591,090402,058635
0000000131,0000008667,031490,051414,031467,087354,052398,031373,089866,059471,089883,059513
0000000132,0000008733,031189,052295,031165,086821,053278,031068,089328,060352,089347,060394
0000000133,0000008800,030914,053178,030890,086269,054161,030788,088773,061235,088794,061276
0000000134,0000008867,030664,054063,030640,085699,055047,030534,088202,062119,088225,062159
0000000135,0000008933,030439,054950,030415,085112,055934,030302,087614,063001,087640,063040
0000000136,0000009000,030237,055840,030213,084508,056823,030093,087010,063881,087039,063920
0000000137,0000009067,030058,056730,030033,083889,057712,029905,086389,064760,086422,064797
0000000138,0000009133,029900,057620,029876,083254,058602,029739,085753,065635,085789,065671
0000000139,0000009200,029764,058511,029739,082606,059491,029594,085103,066506,085142,066542
0000000140,0000009267,029648,059400,029622,081944,060379,029470,084440,067374,084483,067409
0000000141,0000009333,029551,060287,029525,081270,061264,029368,083765,068240,083811,068274
0000000142,0000009400,029473,061171,029446,080584,062147,029287,083080,069101,083130,069134
0000000143,0000009467,029413,062051,029386,079887,063025,029224,082382,069954,082436,069986
0000000144,0000009533,029372,062926,029344,079181,063898,029180,081671,070798,081728,070830
0000000145,0000009600,029349,063794,029320,078465,064764,029155,080949,071635,081010,071666
0000000146,0000009667,029343,064655,029314,077740,065622,029150,080218,072463,080284,072492
0000000147,0000009733,029356,065507,029326,077007,066471,029167,079481,073284,079550,073313
0000000148,0000009800,029386,066349,029356,076266,067310,029200,078730,074090,078803,074118
0000000149,0000009867,029436,067179,029404,075517,068137,029255,077973,074887,078051,074914
0000000150,0000009933,029505,067996,029472,074761,068952,029330,077208,075670,077290,075697
0000000151,0000010000,029593,068799,029560,073997,069753,029426,076435,076440,076521,076466
0000000152,0000010067,029701,069587,029668,073226,070538,029543,075653,077196,075743,077221
0000000153,0000010133,029831,070359,029796,072448,071307,029681,074864,077936,074958,077961
0000000154,0000010200,029981,071113,029946,071662,072058,029841,074067,078659,074165,078683
0000000155,0000010267,030154,071849,030118,070868,072791,030022,073260,079366,073362,079388
0000000156,0000010333,030349,072565,030313,070067,073505,030225,072447,080054,072552,080076
0000000157,0000010400,030567,073260,030531,069257,074198,030451,071625,080723,071734,080744
0000000158,0000010467,030809,073935,030772,068439,074870,030699,070797,081372,070909,081392
0000000159,0000010533,031074,074587,031037,067614,075521,030973,069964,082006,070081,082025
0000000160,0000010600,031363,075217,031326,066780,076149,031266,069121,082613,069242,082632
0000000161,0000010667,031676,075824,031638,065938,076754,031586,068275,083205,068400,083223
0000000162,0000010733,032012,076408,031974,065088,077336,031927,067423,083774,067552,083792
0000000163,0000010800,032371,076968,032334,064231,077895,032288,066561,084320,066695,084337
0000000164,0000010867,032753,077505,032716,063367,078430,032676,065700,084848,065838,084864
0000000165,0000010933,033158,078017,033120,062496,078942,033081,064828,085351,064971,085366
0000000166,0000011000,033583,078506,033546,061619,079430,033508,063954,085833,064100,085847
0000000167,0000011067,034029,078971,033992,060735,079894,033951,063060,086289,063204,086304
0000000168,0000011133,034495,079412,034458,059846,080334,034413,062164,086722,062307,086736
0000000169,0000011200,034980,079829,034943,058952,080751,034897,061270,087137,061413,087151
0000000170,0000011267,035482,080223,035445,058053,081145,035395,060364,087525,060504,087538
0000000171,0000011333,036001,080595,035964,057148,081515,035911,059459,087893,059596,087905
0000000172,0000011400,036535,080943,036499,056239,081864,036447,058554,088241,058690,088253
0000000173,0000011467,037084,081269,037048,055326,082189,036997,057649,088566,057783,088577
0000000174,0000011533,037646,081573,037611,054411,082492,037562,056744,088868,056877,088879
0000000175,0000011600,038221,081855,038186,053493,082774,038142,055840,089149,055972,089160
0000000176,0000011667,038807,082115,038772,052575,083034,038737,054940,089410,055071,089421
0000000177,0000011733,039404,082354,039369,051657,083272,039345,054043,089652,054174,089662
0000000178,0000011800,040011,082572,039976,050740,083489,039964,053147,089869,053278,089878
0000000179,0000011867,040627,082768,040592,049826,083684,040597,052258,090067,052388,090076
0000000180,0000011933,041252,082944,041218,048916,083859,041240,051374,090243,051505,090252
0000000181,0000012000,041885,083099,041852,048012,084012,041894,050495,090396,050625,090404
0000000182,0000012067,042528,083232,042494,047115,084145,042560,049627,090530,049757,090538
0000000183,0000012133,043178,083345,043145,046226,084257,043236,048765,090643,048895,090651
0000000184,0000012200,043837,083437,043804,045346,084347,043922,047913,090733,048043,090741
0000000185,0000012267,044506,083508,044472,044477,084417,044618,047071,090802,047201,090809
0000000186,0000012333,045183,083558,045150,043619,084466,045324,046240,090848,046369,090855
0000000187,0000012400,045870,083587,045837,042775,084493,046042,045421,090875,045551,090881
0000000188,0000012467,046567,083594,046534,041944,084499,046769,044614,090878,044743,090884
0000000189,0000012533,047275,083580,047242,041127,084483,047508,043821,090860,043950,090866
0000000190,0000012600,047995,083545,047962,040326,084446,048258,043043,090821,043171,090827
0000000191,0000012667,048727,083487,048694,039541,084387,049019,042278,090759,042406,090764
0000000192,0000012733,049471,083408,049439,038773,084307,049791,041528,090675,041656,090680
0000000193,0000012800,050229,083308,050196,038021,084205,050575,040794,090569,040921,090574
0000000194,0000012867,051000,083185,050968,037287,084081,051364,040057,090437,040177,090442
0000000195,0000012933,051786,083040,051753,036569,083935,052163,039332,090281,039443,090286
0000000196,0000013000,052585,082874,052553,035867,083768,052974,038622,090103,038722,090108
0000000197,0000013067,053399,082686,053368,035180,083579,053797,037928,089905,038019,089910
0000000198,0000013133,054227,082477,054196,034508,083368,054631,037251,089683,037334,089689
0000000199,0000013200,055069,082246,055038,033851,083136,055479,036596,089444,036673,089449
0000000200,0000013267,055925,081994,055894,033209,082883,056338,035958,089184,036030,089189
0000000201,0000013333,056793,081720,056762,032581,082609,057206,035335,088901,035401,088907
0000000202,0000013400,057672,081426,057642,031969,082314,058084,034729,088598,034789,088604
0000000203,0000013467,058562,081112,058533,031372,081999,058971,034141,088276,034196,088282
